Time Stamp,ID,Extended,Dir,Bus,LEN,D1,D2,D3,D4,D5,D6,D7,D8
1722252,000000BA,false,Rx,0,8,75,49,29,00,00,00,00,28,
1725969,000000BB,false,Rx,0,8,BC,E8,FF,D5,B5,2B,00,10,
1726179,0000015B,false,Rx,0,8,66,59,00,03,00,00,00,00,
1726569,18FED007,true,Rx,0,6,00,03,AB,AB,AA,AB,00,00,
1726779,18FED008,true,Rx,0,7,7E,AB,17,80,F6,FE,00,00,
1726988,18FED009,true,Rx,0,7,00,00,00,00,00,00,00,00,
1731891,000000BA,false,Rx,0,8,25,4A,29,00,00,00,00,39,
1735952,000000BB,false,Rx,0,8,3E,E9,FF,D1,95,2B,00,12,
1736337,0000015B,false,Rx,0,8,73,5A,00,03,00,00,00,00,
1736554,000001BC,false,Rx,0,8,A8,33,A4,44,3A,A4,44,9A,
1736764,000001C0,false,Rx,0,8,16,73,A4,48,8A,A4,46,9A,
1736974,000001B0,false,Rx,0,8,A4,83,A4,48,9A,A4,48,9A,
1737183,000001B4,false,Rx,0,8,9F,73,A4,48,8A,A4,48,9A,
1737395,000001B8,false,Rx,0,8,2F,A3,A4,49,AA,A4,49,9A,
1737611,000001C4,false,Rx,0,8,A6,93,A4,49,9A,A4,48,9A,
1737821,000001C8,false,Rx,0,8,72,73,A4,47,6A,A4,47,9A,
1738032,000001CC,false,Rx,0,8,FF,73,A4,48,8A,A4,48,9A,
1738244,18FED007,true,Rx,0,6,00,03,A0,AB,9F,AB,00,00,
1738632,18FED008,true,Rx,0,7,7E,AB,0B,80,F6,FE,00,00,
1738842,18FED009,true,Rx,0,7,00,00,00,00,00,00,00,00,
1742425,000001BD,false,Rx,0,8,5D,33,A4,43,4A,A4,4A,9A,
1742430,000001BE,false,Rx,0,8,7A,A3,A4,49,9A,A4,49,9A,
1742435,000001B1,false,Rx,0,8,6F,83,A4,48,9A,A4,4C,9A,
1742446,000000BA,false,Rx,0,8,32,4B,29,00,00,00,00,2A,
1742451,000001B2,false,Rx,0,8,AC,B3,A4,4D,CA,A4,4B,9A,
1742456,000001B5,false,Rx,0,8,3D,83,A4,47,8A,A4,48,9A,
1742678,000001B6,false,Rx,0,8,97,83,A4,48,8A,A4,48,9A,
1742890,000001B9,false,Rx,0,8,9B,B3,A4,49,9A,A4,48,9A,
1743111,000001BA,false,Rx,0,8,44,A3,A4,48,9A,A4,49,9A,
1743324,000001C1,false,Rx,0,8,C0,73,A4,45,7A,A4,4A,9A,
1743540,000001C2,false,Rx,0,8,FF,93,A4,4A,9A,A4,48,9A,
1743757,000001C5,false,Rx,0,8,89,83,A4,48,AA,A4,4C,9A,
1743967,000001C6,false,Rx,0,8,C5,C3,A4,4D,CA,A4,4C,9A,
1744177,000001C9,false,Rx,0,8,CF,63,A4,46,6A,A4,49,9A,
1744567,000001CA,false,Rx,0,8,04,A3,A4,49,9A,A4,48,9A,
1744777,000001CD,false,Rx,0,8,9A,73,A4,47,9A,A4,49,9A,
1744987,000001CE,false,Rx,0,8,85,A3,A4,4A,AA,A4,4A,9A,
1746109,000000BB,false,Rx,0,8,49,EA,FF,D1,95,2B,00,14,
1746331,0000015B,false,Rx,0,8,8C,5B,00,03,00,00,00,00,
1746600,18FED007,true,Rx,0,6,00,03,A0,AB,9F,AB,00,00,
1746819,18FED008,true,Rx,0,7,7E,AB,0B,80,F6,FE,00,00,
1747037,18FED009,true,Rx,0,7,00,00,00,00,00,00,00,00,
1751766,000000BA,false,Rx,0,8,37,4C,29,00,00,00,00,2B,
1756079,000000BB,false,Rx,0,8,90,EB,FF,D1,95,2B,00,16,
1756291,0000015B,false,Rx,0,8,B3,5C,00,03,00,00,00,00,
1756507,18FED007,true,Rx,0,6,00,03,A0,AB,9F,AB,00,00,
1756717,18FED008,true,Rx,0,7,7E,AB,0B,80,F6,FE,00,00,
1757100,18FED009,true,Rx,0,7,00,00,00,00,00,00,00,00,
1762469,000000BA,false,Rx,0,8,C9,4D,29,00,00,00,00,30,
1765989,000000BB,false,Rx,0,8,E5,EC,FF,D5,B5,2B,00,00,
1766199,0000015B,false,Rx,0,8,F9,5D,00,03,00,00,00,00,
1766411,18FED007,true,Rx,0,6,00,03,AB,AB,AA,AB,00,00,
1766800,18FED008,true,Rx,0,7,7E,AB,17,80,F6,FE,00,00,
1767010,18FED009,true,Rx,0,7,00,00,00,00,00,00,00,00,
1768436,000001BC,false,Rx,0,8,49,24,A4,43,3A,A4,45,0A,
1768652,000001C8,false,Rx,0,8,AE,64,A4,46,5A,A4,46,0A,
1768862,000001C4,false,Rx,0,8,6E,34,A4,45,5A,A4,43,0A,
1769072,000001B0,false,Rx,0,8,FE,24,A4,43,3A,A4,42,0A,
1769283,000001B4,false,Rx,0,8,3A,64,A4,46,6A,A4,47,0A,
1769679,000001B8,false,Rx,0,8,24,54,A4,45,5A,A4,43,0A,
1769897,000001C0,false,Rx,0,8,11,34,A4,45,6A,A4,42,0A,
1770107,000001CC,false,Rx,0,8,99,54,A4,46,6A,A4,46,0A,
1771884,000000BA,false,Rx,0,8,F3,4E,29,00,00,00,00,2C,
1773136,000001BD,false,Rx,0,8,17,34,A4,43,AA,A3,45,0A,
1773527,000001C9,false,Rx,0,8,FB,34,A4,43,BA,A3,43,0A,
1773736,000001BE,false,Rx,0,8,C0,54,A4,43,3A,A4,3D,0A,
1773946,000001B1,false,Rx,0,8,BD,24,A4,42,AA,A3,46,0A,
1774156,000001B2,false,Rx,0,8,DC,64,A4,47,6A,A4,3F,0A,
1774370,000001B5,false,Rx,0,8,73,74,A4,46,FA,A3,47,0A,
1774586,000001B6,false,Rx,0,8,B6,74,A4,46,5A,A4,40,0A,
1774796,000001B9,false,Rx,0,8,95,54,A4,42,AA,A3,47,0A,
1775006,000001BA,false,Rx,0,8,8E,A4,A4,47,7A,A4,42,0A,
1775216,000001C1,false,Rx,0,8,6E,54,A4,41,BA,A3,46,0A,
1775430,000001C2,false,Rx,0,8,2C,54,A4,45,5A,A4,3C,0A,
1775646,000001C5,false,Rx,0,8,5B,24,A4,42,CA,A3,45,0A,
1775856,000001C6,false,Rx,0,8,DF,54,A4,45,5A,A4,3D,0A,
1776066,000000BB,false,Rx,0,8,AA,ED,FF,D1,95,2B,00,18,
1776455,0000015B,false,Rx,0,8,2E,5E,00,03,00,00,00,00,
1776665,000001CA,false,Rx,0,8,C5,34,A4,45,3A,A4,3C,0A,
1776875,000001CD,false,Rx,0,8,C7,64,A4,45,DA,A3,45,0A,
1777085,000001CE,false,Rx,0,8,DC,74,A4,45,5A,A4,40,0A,
1777297,18FED007,true,Rx,0,6,00,03,A0,AB,9F,AB,00,00,
1777512,18FED008,true,Rx,0,7,7E,AB,0B,80,F6,FE,00,00,
1777895,18FED009,true,Rx,0,7,00,00,00,00,00,00,00,00,
1782473,000000BA,false,Rx,0,8,7F,4F,29,00,00,00,00,2D,
1786013,000000BB,false,Rx,0,8,A4,EE,FF,D1,95,2B,00,1A,
1786224,0000015B,false,Rx,0,8,45,5F,00,03,00,00,00,00,
1786435,18FED007,true,Rx,0,6,00,03,A0,AB,9F,AB,00,00,
1786824,18FED008,true,Rx,0,7,7E,AB,0B,80,F6,FE,00,00,
1787035,18FED009,true,Rx,0,7,00,00,00,00,00,00,00,00,
1791783,000000BA,false,Rx,0,8,49,40,29,00,00,00,00,3E,
1795989,000000BB,false,Rx,0,8,99,EF,FF,D5,95,2B,00,1C,
1796198,0000015B,false,Rx,0,8,BA,50,00,03,00,00,00,00,
1796410,000001BC,false,Rx,0,8,C6,35,A4,43,4A,A4,44,EA,
1796626,000001C0,false,Rx,0,8,EC,75,A4,47,8A,A4,46,EA,
1797008,000001B0,false,Rx,0,8,50,85,A4,48,9A,A4,49,EA,
1797218,000001B4,false,Rx,0,8,D0,75,A4,48,8A,A4,48,EA,
1797430,000001B8,false,Rx,0,8,E0,A5,A4,4A,AA,A4,49,EA,
1797645,000001C4,false,Rx,0,8,A7,95,A4,4A,9A,A4,49,EA,
1797855,000001C8,false,Rx,0,8,B3,75,A4,47,6A,A4,47,EA,
1798065,000001CC,false,Rx,0,8,0C,75,A4,48,8A,A4,48,EA,
1798276,18FED007,true,Rx,0,6,00,03,AB,AB,9F,AB,00,00,
1798487,18FED008,true,Rx,0,7,7E,AB,0B,80,F6,FE,00,00,
1798870,18FED009,true,Rx,0,7,00,00,00,00,00,00,00,00,
1799080,18FED00A,true,Rx,0,8,00,00,30,1E,00,41,00,00,
1802711,000001BD,false,Rx,0,8,88,35,A4,43,4A,A4,4A,EA,
1802716,000001BE,false,Rx,0,8,2A,A5,A4,49,9A,A4,4A,EA,
1802721,000001B1,false,Rx,0,8,41,85,A4,48,9A,A4,4C,EA,
1802726,000000BA,false,Rx,0,8,06,41,29,00,00,00,00,2F,
1802731,000001B2,false,Rx,0,8,D0,B5,A4,4D,BA,A4,4B,EA,
1802736,000001B5,false,Rx,0,8,DB,85,A4,47,9A,A4,48,EA,
1802741,000001B6,false,Rx,0,8,09,85,A4,48,8A,A4,48,EA,
1802962,000001B9,false,Rx,0,8,B1,A5,A4,49,9A,A4,48,EA,
1803172,000001BA,false,Rx,0,8,0E,A5,A4,48,9A,A4,49,EA,
1803383,000001C1,false,Rx,0,8,2C,75,A4,45,7A,A4,4A,EA,
1803599,000001C2,false,Rx,0,8,E8,95,A4,4A,AA,A4,48,EA,
1803808,000001C5,false,Rx,0,8,BD,85,A4,48,AA,A4,4C,EA,
1804018,000001C6,false,Rx,0,8,03,C5,A4,4C,CA,A4,4B,EA,
1804228,000001C9,false,Rx,0,8,02,65,A4,46,6A,A4,49,EA,
1804439,000001CA,false,Rx,0,8,77,95,A4,49,9A,A4,48,EA,
1804655,000001CD,false,Rx,0,8,1B,85,A4,47,8A,A4,49,EA,
1804865,000001CE,false,Rx,0,8,58,B5,A4,4A,AA,A4,4A,EA,
1805944,000000BB,false,Rx,0,8,C2,E0,FF,D1,95,2B,00,1E,
1806338,0000015B,false,Rx,0,8,14,51,00,03,00,00,00,00,
1806554,18FED007,true,Rx,0,6,00,03,A0,AB,9F,AB,00,00,
1806764,18FED008,true,Rx,0,7,7E,AB,0B,80,F6,FE,00,00,
1806973,18FED009,true,Rx,0,7,00,00,00,00,00,00,00,00,
1811877,000000BA,false,Rx,0,8,B1,42,29,00,00,00,00,21,
1816082,000000BB,false,Rx,0,8,5E,E1,FF,D5,B5,2B,00,02,
1816293,0000015B,false,Rx,0,8,1A,52,00,03,00,00,00,00,
1816510,18FED007,true,Rx,0,6,00,03,AB,AB,AA,AB,00,00,
1816720,18FED008,true,Rx,0,7,7E,AB,17,80,F6,FE,00,00,
1817102,18FED009,true,Rx,0,7,00,00,00,00,00,00,00,00,
1822728,000000BA,false,Rx,0,8,A9,43,29,00,00,00,00,30,
1825940,000000BB,false,Rx,0,8,D8,E2,FF,D5,95,2B,00,00,
1826324,0000015B,false,Rx,0,8,2B,53,00,03,00,00,00,00,
1826539,18FED007,true,Rx,0,6,00,03,AB,AB,9F,AB,00,00,
1826749,18FED008,true,Rx,0,7,7E,AB,0B,80,F6,FE,00,00,
1826959,18FED009,true,Rx,0,7,00,00,00,00,00,00,00,00,
1828738,000001C8,false,Rx,0,8,30,66,A4,46,5A,A4,46,0A,
1828948,000001B0,false,Rx,0,8,1B,26,A4,43,3A,A4,42,0A,
1829157,000001BC,false,Rx,0,8,D0,26,A4,43,3A,A4,45,0A,
1829370,000001B8,false,Rx,0,8,79,56,A4,45,5A,A4,43,0A,
1829586,000001B4,false,Rx,0,8,D9,66,A4,46,6A,A4,47,0A,
1829796,000001C0,false,Rx,0,8,D0,36,A4,45,6A,A4,42,0A,
1830006,000001C4,false,Rx,0,8,FA,36,A4,45,5A,A4,43,0A,
1830390,000001CC,false,Rx,0,8,6E,56,A4,46,6A,A4,46,0A,
1831821,000000BA,false,Rx,0,8,58,44,29,00,00,00,00,22,
1833073,000001C9,false,Rx,0,8,C6,36,A4,43,BA,A3,43,0A,
1833283,000001C5,false,Rx,0,8,71,26,A4,42,CA,A3,45,0A,
1833494,000001C1,false,Rx,0,8,1B,56,A4,41,BA,A3,46,0A,
1833704,000001B1,false,Rx,0,8,41,26,A4,42,AA,A3,46,0A,
1834087,000001B2,false,Rx,0,8,D4,66,A4,47,6A,A4,3F,0A,
1834298,000001B5,false,Rx,0,8,B6,76,A4,46,FA,A3,47,0A,
1834514,000001B6,false,Rx,0,8,1C,76,A4,46,5A,A4,40,0A,
1834724,000001B9,false,Rx,0,8,23,56,A4,42,AA,A3,47,0A,
1834933,000001BA,false,Rx,0,8,36,A6,A4,47,7A,A4,42,0A,
1835142,000001BD,false,Rx,0,8,9E,36,A4,43,AA,A3,45,0A,
1835368,000001BE,false,Rx,0,8,83,56,A4,43,3A,A4,3D,0A,
1835584,000001C2,false,Rx,0,8,78,56,A4,45,5A,A4,3C,0A,
1835794,000001C6,false,Rx,0,8,EF,56,A4,45,5A,A4,3D,0A,
1836003,000000BB,false,Rx,0,8,9B,E3,FF,C9,95,2B,00,04,
1836213,0000015B,false,Rx,0,8,8D,54,00,03,00,00,00,00,
1836604,000001CA,false,Rx,0,8,F8,36,A4,45,3A,A4,3C,0A,
1836814,000001CD,false,Rx,0,8,57,66,A4,45,DA,A3,45,0A,
1837024,000001CE,false,Rx,0,8,C4,76,A4,45,5A,A4,40,0A,
1837235,18FED007,true,Rx,0,6,00,03,94,AB,93,AB,00,00,
1837452,18FED008,true,Rx,0,7,7E,AB,00,80,F6,FE,00,00,
1837834,18FED009,true,Rx,0,7,00,00,00,00,00,00,00,00,
1842831,000000BA,false,Rx,0,8,FA,45,29,00,00,00,00,23,
1846006,000000BB,false,Rx,0,8,3B,E4,FF,D1,95,2B,00,06,
1846217,0000015B,false,Rx,0,8,04,55,00,03,00,00,00,00,
1846477,18FED007,true,Rx,0,6,00,03,A0,AB,9F,AB,00,00,
1846698,18FED008,true,Rx,0,7,7E,AB,0B,80,F6,FE,00,00,
1847080,18FED009,true,Rx,0,7,00,00,00,00,00,00,00,00,
1851759,000000BA,false,Rx,0,8,09,46,29,00,00,00,00,34,
1855972,000000BB,false,Rx,0,8,C9,E5,FF,D1,95,2B,00,08,
1856182,0000015B,false,Rx,0,8,54,56,00,03,00,00,00,00,
1856573,000001BC,false,Rx,0,8,25,37,A4,43,4A,A4,44,4A,
1856782,000001C0,false,Rx,0,8,44,77,A4,48,8A,A4,46,4A,
1856992,000001B0,false,Rx,0,8,34,87,A4,48,8A,A4,47,4A,
1857202,000001B4,false,Rx,0,8,B5,87,A4,48,8A,A4,47,4A,
1857413,000001B8,false,Rx,0,8,A5,A7,A4,49,AA,A4,49,4A,
1857628,000001C4,false,Rx,0,8,19,97,A4,4A,9A,A4,48,4A,
1857837,000001C8,false,Rx,0,8,EC,77,A4,46,6A,A4,47,4A,
1858047,000001CC,false,Rx,0,8,90,77,A4,48,7A,A4,48,4A,
1858258,18FED007,true,Rx,0,6,00,03,A0,AB,9F,AB,00,00,
1858647,18FED008,true,Rx,0,7,7E,AB,0B,80,F6,FE,00,00,
1858857,18FED009,true,Rx,0,7,00,00,00,00,00,00,00,00,
1861334,000001BD,false,Rx,0,8,11,47,A4,44,4A,A4,49,4A,
1863068,000001BE,false,Rx,0,8,2A,A7,A4,49,9A,A4,4A,4A,
1863073,000001B1,false,Rx,0,8,D9,97,A4,48,9A,A4,4C,4A,
1863078,000000BA,false,Rx,0,8,EC,47,29,00,00,00,00,25,
1863083,000001B2,false,Rx,0,8,8F,B7,A4,4D,CA,A4,4B,4A,
1863088,000001B5,false,Rx,0,8,AF,77,A4,47,9A,A4,48,4A,
1863093,000001B6,false,Rx,0,8,A4,87,A4,48,8A,A4,48,4A,
1863098,000001B9,false,Rx,0,8,27,A7,A4,49,9A,A4,48,4A,
1863103,000001BA,false,Rx,0,8,D9,A7,A4,48,9A,A4,49,4A,
1863333,000001C1,false,Rx,0,8,21,77,A4,46,7A,A4,4A,4A,
1863558,000001C2,false,Rx,0,8,1E,A7,A4,49,AA,A4,48,4A,
1863768,000001C5,false,Rx,0,8,AC,87,A4,48,AA,A4,4C,4A,
1863978,000001C6,false,Rx,0,8,C0,B7,A4,4C,CA,A4,4B,4A,
1864188,000001C9,false,Rx,0,8,6C,67,A4,46,7A,A4,4A,4A,
1864401,000001CA,false,Rx,0,8,09,97,A4,49,8A,A4,48,4A,
1864617,000001CD,false,Rx,0,8,ED,77,A4,47,9A,A4,49,4A,
1864999,000001CE,false,Rx,0,8,4F,A7,A4,4A,AA,A4,4A,4A,
1866077,000000BB,false,Rx,0,8,21,E6,FF,D1,95,2B,00,0A,
1866288,0000015B,false,Rx,0,8,4F,57,00,03,00,00,00,00,
1866504,18FED007,true,Rx,0,6,00,03,A0,AB,9F,AB,00,00,
1866714,18FED008,true,Rx,0,7,7E,AB,0B,80,F6,FE,00,00,
1867095,18FED009,true,Rx,0,7,00,00,00,00,00,00,00,00,
1871822,000000BA,false,Rx,0,8,19,48,29,00,00,00,00,26,
1876027,000000BB,false,Rx,0,8,F0,E7,FF,D1,95,2B,00,0C,
1876240,0000015B,false,Rx,0,8,65,58,00,03,00,00,00,00,
1876456,18FED007,true,Rx,0,6,00,03,A0,AB,9F,AB,00,00,
1876838,18FED008,true,Rx,0,7,7E,AB,0B,80,F6,FE,00,00,
1877048,18FED009,true,Rx,0,7,00,00,00,00,00,00,00,00,
248918,000000BA,false,Rx,0,8,D5,49,29,00,00,00,00,30,
252092,000000BB,false,Rx,0,8,7B,E8,FF,D1,95,2B,00,00,
252304,0000015B,false,Rx,0,8,66,59,00,03,00,00,00,00,
252520,18FED007,true,Rx,0,6,00,03,A0,AB,9F,AB,00,00,
252730,18FED008,true,Rx,0,7,7E,AB,0B,80,F6,FE,00,00,
253111,18FED009,true,Rx,0,7,00,00,00,00,00,00,00,00,
254543,000001BC,false,Rx,0,8,3B,28,A4,43,3A,A4,45,0A,
254752,000001C8,false,Rx,0,8,B4,68,A4,46,5A,A4,46,0A,
254961,000001C4,false,Rx,0,8,D0,38,A4,45,5A,A4,43,0A,
255171,000001B0,false,Rx,0,8,84,28,A4,43,3A,A4,42,0A,
255383,000001B4,false,Rx,0,8,49,68,A4,46,6A,A4,47,0A,
255599,000001B8,false,Rx,0,8,E8,58,A4,45,5A,A4,43,0A,
255809,000001C0,false,Rx,0,8,C6,38,A4,45,6A,A4,43,0A,
256019,000001CC,false,Rx,0,8,90,58,A4,46,6A,A4,46,0A,
257796,000000BA,false,Rx,0,8,AD,4A,29,00,00,00,00,27,
259306,000001BD,false,Rx,0,8,34,38,A4,43,AA,A3,45,0A,
259534,000001C9,false,Rx,0,8,BC,38,A4,43,BA,A3,43,0A,
259810,000001BE,false,Rx,0,8,B6,58,A4,43,3A,A4,3D,0A,
259815,000001B1,false,Rx,0,8,98,28,A4,42,AA,A3,46,0A,
260197,000001B2,false,Rx,0,8,42,68,A4,47,6A,A4,3F,0A,
260408,000001B5,false,Rx,0,8,08,78,A4,46,FA,A3,47,0A,
260625,000001B6,false,Rx,0,8,7D,78,A4,46,5A,A4,40,0A,
260835,000001B9,false,Rx,0,8,34,58,A4,42,AA,A3,47,0A,
261045,000001BA,false,Rx,0,8,E4,A8,A4,47,7A,A4,42,0A,
261256,000001C1,false,Rx,0,8,33,58,A4,42,BA,A3,46,0A,
261472,000001C2,false,Rx,0,8,E9,58,A4,45,5A,A4,3C,0A,
261682,000001C5,false,Rx,0,8,2D,28,A4,42,CA,A3,45,0A,
261892,000001C6,false,Rx,0,8,35,58,A4,45,5A,A4,3D,0A,
262102,000000BB,false,Rx,0,8,66,E9,FF,C9,95,2B,00,0E,
262491,0000015B,false,Rx,0,8,73,5A,00,03,00,00,00,00,
262701,000001CA,false,Rx,0,8,B9,38,A4,45,3A,A4,3C,0A,
262911,000001CD,false,Rx,0,8,BA,68,A4,45,DA,A3,45,0A,
263121,000001CE,false,Rx,0,8,5B,78,A4,45,5A,A4,40,0A,
263334,18FED007,true,Rx,0,6,00,03,94,AB,93,AB,00,00,
263551,18FED008,true,Rx,0,7,7E,AB,00,80,F6,FE,00,00,
263933,18FED009,true,Rx,0,7,00,00,00,00,00,00,00,00,
264143,18FED00A,true,Rx,0,8,00,00,30,1E,00,41,00,00,
269052,000000BA,false,Rx,0,8,CF,4B,29,00,00,00,00,28,
272067,000000BB,false,Rx,0,8,9C,EA,FF,D1,95,2B,00,10,
272283,0000015B,false,Rx,0,8,8C,5B,00,03,00,00,00,00,
272500,18FED007,true,Rx,0,6,00,03,A0,AB,9F,AB,00,00,
272709,18FED008,true,Rx,0,7,7E,AB,0B,80,F6,FE,00,00,
273092,18FED009,true,Rx,0,7,00,00,00,00,00,00,00,00,
277823,000000BA,false,Rx,0,8,EF,4C,29,00,00,00,00,39,
282032,000000BB,false,Rx,0,8,3A,EB,FF,D5,95,2B,00,12,
282244,0000015B,false,Rx,0,8,B3,5C,00,03,00,00,00,00,
282460,000001BC,false,Rx,0,8,56,39,A4,43,4A,A4,45,9A,
282670,000001C0,false,Rx,0,8,70,69,A4,48,8A,A4,45,9A,
282880,000001B0,false,Rx,0,8,F6,89,A4,48,8A,A4,48,9A,
283090,000001B4,false,Rx,0,8,F5,79,A4,48,8A,A4,48,9A,
283480,000001B8,false,Rx,0,8,28,A9,A4,4A,AA,A4,49,9A,
283690,000001C4,false,Rx,0,8,66,99,A4,49,9A,A4,49,9A,
283900,000001C8,false,Rx,0,8,4D,79,A4,47,6A,A4,46,9A,
284110,000001CC,false,Rx,0,8,65,79,A4,48,8A,A4,47,9A,
284322,18FED007,true,Rx,0,6,00,03,AB,AB,9F,AB,00,00,
284539,18FED008,true,Rx,0,7,7E,AB,0B,80,F6,FE,00,00,
284921,18FED009,true,Rx,0,7,00,00,00,00,00,00,00,00,
285131,1A555401,true,Rx,0,8,66,40,00,00,FE,FE,FE,FE,
285345,16A9541E,true,Rx,0,8,80,A0,80,AA,A0,A0,AA,AA,
285733,1A555402,true,Rx,0,8,64,40,00,00,FE,FE,FE,FE,
285944,1A555404,true,Rx,0,8,63,40,00,00,FE,FE,FE,FE,
286343,1A555405,true,Rx,0,8,65,40,00,00,FE,FE,FE,FE,
286599,1A555408,true,Rx,0,8,64,40,00,00,FE,FE,FE,FE,
287103,16A9541A,true,Rx,0,8,80,A0,80,AA,A0,A0,AA,AA,
287108,16A9541D,true,Rx,0,8,80,A0,80,AA,A0,A0,AA,AA,
287326,1A555403,true,Rx,0,8,63,40,00,00,FE,FE,FE,FE,
289186,16A9541B,true,Rx,0,8,80,A0,80,AA,A0,A0,AA,AA,
289191,000000BA,false,Rx,0,8,94,4D,29,00,00,00,00,2A,
289196,000001B1,false,Rx,0,8,B0,89,A4,48,9A,A4,4C,9A,
289201,000001B2,false,Rx,0,8,E2,B9,A4,4D,CA,A4,4B,9A,
289206,000001B5,false,Rx,0,8,44,89,A4,47,8A,A4,48,9A,
289211,000001B6,false,Rx,0,8,20,89,A4,49,9A,A4,48,9A,
289216,000001BD,false,Rx,0,8,15,39,A4,43,4A,A4,4A,9A,
289221,000001BE,false,Rx,0,8,4E,A9,A4,49,9A,A4,4A,9A,
289449,000001C1,false,Rx,0,8,30,79,A4,45,7A,A4,4A,9A,
289659,000001B9,false,Rx,0,8,BB,A9,A4,49,9A,A4,48,9A,
289869,000001BA,false,Rx,0,8,CD,A9,A4,48,9A,A4,4A,9A,
290079,000001C2,false,Rx,0,8,8A,99,A4,4A,AA,A4,48,9A,
290291,000001C5,false,Rx,0,8,CF,89,A4,48,AA,A4,4C,9A,
290507,000001C6,false,Rx,0,8,00,C9,A4,4C,CA,A4,4B,9A,
290717,000001C9,false,Rx,0,8,95,59,A4,46,6A,A4,49,9A,
291099,000001CA,false,Rx,0,8,04,A9,A4,49,9A,A4,49,9A,
291312,000001CD,false,Rx,0,8,BC,79,A4,47,9A,A4,49,9A,
291525,000001CE,false,Rx,0,8,FE,A9,A4,4A,AA,A4,4A,9A,
291735,16A9541C,true,Rx,0,8,80,A0,80,AA,A0,A0,AA,AA,
291945,16A9541F,true,Rx,0,8,80,A0,80,AA,A0,A0,AA,AA,
292333,000000BB,false,Rx,0,8,88,EC,FF,D5,95,2B,00,14,
292560,0000015B,false,Rx,0,8,F9,5D,00,03,00,00,00,00,
292772,16A95420,true,Rx,0,8,80,A0,80,AA,A0,A0,AA,AA,
292982,16A95421,true,Rx,0,8,80,A0,80,AA,A0,A0,AA,AA,
293204,18FED007,true,Rx,0,6,00,03,AB,AB,9F,AB,00,00,
293593,18FED008,true,Rx,0,7,7E,AB,0B,80,F6,FE,00,00,
293803,18FED009,true,Rx,0,7,00,00,00,00,00,00,00,00,
294185,1A555406,true,Rx,0,8,62,40,00,00,FE,FE,FE,FE,
294398,1A555407,true,Rx,0,8,64,40,00,00,FE,FE,FE,FE,
298783,000000BA,false,Rx,0,8,32,4E,29,00,00,00,00,2B,
301988,000000BB,false,Rx,0,8,78,ED,FF,D5,95,2B,00,16,
302198,0000015B,false,Rx,0,8,2E,5E,00,03,00,00,00,00,
302591,18FED007,true,Rx,0,6,00,03,AB,AB,9F,AB,00,00,
302809,18FED008,true,Rx,0,7,7E,AB,0B,80,F6,FE,00,00,
303019,18FED009,true,Rx,0,7,00,00,00,00,00,00,00,00,
309063,000000BA,false,Rx,0,8,E3,4F,29,00,00,00,00,30,
312065,000000BB,false,Rx,0,8,F9,EE,FF,D1,95,2B,00,00,
312277,0000015B,false,Rx,0,8,45,5F,00,03,00,00,00,00,
312493,18FED007,true,Rx,0,6,00,03,A0,AB,9F,AB,00,00,
312703,18FED008,true,Rx,0,7,7E,AB,0B,80,F6,FE,00,00,
313086,18FED009,true,Rx,0,7,00,00,00,00,00,00,00,00,
314518,000001BC,false,Rx,0,8,54,2A,A4,43,3A,A4,45,0A,
314728,000001C8,false,Rx,0,8,9E,6A,A4,46,5A,A4,45,0A,
314938,000001C4,false,Rx,0,8,92,3A,A4,45,5A,A4,43,0A,
315147,000001B0,false,Rx,0,8,47,2A,A4,43,3A,A4,42,0A,
315359,000001B4,false,Rx,0,8,A5,6A,A4,46,6A,A4,47,0A,
315575,000001B8,false,Rx,0,8,E9,5A,A4,45,5A,A4,43,0A,
315786,000001C0,false,Rx,0,8,53,3A,A4,45,6A,A4,43,0A,
315996,000001CC,false,Rx,0,8,93,5A,A4,46,6A,A4,46,0A,
317774,000000BA,false,Rx,0,8,91,40,29,00,00,00,00,2C,
319207,000001BD,false,Rx,0,8,3D,5A,A4,43,AA,A3,45,0A,
319419,000001C9,false,Rx,0,8,7A,3A,A4,43,BA,A3,43,0A,
319634,000001BE,false,Rx,0,8,C7,5A,A4,43,3A,A4,3D,0A,
319844,000001B1,false,Rx,0,8,23,2A,A4,42,AA,A3,46,0A,
320054,000001B2,false,Rx,0,8,BB,6A,A4,47,6A,A4,3F,0A,
320437,000001B5,false,Rx,0,8,82,7A,A4,46,FA,A3,47,0A,
320652,000001B6,false,Rx,0,8,2B,6A,A4,46,5A,A4,40,0A,
320862,000001B9,false,Rx,0,8,3E,5A,A4,42,AA,A3,47,0A,
321072,000001BA,false,Rx,0,8,F5,AA,A4,47,7A,A4,42,0A,
321283,000001C1,false,Rx,0,8,9B,5A,A4,42,BA,A3,46,0A,
321499,000001C2,false,Rx,0,8,67,5A,A4,45,5A,A4,3C,0A,
321709,000001C5,false,Rx,0,8,83,2A,A4,42,CA,A3,45,0A,
321919,000001C6,false,Rx,0,8,B7,5A,A4,45,5A,A4,3D,0A,
322129,000000BB,false,Rx,0,8,33,EF,FF,D1,95,2B,00,18,
322342,0000015B,false,Rx,0,8,BA,50,00,03,00,00,00,00,
322559,000001CA,false,Rx,0,8,A9,3A,A4,45,3A,A4,3C,0A,
322942,000001CD,false,Rx,0,8,D8,6A,A4,45,DA,A3,45,0A,
323159,000001CE,false,Rx,0,8,4C,7A,A4,45,5A,A4,40,0A,
323384,18FED007,true,Rx,0,6,00,03,A0,AB,9F,AB,00,00,
323601,18FED008,true,Rx,0,7,7E,AB,0B,80,F6,FE,00,00,
323826,18FED009,true,Rx,0,7,00,00,00,00,00,00,00,00,
329145,000000BA,false,Rx,0,8,FB,41,29,00,00,00,00,2D,
330951,16A95419,true,Rx,0,8,AA,9A,8A,20,00,00,A0,80,
331159,18FED006,true,Rx,0,3,02,00,00,00,00,00,00,00,
332066,000000BB,false,Rx,0,8,F5,E0,FF,D5,B5,2B,00,1A,
332277,0000015B,false,Rx,0,8,14,51,00,03,00,00,00,00,
332494,18FED007,true,Rx,0,6,00,03,AB,AB,AA,AB,00,00,
332704,18FED008,true,Rx,0,7,7E,AB,17,80,F6,FE,00,00,
333102,18FED009,true,Rx,0,7,00,00,00,00,00,00,00,00,
337918,000000BA,false,Rx,0,8,D0,42,29,00,00,00,00,3E,
341952,000000BB,false,Rx,0,8,D6,E1,FF,D5,B5,2B,00,1C,
342355,0000015B,false,Rx,0,8,1A,52,00,03,00,00,00,00,
342602,000001BC,false,Rx,0,8,F5,3B,A4,44,4A,A4,45,EA,
342925,000001C0,false,Rx,0,8,8C,6B,A4,48,8A,A4,46,EA,
342931,000001B0,false,Rx,0,8,5C,8B,A4,48,9A,A4,48,EA,
343142,000001B4,false,Rx,0,8,D1,7B,A4,48,8A,A4,47,EA,
343354,000001B8,false,Rx,0,8,27,AB,A4,49,AA,A4,49,EA,
343570,000001C4,false,Rx,0,8,BD,9B,A4,49,9A,A4,48,EA,
343780,000001C8,false,Rx,0,8,FE,8B,A4,46,6A,A4,47,EA,
344161,000001CC,false,Rx,0,8,98,7B,A4,48,8A,A4,48,EA,
344372,18FED007,true,Rx,0,6,00,03,AB,AB,AA,AB,00,00,
344588,18FED008,true,Rx,0,7,7E,AB,17,80,F6,FE,00,00,
344798,18FED009,true,Rx,0,7,00,00,00,00,00,00,00,00,
347268,000001BD,false,Rx,0,8,50,3B,A4,44,4A,A4,4A,EA,
347483,000001BE,false,Rx,0,8,E4,AB,A4,49,9A,A4,4A,EA,
347693,000001B1,false,Rx,0,8,BD,9B,A4,48,9A,A4,4C,EA,
349314,000000BA,false,Rx,0,8,C8,43,29,00,00,00,00,2F,
349319,000001B2,false,Rx,0,8,4D,BB,A4,4D,CA,A4,4B,EA,
349324,000001B5,false,Rx,0,8,D9,8B,A4,47,8A,A4,48,EA,
349329,000001B6,false,Rx,0,8,55,9B,A4,48,8A,A4,48,EA,
349334,000001B9,false,Rx,0,8,74,BB,A4,49,9A,A4,49,EA,
349339,000001BA,false,Rx,0,8,2B,AB,A4,48,9A,A4,4A,EA,
349344,000001C1,false,Rx,0,8,26,7B,A4,46,7A,A4,4A,EA,
349571,000001C2,false,Rx,0,8,67,AB,A4,4A,AA,A4,48,EA,
349781,000001C5,false,Rx,0,8,A6,8B,A4,48,AA,A4,4C,EA,
349991,000001C6,false,Rx,0,8,CC,CB,A4,4C,BA,A4,4B,EA,
350201,000001C9,false,Rx,0,8,30,5B,A4,46,6A,A4,49,EA,
350414,000001CA,false,Rx,0,8,28,9B,A4,49,9A,A4,48,EA,
350630,000001CD,false,Rx,0,8,A9,7B,A4,47,9A,A4,4A,EA,
350840,000001CE,false,Rx,0,8,B4,AB,A4,4A,AA,A4,4A,EA,
352093,000000BB,false,Rx,0,8,2F,E2,FF,D1,95,2B,00,1E,
352304,0000015B,false,Rx,0,8,2B,53,00,03,00,00,00,00,
352520,18FED007,true,Rx,0,6,00,03,A0,AB,9F,AB,00,00,
352729,18FED008,true,Rx,0,7,7E,AB,0B,80,F6,FE,00,00,
353111,18FED009,true,Rx,0,7,00,00,00,00,00,00,00,00,
357860,000000BA,false,Rx,0,8,4C,44,29,00,00,00,00,21,
362087,000000BB,false,Rx,0,8,9E,E3,FF,D1,95,2B,00,02,
362308,0000015B,false,Rx,0,8,8D,54,00,03,00,00,00,00,
362545,18FED007,true,Rx,0,6,00,03,A0,AB,9F,AB,00,00,
362763,18FED008,true,Rx,0,7,7E,AB,0B,80,F6,FE,00,00,
363019,18FED009,true,Rx,0,7,00,00,00,00,00,00,00,00,
363404,18FED00A,true,Rx,0,8,00,00,30,1E,00,41,00,00,
367788,000000BA,false,Rx,0,8,CB,45,29,00,00,00,00,30,
371978,000000BB,false,Rx,0,8,13,E4,FF,D1,95,2B,00,00,
372362,0000015B,false,Rx,0,8,04,55,00,03,00,00,00,00,
372578,18FED007,true,Rx,0,6,00,03,A0,AB,9F,AB,00,00,
372787,18FED008,true,Rx,0,7,7E,AB,0B,80,F6,FE,00,00,
372997,18FED009,true,Rx,0,7,00,00,00,00,00,00,00,00,
374423,000001BC,false,Rx,0,8,13,2C,A4,43,3A,A4,45,0A,
374639,000001C8,false,Rx,0,8,69,6C,A4,46,5A,A4,45,0A,
374849,000001C4,false,Rx,0,8,10,3C,A4,45,5A,A4,43,0A,
375233,000001B0,false,Rx,0,8,CE,2C,A4,43,2A,A4,42,0A,
375447,000001B4,false,Rx,0,8,BB,6C,A4,46,6A,A4,47,0A,
375657,000001B8,false,Rx,0,8,ED,5C,A4,45,5A,A4,43,0A,
375867,000001C0,false,Rx,0,8,9E,3C,A4,45,6A,A4,43,0A,
376076,000001CC,false,Rx,0,8,0A,5C,A4,46,6A,A4,46,0A,
377770,000000BA,false,Rx,0,8,04,46,29,00,00,00,00,22,
379194,000001BD,false,Rx,0,8,17,5C,A4,43,AA,A3,45,0A,
379405,000001C9,false,Rx,0,8,70,3C,A4,43,BA,A3,43,0A,
379622,000001B1,false,Rx,0,8,4D,2C,A4,42,AA,A3,46,0A,
379831,000001B5,false,Rx,0,8,47,7C,A4,46,FA,A3,47,0A,
380041,000001B2,false,Rx,0,8,C1,6C,A4,47,6A,A4,3F,0A,
380426,000001B6,false,Rx,0,8,11,6C,A4,46,5A,A4,40,0A,
380642,000001B9,false,Rx,0,8,9E,5C,A4,42,AA,A3,47,0A,
380852,000001BA,false,Rx,0,8,6B,AC,A4,47,7A,A4,42,0A,
381062,000001BE,false,Rx,0,8,BB,5C,A4,43,3A,A4,3D,0A,
381274,000001C1,false,Rx,0,8,9F,5C,A4,42,BA,A3,46,0A,
381490,000001C2,false,Rx,0,8,C9,5C,A4,45,5A,A4,3C,0A,
381700,000001C5,false,Rx,0,8,74,2C,A4,42,CA,A3,45,0A,
381910,000001C6,false,Rx,0,8,66,5C,A4,45,5A,A4,3D,0A,
382119,000000BB,false,Rx,0,8,99,E5,FF,D1,95,2B,00,04,
382331,0000015B,false,Rx,0,8,54,56,00,03,00,00,00,00,
382547,000001CA,false,Rx,0,8,CC,3C,A4,43,3A,A4,3C,0A,
382929,000001CD,false,Rx,0,8,BB,6C,A4,45,DA,A3,45,0A,
383137,000001CE,false,Rx,0,8,20,7C,A4,45,5A,A4,40,0A,
383350,18FED007,true,Rx,0,6,00,03,A0,AB,9F,AB,00,00,
383565,18FED008,true,Rx,0,7,7E,AB,0B,80,F6,FE,00,00,
383774,18FED009,true,Rx,0,7,00,00,00,00,00,00,00,00,
387807,000000BA,false,Rx,0,8,C4,47,29,00,00,00,00,23,
392001,000000BB,false,Rx,0,8,71,E6,FF,D1,95,2B,00,06,
392211,0000015B,false,Rx,0,8,4F,57,00,03,00,00,00,00,
392601,18FED007,true,Rx,0,6,00,03,A0,AB,9F,AB,00,00,
392811,18FED008,true,Rx,0,7,7E,AB,0B,80,F6,FE,00,00,
393021,18FED009,true,Rx,0,7,00,00,00,00,00,00,00,00,
397752,000000BA,false,Rx,0,8,C1,48,29,00,00,00,00,34,
401958,000000BB,false,Rx,0,8,B8,E7,FF,D1,B5,2B,00,08,
402341,0000015B,false,Rx,0,8,65,58,00,03,00,00,00,00,
402557,000001BC,false,Rx,0,8,A2,3D,A4,43,3A,A4,44,4A,
402767,000001C0,false,Rx,0,8,D6,7D,A4,47,8A,A4,46,4A,
402981,000001B0,false,Rx,0,8,40,8D,A4,48,9A,A4,49,4A,
403205,000001B4,false,Rx,0,8,8D,7D,A4,48,8A,A4,48,4A,
403421,000001B8,false,Rx,0,8,A3,AD,A4,4A,AA,A4,49,4A,
403653,000001C4,false,Rx,0,8,EA,9D,A4,49,AA,A4,48,4A,
403863,000001C8,false,Rx,0,8,60,8D,A4,47,6A,A4,47,4A,
404072,000001CC,false,Rx,0,8,0F,7D,A4,48,8A,A4,48,4A,
404285,18FED007,true,Rx,0,6,00,03,A0,AB,AA,AB,00,00,
404673,18FED008,true,Rx,0,7,7E,AB,0B,80,F6,FE,00,00,
404884,18FED009,true,Rx,0,7,00,00,00,00,00,00,00,00,
407236,000001BD,false,Rx,0,8,36,3D,A4,44,4A,A4,4A,4A,
407512,000001BE,false,Rx,0,8,A0,AD,A4,49,9A,A4,49,4A,
407722,000001B1,false,Rx,0,8,23,9D,A4,48,9A,A4,4C,4A,
407932,000000BA,false,Rx,0,8,CC,49,29,00,00,00,00,25,
409623,000001B2,false,Rx,0,8,68,CD,A4,4D,BA,A4,4B,4A,
409628,000001B5,false,Rx,0,8,46,8D,A4,47,8A,A4,48,4A,
409633,000001B6,false,Rx,0,8,BD,8D,A4,49,8A,A4,48,4A,
409638,000001B9,false,Rx,0,8,66,AD,A4,49,9A,A4,49,4A,
409643,000001BA,false,Rx,0,8,77,AD,A4,49,9A,A4,49,4A,
409648,000001C1,false,Rx,0,8,B4,7D,A4,46,7A,A4,4A,4A,
409653,000001C2,false,Rx,0,8,60,AD,A4,4A,AA,A4,48,4A,
409873,000001C5,false,Rx,0,8,CC,8D,A4,48,AA,A4,4C,4A,
410083,000001C6,false,Rx,0,8,1E,CD,A4,4C,BA,A4,4C,4A,
410295,000001C9,false,Rx,0,8,F7,6D,A4,46,6A,A4,49,4A,
410511,000001CA,false,Rx,0,8,F6,AD,A4,49,9A,A4,48,4A,
410721,000001CD,false,Rx,0,8,26,7D,A4,47,9A,A4,49,4A,
410931,000001CE,false,Rx,0,8,55,AD,A4,4A,AA,A4,4A,4A,
412011,000000BB,false,Rx,0,8,03,E8,FF,D1,95,2B,00,0A,
412220,0000015B,false,Rx,0,8,66,59,00,03,00,00,00,00,
412611,18FED007,true,Rx,0,6,00,03,A0,AB,9F,AB,00,00,
412821,18FED008,true,Rx,0,7,7E,AB,0B,80,F6,FE,00,00,
413031,18FED009,true,Rx,0,7,00,00,00,00,00,00,00,00,
417780,000000BA,false,Rx,0,8,44,4A,29,00,00,00,00,26,
422109,000000BB,false,Rx,0,8,B6,E9,FF,D1,95,2B,00,0C,
422321,0000015B,false,Rx,0,8,73,5A,00,03,00,00,00,00,
422536,18FED007,true,Rx,0,6,00,03,A0,AB,9F,AB,00,00,
422747,18FED008,true,Rx,0,7,7E,AB,0B,80,F6,FE,00,00,
423129,18FED009,true,Rx,0,7,00,00,00,00,00,00,00,00,
427873,000000BA,false,Rx,0,8,6F,4B,29,00,00,00,00,30,
432052,000000BB,false,Rx,0,8,B9,EA,FF,D1,95,2B,00,00,
432264,0000015B,false,Rx,0,8,8C,5B,00,03,00,00,00,00,
432480,18FED007,true,Rx,0,6,00,03,A0,AB,9F,AB,00,00,
432862,18FED008,true,Rx,0,7,7E,AB,0B,80,F6,FE,00,00,
433072,18FED009,true,Rx,0,7,00,00,00,00,00,00,00,00,
434524,000001BC,false,Rx,0,8,CF,2E,A4,43,3A,A4,45,0A,
434734,000001C8,false,Rx,0,8,E7,6E,A4,46,5A,A4,45,0A,
434944,000001C4,false,Rx,0,8,27,3E,A4,45,5A,A4,43,0A,
435153,000001B0,false,Rx,0,8,F3,2E,A4,43,2A,A4,42,0A,
435364,000001B4,false,Rx,0,8,EA,6E,A4,46,6A,A4,47,0A,
435580,000001B8,false,Rx,0,8,2A,5E,A4,45,5A,A4,43,0A,
435790,000001C0,false,Rx,0,8,1C,3E,A4,45,6A,A4,43,0A,
436000,000001CC,false,Rx,0,8,26,5E,A4,46,6A,A4,46,0A,
437778,000000BA,false,Rx,0,8,67,4C,29,00,00,00,00,27,
439203,000001BD,false,Rx,0,8,AD,5E,A4,43,AA,A3,45,0A,
439414,000001C9,false,Rx,0,8,85,3E,A4,43,BA,A3,43,0A,
439630,000001BE,false,Rx,0,8,DC,5E,A4,43,3A,A4,3D,0A,
439839,000001B1,false,Rx,0,8,B6,2E,A4,42,AA,A3,46,0A,
440049,000001B2,false,Rx,0,8,54,6E,A4,47,6A,A4,3F,0A,
440265,000001B5,false,Rx,0,8,EE,7E,A4,46,FA,A3,47,0A,
440654,000001B6,false,Rx,0,8,CF,6E,A4,46,5A,A4,40,0A,
440864,000001B9,false,Rx,0,8,75,5E,A4,42,AA,A3,47,0A,
441074,000001BA,false,Rx,0,8,55,AE,A4,47,7A,A4,42,0A,
441284,000001C1,false,Rx,0,8,58,5E,A4,42,BA,A3,46,0A,
441501,000001C2,false,Rx,0,8,9D,5E,A4,45,5A,A4,3C,0A,
441710,000001C5,false,Rx,0,8,1D,2E,A4,42,CA,A3,45,0A,
441920,000001C6,false,Rx,0,8,94,5E,A4,45,5A,A4,3D,0A,
442130,000000BB,false,Rx,0,8,30,EB,FF,D1,95,2B,00,0E,
442342,0000015B,false,Rx,0,8,B3,5C,00,03,00,00,00,00,
442558,000001CA,false,Rx,0,8,95,3E,A4,43,3A,A4,3C,0A,
442768,000001CD,false,Rx,0,8,F6,6E,A4,45,DA,A3,45,0A,
443150,000001CE,false,Rx,0,8,83,7E,A4,45,5A,A4,40,0A,
443362,18FED007,true,Rx,0,6,00,03,A0,AB,9F,AB,00,00,
443578,18FED008,true,Rx,0,7,7E,AB,0B,80,F6,FE,00,00,
443789,18FED009,true,Rx,0,7,00,00,00,00,00,00,00,00,
447890,000000BA,false,Rx,0,8,69,4D,29,00,00,00,00,28,
452056,000000BB,false,Rx,0,8,22,EC,FF,D1,95,2B,00,10,
452268,0000015B,false,Rx,0,8,F9,5D,00,03,00,00,00,00,
452502,18FED007,true,Rx,0,6,00,03,A0,AB,9F,AB,00,00,
452712,18FED008,true,Rx,0,7,7E,AB,0B,80,F6,FE,00,00,
453094,18FED009,true,Rx,0,7,00,00,00,00,00,00,00,00,
457827,000000BA,false,Rx,0,8,EA,4E,29,00,00,00,00,39,
462033,000000BB,false,Rx,0,8,30,ED,FF,D5,B5,2B,00,12,
462246,0000015B,false,Rx,0,8,2E,5E,00,03,00,00,00,00,
462478,000001BC,false,Rx,0,8,F8,3F,A4,44,4A,A4,44,9A,
462688,000001B0,false,Rx,0,8,C6,7F,A4,48,8A,A4,48,9A,
462898,000001B4,false,Rx,0,8,E0,7F,A4,49,8A,A4,48,9A,
463281,000001B8,false,Rx,0,8,4F,AF,A4,49,AA,A4,49,9A,
463498,000001C0,false,Rx,0,8,53,6F,A4,47,8A,A4,46,9A,
463708,000001C4,false,Rx,0,8,95,9F,A4,49,9A,A4,49,9A,
463917,000001C8,false,Rx,0,8,22,8F,A4,47,6A,A4,47,9A,
464126,000001CC,false,Rx,0,8,28,7F,A4,48,8A,A4,48,9A,
464340,18FED007,true,Rx,0,6,00,03,AB,AB,AA,AB,00,00,
464556,18FED008,true,Rx,0,7,7E,AB,17,80,F6,FE,00,00,
464939,18FED009,true,Rx,0,7,00,00,00,00,00,00,00,00,
465149,18FED00A,true,Rx,0,8,00,00,30,1E,00,41,00,00,
467338,000001BD,false,Rx,0,8,B5,3F,A4,43,4A,A4,4A,9A,
467553,000001BE,false,Rx,0,8,39,AF,A4,49,8A,A4,49,9A,
467763,000001B1,false,Rx,0,8,4C,8F,A4,48,9A,A4,4B,9A,
467973,000000BA,false,Rx,0,8,BE,4F,29,00,00,00,00,2A,
468183,000001B2,false,Rx,0,8,B6,BF,A4,4D,BA,A4,4B,9A,
469814,000001B5,false,Rx,0,8,AC,8F,A4,47,8A,A4,48,9A,
469819,000001B6,false,Rx,0,8,75,8F,A4,49,8A,A4,48,9A,
469825,000001B9,false,Rx,0,8,20,AF,A4,49,9A,A4,48,9A,
469830,000001BA,false,Rx,0,8,A2,BF,A4,49,8A,A4,49,9A,
469835,000001C1,false,Rx,0,8,B3,7F,A4,46,7A,A4,4A,9A,
469840,000001C2,false,Rx,0,8,FA,AF,A4,4A,AA,A4,48,9A,
469845,000001C5,false,Rx,0,8,FE,8F,A4,48,AA,A4,4C,9A,
470065,000001C6,false,Rx,0,8,04,BF,A4,4C,BA,A4,4C,9A,
470277,000001C9,false,Rx,0,8,9E,5F,A4,46,6A,A4,4A,9A,
470493,000001CA,false,Rx,0,8,8B,AF,A4,49,9A,A4,48,9A,
470703,000001CD,false,Rx,0,8,47,7F,A4,47,8A,A4,49,9A,
470913,000001CE,false,Rx,0,8,DE,AF,A4,4A,AA,A4,4A,9A,
471993,000000BB,false,Rx,0,8,09,EE,FF,D1,95,2B,00,14,
472378,0000015B,false,Rx,0,8,45,5F,00,03,00,00,00,00,
472592,18FED007,true,Rx,0,6,00,03,A0,AB,9F,AB,00,00,
472815,18FED008,true,Rx,0,7,7E,AB,0B,80,F6,FE,00,00,
473026,18FED009,true,Rx,0,7,00,00,00,00,00,00,00,00,
477756,000000BA,false,Rx,0,8,50,40,29,00,00,00,00,2B,
481961,000000BB,false,Rx,0,8,7C,EF,FF,D5,B5,2B,00,16,
482344,0000015B,false,Rx,0,8,BA,50,00,03,00,00,00,00,
482560,18FED007,true,Rx,0,6,00,03,AB,AB,AA,AB,00,00,
482770,18FED008,true,Rx,0,7,7E,AB,17,80,F6,FE,00,00,
482980,18FED009,true,Rx,0,7,00,00,00,00,00,00,00,00,
487790,000000BA,false,Rx,0,8,67,41,29,00,00,00,00,30,
492142,000000BB,false,Rx,0,8,4A,E0,FF,D1,95,2B,00,00,
492354,0000015B,false,Rx,0,8,14,51,00,03,00,00,00,00,
492563,18FED007,true,Rx,0,6,00,03,A0,AB,9F,AB,00,00,
492779,18FED008,true,Rx,0,7,7E,AB,0B,80,F6,FE,00,00,
493162,18FED009,true,Rx,0,7,00,00,00,00,00,00,00,00,
494765,000001C8,false,Rx,0,8,DA,60,A4,46,5A,A4,45,0A,
494975,000001B0,false,Rx,0,8,54,20,A4,43,2A,A4,42,0A,
495185,000001BC,false,Rx,0,8,15,20,A4,43,3A,A4,45,0A,
495398,000001B8,false,Rx,0,8,18,50,A4,45,5A,A4,43,0A,
495614,000001C0,false,Rx,0,8,FA,30,A4,45,6A,A4,42,0A,
495823,000001B4,false,Rx,0,8,68,60,A4,46,6A,A4,47,0A,
496033,000001C4,false,Rx,0,8,8A,30,A4,45,5A,A4,43,0A,
496244,000001CC,false,Rx,0,8,8B,50,A4,46,6A,A4,46,0A,
497846,000000BA,false,Rx,0,8,08,42,29,00,00,00,00,2C,
499116,000001C9,false,Rx,0,8,4D,30,A4,43,BA,A3,43,0A,
499326,000001BD,false,Rx,0,8,BE,50,A4,43,AA,A3,45,0A,
499537,000001BE,false,Rx,0,8,8E,50,A4,43,3A,A4,3D,0A,
499747,000001B1,false,Rx,0,8,12,20,A4,42,AA,A3,46,0A,
499957,000001B2,false,Rx,0,8,11,60,A4,47,6A,A4,3F,0A,
500167,000001B9,false,Rx,0,8,8D,50,A4,42,AA,A3,47,0A,
500380,000001B5,false,Rx,0,8,5C,70,A4,46,FA,A3,47,0A,
500769,000001B6,false,Rx,0,8,13,70,A4,46,6A,A4,40,0A,
500979,000001BA,false,Rx,0,8,32,A0,A4,47,7A,A4,42,0A,
501189,000001C1,false,Rx,0,8,1F,50,A4,42,BA,A3,46,0A,
501401,000001C2,false,Rx,0,8,19,50,A4,45,5A,A4,3C,0A,
501616,000001C5,false,Rx,0,8,C4,20,A4,42,CA,A3,45,0A,
501826,000001C6,false,Rx,0,8,99,50,A4,45,5A,A4,3D,0A,
502036,000000BB,false,Rx,0,8,E1,E1,FF,D1,95,2B,00,18,
502247,0000015B,false,Rx,0,8,1A,52,00,03,00,00,00,00,
502463,000001CA,false,Rx,0,8,79,30,A4,43,3A,A4,3C,0A,
502673,000001CD,false,Rx,0,8,4E,60,A4,45,DA,A3,45,0A,
503055,000001CE,false,Rx,0,8,E4,70,A4,45,5A,A4,40,0A,
503266,18FED007,true,Rx,0,6,00,03,A0,AB,9F,AB,00,00,
503480,18FED008,true,Rx,0,7,7E,AB,0B,80,F6,FE,00,00,
503690,18FED009,true,Rx,0,7,00,00,00,00,00,00,00,00,
507762,000000BA,false,Rx,0,8,35,43,29,00,00,00,00,2D,
512056,000000BB,false,Rx,0,8,FA,E2,FF,D1,95,2B,00,1A,
512280,0000015B,false,Rx,0,8,2B,53,00,03,00,00,00,00,
512500,18FED007,true,Rx,0,6,00,03,A0,AB,9F,AB,00,00,
512770,18FED008,true,Rx,0,7,7E,AB,0B,80,F6,FE,00,00,
513153,18FED009,true,Rx,0,7,00,00,00,00,00,00,00,00,
517882,000000BA,false,Rx,0,8,2D,44,29,00,00,00,00,3E,
522095,000000BB,false,Rx,0,8,16,E3,FF,D1,95,2B,00,1C,
522306,0000015B,false,Rx,0,8,8D,54,00,03,00,00,00,00,
522523,000001BC,false,Rx,0,8,F7,31,A4,44,3A,A4,44,EA,
522733,000001C0,false,Rx,0,8,D4,71,A4,47,8A,A4,46,EA,
522942,000001B0,false,Rx,0,8,47,91,A4,48,9A,A4,48,EA,
523152,000001B4,false,Rx,0,8,B1,81,A4,48,8A,A4,48,EA,
523364,000001B8,false,Rx,0,8,C6,A1,A4,49,AA,A4,49,EA,
523580,000001C4,false,Rx,0,8,6E,91,A4,4A,9A,A4,49,EA,
523789,000001C8,false,Rx,0,8,5A,71,A4,47,7A,A4,47,EA,
524171,000001CC,false,Rx,0,8,EC,71,A4,48,8A,A4,48,EA,
524385,18FED007,true,Rx,0,6,00,03,A0,AB,9F,AB,00,00,
524601,18FED008,true,Rx,0,7,7E,AB,00,80,F6,FE,00,00,
524811,18FED009,true,Rx,0,7,00,00,00,00,00,00,00,00,
527277,000001BD,false,Rx,0,8,41,31,A4,43,4A,A4,4A,EA,
527492,000001BE,false,Rx,0,8,F3,A1,A4,49,9A,A4,49,EA,
527702,000001B1,false,Rx,0,8,2A,81,A4,48,9A,A4,4C,EA,
528084,000000BA,false,Rx,0,8,AA,45,29,00,00,00,00,2F,
528294,000001B2,false,Rx,0,8,AC,C1,A4,4D,BA,A4,4B,EA,
528510,000001B5,false,Rx,0,8,E8,81,A4,47,8A,A4,48,EA,
530222,000001B6,false,Rx,0,8,73,81,A4,48,9A,A4,48,EA,
530227,000001B9,false,Rx,0,8,8B,A1,A4,49,9A,A4,48,EA,
530233,000001BA,false,Rx,0,8,E3,A1,A4,48,8A,A4,49,EA,
530238,000001C1,false,Rx,0,8,07,71,A4,45,7A,A4,4A,EA,
530243,000001C2,false,Rx,0,8,9C,A1,A4,49,AA,A4,48,EA,
530248,000001C5,false,Rx,0,8,7F,81,A4,48,AA,A4,4C,EA,
530253,000001C6,false,Rx,0,8,3F,C1,A4,4C,CA,A4,4C,EA,
530258,000001C9,false,Rx,0,8,E5,51,A4,46,7A,A4,4A,EA,
530485,000001CA,false,Rx,0,8,0B,A1,A4,49,9A,A4,48,EA,
530695,000001CD,false,Rx,0,8,AA,71,A4,47,9A,A4,49,EA,
530905,000001CE,false,Rx,0,8,66,A1,A4,4A,BA,A4,4A,EA,
531990,000000BB,false,Rx,0,8,9B,E4,FF,D1,95,2B,00,1E,
532206,0000015B,false,Rx,0,8,04,55,00,03,00,00,00,00,
532602,18FED007,true,Rx,0,6,00,03,A0,AB,9F,AB,00,00,
532819,18FED008,true,Rx,0,7,7E,AB,0B,80,F6,FE,00,00,
533030,18FED009,true,Rx,0,7,00,00,00,00,00,00,00,00,
537756,000000BA,false,Rx,0,8,10,46,29,00,00,00,00,21,
542130,000000BB,false,Rx,0,8,B1,E5,FF,D1,95,2B,00,02,
542342,0000015B,false,Rx,0,8,54,56,00,03,00,00,00,00,
542556,18FED007,true,Rx,0,6,00,03,A0,AB,9F,AB,00,00,
542766,18FED008,true,Rx,0,7,7E,AB,0B,80,F6,FE,00,00,
543148,18FED009,true,Rx,0,7,00,00,00,00,00,00,00,00,
547756,000000BA,false,Rx,0,8,F5,47,29,00,00,00,00,30,
552153,000000BB,false,Rx,0,8,59,E6,FF,D1,95,2B,00,00,
552384,0000015B,false,Rx,0,8,4F,57,00,03,00,00,00,00,
552600,18FED007,true,Rx,0,6,00,03,A0,AB,9F,AB,00,00,
553084,18FED008,true,Rx,0,7,7E,AB,0B,80,F6,FE,00,00,
553089,18FED009,true,Rx,0,7,00,00,00,00,00,00,00,00,
554529,000001BC,false,Rx,0,8,76,22,A4,43,3A,A4,45,0A,
554739,000001C8,false,Rx,0,8,19,62,A4,46,5A,A4,46,0A,
554949,000001C4,false,Rx,0,8,14,32,A4,45,5A,A4,43,0A,
555159,000001B0,false,Rx,0,8,EC,22,A4,43,2A,A4,42,0A,
555369,000001B4,false,Rx,0,8,FF,62,A4,46,6A,A4,47,0A,
555585,000001B8,false,Rx,0,8,33,52,A4,45,5A,A4,43,0A,
555795,000001C0,false,Rx,0,8,29,32,A4,45,6A,A4,43,0A,
556005,000001CC,false,Rx,0,8,C7,52,A4,46,6A,A4,46,0A,
557783,000000BA,false,Rx,0,8,CC,48,29,00,00,00,00,22,
559208,000001BD,false,Rx,0,8,F3,52,A4,43,AA,A3,45,0A,
559420,000001C9,false,Rx,0,8,BB,32,A4,43,BA,A3,43,0A,
559637,000001B1,false,Rx,0,8,76,22,A4,42,AA,A3,46,0A,
559847,000001B5,false,Rx,0,8,55,72,A4,46,FA,A3,47,0A,
560057,000001B2,false,Rx,0,8,E6,62,A4,47,6A,A4,3F,0A,
560270,000001B6,false,Rx,0,8,45,72,A4,46,6A,A4,40,0A,
560658,000001B9,false,Rx,0,8,BE,52,A4,42,AA,A3,47,0A,
560867,000001BA,false,Rx,0,8,52,A2,A4,47,7A,A4,42,0A,
561077,000001BE,false,Rx,0,8,D3,52,A4,43,3A,A4,3D,0A,
561289,000001C1,false,Rx,0,8,A0,52,A4,42,BA,A3,46,0A,
561505,000001C2,false,Rx,0,8,99,52,A4,45,5A,A4,3C,0A,
561714,000001C5,false,Rx,0,8,F0,22,A4,42,CA,A3,45,0A,
561924,000001C6,false,Rx,0,8,56,52,A4,45,5A,A4,3D,0A,
562133,000000BB,false,Rx,0,8,0A,E7,FF,D5,95,2B,00,04,
562345,0000015B,false,Rx,0,8,65,58,00,03,00,00,00,00,
562561,000001CA,false,Rx,0,8,E6,32,A4,45,3A,A4,3C,0A,
562771,000001CD,false,Rx,0,8,BD,62,A4,45,DA,A3,45,0A,
563153,000001CE,false,Rx,0,8,12,72,A4,45,5A,A4,3F,0A,
563365,18FED007,true,Rx,0,6,00,03,AB,AB,9F,AB,00,00,
563581,18FED008,true,Rx,0,7,7E,AB,0B,80,F6,FE,00,00,
563791,18FED009,true,Rx,0,7,00,00,00,00,00,00,00,00,
564173,18FED00A,true,Rx,0,8,00,00,30,1E,00,41,00,00,
567866,000000BA,false,Rx,0,8,E4,49,29,00,00,00,00,23,
572075,000000BB,false,Rx,0,8,53,E8,FF,D1,95,2B,00,06,
572285,0000015B,false,Rx,0,8,66,59,00,03,00,00,00,00,
572495,18FED007,true,Rx,0,6,00,03,A0,AB,9F,AB,00,00,
572902,18FED008,true,Rx,0,7,7E,AB,0B,80,F6,FE,00,00,
573148,18FED009,true,Rx,0,7,00,00,00,00,00,00,00,00,
577914,000000BA,false,Rx,0,8,9C,4A,29,00,00,00,00,34,
582028,000000BB,false,Rx,0,8,63,E9,FF,D1,95,2B,00,08,
582240,0000015B,false,Rx,0,8,73,5A,00,03,00,00,00,00,
582454,000001BC,false,Rx,0,8,41,33,A4,44,4A,A4,45,4A,
582837,000001B0,false,Rx,0,8,46,83,A4,49,9A,A4,48,4A,
583045,000001B4,false,Rx,0,8,EF,83,A4,48,8A,A4,47,4A,
583256,000001B8,false,Rx,0,8,65,A3,A4,4A,AA,A4,49,4A,
583472,000001C0,false,Rx,0,8,A0,73,A4,48,8A,A4,46,4A,
583682,000001C4,false,Rx,0,8,10,93,A4,49,9A,A4,48,4A,
583892,000001C8,false,Rx,0,8,CA,73,A4,47,6A,A4,46,4A,
584102,000001CC,false,Rx,0,8,49,73,A4,48,8A,A4,48,4A,
584313,18FED007,true,Rx,0,6,00,03,A0,AB,9F,AB,00,00,
584702,18FED008,true,Rx,0,7,7E,AB,0B,80,F6,FE,00,00,
584912,18FED009,true,Rx,0,7,00,00,00,00,00,00,00,00,
587382,000001BD,false,Rx,0,8,F9,33,A4,43,4A,A4,49,4A,
587599,000001BE,false,Rx,0,8,CC,A3,A4,49,9A,A4,49,4A,
587808,000001B1,false,Rx,0,8,F3,83,A4,48,9A,A4,4B,4A,
588018,000000BA,false,Rx,0,8,76,4B,29,00,00,00,00,25,
588229,000001B2,false,Rx,0,8,51,C3,A4,4C,CA,A4,4B,4A,
588446,000001B5,false,Rx,0,8,4D,73,A4,47,8A,A4,47,4A,
588656,000001B6,false,Rx,0,8,75,83,A4,49,8A,A4,48,4A,
588866,000001B9,false,Rx,0,8,8F,A3,A4,49,9A,A4,48,4A,
590500,000001BA,false,Rx,0,8,E0,A3,A4,48,9A,A4,4A,4A,
590505,000001C1,false,Rx,0,8,8A,73,A4,46,7A,A4,4A,4A,
590510,000001C2,false,Rx,0,8,7C,A3,A4,49,9A,A4,48,4A,
590515,000001C5,false,Rx,0,8,3F,83,A4,48,AA,A4,4C,4A,
590520,000001C6,false,Rx,0,8,80,D3,A4,4D,BA,A4,4C,4A,
590525,000001C9,false,Rx,0,8,79,63,A4,46,6A,A4,49,4A,
590530,000001CA,false,Rx,0,8,7B,93,A4,49,9A,A4,48,4A,
590755,000001CD,false,Rx,0,8,F5,73,A4,47,8A,A4,49,4A,
590975,000001CE,false,Rx,0,8,33,A3,A4,4A,AA,A4,4A,4A,
592055,000000BB,false,Rx,0,8,C1,EA,FF,D1,95,2B,00,0A,
592268,0000015B,false,Rx,0,8,8C,5B,00,03,00,00,00,00,
592476,18FED007,true,Rx,0,6,00,03,A0,AB,9F,AB,00,00,
592865,18FED008,true,Rx,0,7,7E,AB,0B,80,F6,FE,00,00,
593075,18FED009,true,Rx,0,7,00,00,00,00,00,00,00,00,
597805,000000BA,false,Rx,0,8,8E,4C,29,00,00,00,00,26,
602013,000000BB,false,Rx,0,8,CD,EB,FF,D1,95,2B,00,0C,
602223,0000015B,false,Rx,0,8,B3,5C,00,03,00,00,00,00,
602606,18FED007,true,Rx,0,6,00,03,A0,AB,9F,AB,00,00,
602823,18FED008,true,Rx,0,7,7E,AB,0B,80,F6,FE,00,00,
603034,18FED009,true,Rx,0,7,00,00,00,00,00,00,00,00,
607763,000000BA,false,Rx,0,8,C9,4D,29,00,00,00,00,30,
612138,000000BB,false,Rx,0,8,9A,EC,FF,D1,B5,2B,00,00,
612351,0000015B,false,Rx,0,8,F9,5D,00,03,00,00,00,00,
612559,18FED007,true,Rx,0,6,00,03,A0,AB,AA,AB,00,00,
612777,18FED008,true,Rx,0,7,7E,AB,0B,80,F6,FE,00,00,
613159,18FED009,true,Rx,0,7,00,00,00,00,00,00,00,00,
614429,000001BC,false,Rx,0,8,49,24,A4,43,3A,A4,45,0A,
614645,000001C8,false,Rx,0,8,AE,64,A4,46,5A,A4,46,0A,
614855,000001C4,false,Rx,0,8,6E,34,A4,45,5A,A4,43,0A,
615065,000001B0,false,Rx,0,8,27,24,A4,43,2A,A4,42,0A,
615455,000001B4,false,Rx,0,8,3A,64,A4,46,6A,A4,47,0A,
615665,000001B8,false,Rx,0,8,24,54,A4,45,5A,A4,43,0A,
615875,000001C0,false,Rx,0,8,1F,34,A4,45,6A,A4,43,0A,
616085,000001CC,false,Rx,0,8,99,54,A4,46,6A,A4,46,0A,
617863,000000BA,false,Rx,0,8,62,4E,29,00,00,00,00,27,
619301,000001BD,false,Rx,0,8,AA,54,A4,43,AA,A3,45,0A,
619517,000001C9,false,Rx,0,8,FB,34,A4,43,BA,A3,43,0A,
619728,000001B1,false,Rx,0,8,BD,24,A4,42,AA,A3,46,0A,
619938,000001B5,false,Rx,0,8,73,74,A4,46,FA,A3,47,0A,
620148,000001B2,false,Rx,0,8,DC,64,A4,47,6A,A4,3F,0A,
620359,000001B6,false,Rx,0,8,F2,74,A4,46,6A,A4,40,0A,
620575,000001B9,false,Rx,0,8,CF,54,A4,42,AA,A3,48,0A,
620785,000001BA,false,Rx,0,8,8E,A4,A4,47,7A,A4,42,0A,
620996,000001BE,false,Rx,0,8,C0,54,A4,43,3A,A4,3D,0A,
621206,000001C1,false,Rx,0,8,92,54,A4,42,BA,A3,46,0A,
621417,000001C2,false,Rx,0,8,2C,54,A4,45,5A,A4,3C,0A,
621632,000001C5,false,Rx,0,8,5B,24,A4,42,CA,A3,45,0A,
621842,000001C6,false,Rx,0,8,DF,54,A4,45,5A,A4,3D,0A,
622224,000000BB,false,Rx,0,8,8A,ED,FF,C9,95,2B,00,0E,
622436,0000015B,false,Rx,0,8,2E,5E,00,03,00,00,00,00,
622652,000001CA,false,Rx,0,8,12,34,A4,43,3A,A4,3C,0A,
622862,000001CD,false,Rx,0,8,C7,64,A4,45,DA,A3,45,0A,
623072,000001CE,false,Rx,0,8,78,74,A4,45,5A,A4,3F,0A,
623284,18FED007,true,Rx,0,6,00,03,94,AB,93,AB,00,00,
623500,18FED008,true,Rx,0,7,7E,AB,00,80,F6,FE,00,00,
623883,18FED009,true,Rx,0,7,00,00,00,00,00,00,00,00,
627868,000000BA,false,Rx,0,8,43,4F,29,00,00,00,00,28,
632122,000000BB,false,Rx,0,8,DC,EE,FF,D1,95,2B,00,10,
632334,0000015B,false,Rx,0,8,45,5F,00,03,00,00,00,00,
632551,18FED007,true,Rx,0,6,00,03,A0,AB,9F,AB,00,00,
632760,18FED008,true,Rx,0,7,7E,AB,0B,80,F6,FE,00,00,
633155,18FED009,true,Rx,0,7,00,00,00,00,00,00,00,00,
637882,000000BA,false,Rx,0,8,88,40,29,00,00,00,00,39,
642087,000000BB,false,Rx,0,8,4B,EF,FF,D1,95,2B,00,12,
642296,0000015B,false,Rx,0,8,BA,50,00,03,00,00,00,00,
642512,000001BC,false,Rx,0,8,3D,35,A4,43,4A,A4,44,9A,
642722,000001B0,false,Rx,0,8,7C,85,A4,48,8A,A4,48,9A,
642932,000001B4,false,Rx,0,8,2B,75,A4,48,8A,A4,48,9A,
643141,000001B8,false,Rx,0,8,1B,A5,A4,4A,AA,A4,49,9A,
643531,000001C0,false,Rx,0,8,17,75,A4,47,8A,A4,46,9A,
643740,000001C4,false,Rx,0,8,A0,95,A4,49,9A,A4,49,9A,
643950,000001C8,false,Rx,0,8,48,75,A4,47,6A,A4,47,9A,
644160,000001CC,false,Rx,0,8,F7,75,A4,48,8A,A4,48,9A,
644372,18FED007,true,Rx,0,6,00,03,A0,AB,9F,AB,00,00,
644589,18FED008,true,Rx,0,7,7E,AB,0B,80,F6,FE,00,00,
644971,18FED009,true,Rx,0,7,00,00,00,00,00,00,00,00,
647268,000001BD,false,Rx,0,8,73,35,A4,43,4A,A4,4A,9A,
647483,000001BE,false,Rx,0,8,D1,A5,A4,49,9A,A4,4A,9A,
647693,000001B1,false,Rx,0,8,90,85,A4,48,9A,A4,4B,9A,
648074,000000BA,false,Rx,0,8,3A,41,29,00,00,00,00,2A,
648285,000001B2,false,Rx,0,8,2E,B5,A4,4C,CA,A4,4B,9A,
648501,000001B5,false,Rx,0,8,20,85,A4,47,9A,A4,48,9A,
648711,000001B6,false,Rx,0,8,A6,85,A4,49,8A,A4,48,9A,
648920,000001B9,false,Rx,0,8,0E,A5,A4,49,AA,A4,48,9A,
649130,000001BA,false,Rx,0,8,F5,A5,A4,48,9A,A4,49,9A,
650661,000001C1,false,Rx,0,8,2B,75,A4,46,7A,A4,4A,9A,
650666,000001C2,false,Rx,0,8,26,A5,A4,49,AA,A4,48,9A,
650671,000001C5,false,Rx,0,8,46,85,A4,48,AA,A4,4C,9A,
650676,000001C6,false,Rx,0,8,D2,C5,A4,4C,CA,A4,4C,9A,
650681,000001C9,false,Rx,0,8,F9,65,A4,46,6A,A4,49,9A,
650686,000001CA,false,Rx,0,8,8C,95,A4,49,9A,A4,48,9A,
650691,000001CD,false,Rx,0,8,A5,75,A4,47,9A,A4,49,9A,
650911,000001CE,false,Rx,0,8,A3,B5,A4,4A,AA,A4,4A,9A,
652017,000000BB,false,Rx,0,8,BA,E0,FF,D1,95,2B,00,14,
652237,0000015B,false,Rx,0,8,14,51,00,03,00,00,00,00,
652620,18FED007,true,Rx,0,6,00,03,A0,AB,9F,AB,00,00,
652830,18FED008,true,Rx,0,7,7E,AB,0B,80,F6,FE,00,00,
653040,18FED009,true,Rx,0,7,00,00,00,00,00,00,00,00,
657865,000000BA,false,Rx,0,8,C9,42,29,00,00,00,00,2B,
662089,000000BB,false,Rx,0,8,4C,E1,FF,D1,95,2B,00,16,
662300,0000015B,false,Rx,0,8,1A,52,00,03,00,00,00,00,
662515,18FED007,true,Rx,0,6,00,03,A0,AB,9F,AB,00,00,
662897,18FED008,true,Rx,0,7,7E,AB,0B,80,F6,FE,00,00,
663107,18FED009,true,Rx,0,7,00,00,00,00,00,00,00,00,
663318,18FED00A,true,Rx,0,8,00,00,30,1E,00,41,00,00,
667871,000000BA,false,Rx,0,8,A9,43,29,00,00,00,00,30,
672121,000000BB,false,Rx,0,8,A7,E2,FF,D1,95,2B,00,00,
672373,0000015B,false,Rx,0,8,2B,53,00,03,00,00,00,00,
672588,18FED007,true,Rx,0,6,00,03,A0,AB,9F,AB,00,00,
672798,18FED008,true,Rx,0,7,7E,AB,0B,80,F6,FE,00,00,
673007,18FED009,true,Rx,0,7,00,00,00,00,00,00,00,00,
674434,000001BC,false,Rx,0,8,D0,26,A4,43,3A,A4,45,0A,
674651,000001C8,false,Rx,0,8,30,66,A4,46,5A,A4,46,0A,
674861,000001C4,false,Rx,0,8,FA,36,A4,45,5A,A4,43,0A,
675070,000001B0,false,Rx,0,8,C2,26,A4,43,2A,A4,42,0A,
675460,000001B4,false,Rx,0,8,D9,66,A4,46,6A,A4,47,0A,
675669,000001B8,false,Rx,0,8,79,56,A4,45,5A,A4,43,0A,
675878,000001C0,false,Rx,0,8,DE,36,A4,45,6A,A4,43,0A,
676088,000001CC,false,Rx,0,8,6E,56,A4,46,6A,A4,46,0A,
677865,000000BA,false,Rx,0,8,F5,44,29,00,00,00,00,2C,
679292,000001BD,false,Rx,0,8,23,56,A4,43,AA,A3,45,0A,
679509,000001C9,false,Rx,0,8,C6,36,A4,43,BA,A3,43,0A,
679719,000001BE,false,Rx,0,8,83,56,A4,43,3A,A4,3D,0A,
679929,000001B1,false,Rx,0,8,41,26,A4,42,AA,A3,46,0A,
680138,000001B2,false,Rx,0,8,D4,66,A4,47,6A,A4,3F,0A,
680349,000001B5,false,Rx,0,8,B6,76,A4,46,FA,A3,47,0A,
680565,000001B6,false,Rx,0,8,58,76,A4,46,6A,A4,40,0A,
680775,000001B9,false,Rx,0,8,23,56,A4,42,AA,A3,47,0A,
680986,000001BA,false,Rx,0,8,36,A6,A4,47,7A,A4,42,0A,
681196,000001C1,false,Rx,0,8,E7,56,A4,42,BA,A3,46,0A,
681408,000001C2,false,Rx,0,8,78,56,A4,45,5A,A4,3C,0A,
681625,000001C5,false,Rx,0,8,71,26,A4,42,CA,A3,45,0A,
682007,000001C6,false,Rx,0,8,EF,56,A4,45,5A,A4,3D,0A,
682217,000000BB,false,Rx,0,8,C3,E3,FF,D1,95,2B,00,18,
682429,0000015B,false,Rx,0,8,8D,54,00,03,00,00,00,00,
682646,000001CA,false,Rx,0,8,2F,36,A4,43,3A,A4,3C,0A,
682855,000001CD,false,Rx,0,8,57,66,A4,45,DA,A3,45,0A,
683065,000001CE,false,Rx,0,8,60,76,A4,45,5A,A4,3F,0A,
683277,18FED007,true,Rx,0,6,00,03,A0,AB,9F,AB,00,00,
683666,18FED008,true,Rx,0,7,7E,AB,0B,80,F6,FE,00,00,
683876,18FED009,true,Rx,0,7,00,00,00,00,00,00,00,00,
687918,000000BA,false,Rx,0,8,57,45,29,00,00,00,00,2D,
692153,000000BB,false,Rx,0,8,4E,E4,FF,D1,95,2B,00,1A,
692365,0000015B,false,Rx,0,8,04,55,00,03,00,00,00,00,
692576,18FED007,true,Rx,0,6,00,03,A0,AB,9F,AB,00,00,
692787,18FED008,true,Rx,0,7,7E,AB,0B,80,F6,FE,00,00,
693002,18FED009,true,Rx,0,7,00,00,00,00,00,00,00,00,
697767,000000BA,false,Rx,0,8,71,46,29,00,00,00,00,3E,
702066,000000BB,false,Rx,0,8,A4,E5,FF,D1,B5,2B,00,1C,
702299,0000015B,false,Rx,0,8,54,56,00,03,00,00,00,00,
702526,000001BC,false,Rx,0,8,66,37,A4,43,4A,A4,45,EA,
702742,000001B0,false,Rx,0,8,FA,87,A4,48,9A,A4,48,EA,
702952,000001B4,false,Rx,0,8,D9,87,A4,48,7A,A4,48,EA,
703162,000001B8,false,Rx,0,8,14,A7,A4,4A,AA,A4,49,EA,
703374,000001C0,false,Rx,0,8,AB,67,A4,48,8A,A4,46,EA,
703590,000001C4,false,Rx,0,8,E2,97,A4,49,AA,A4,49,EA,
703973,000001C8,false,Rx,0,8,3D,87,A4,46,6A,A4,47,EA,
704183,000001CC,false,Rx,0,8,A6,77,A4,48,8A,A4,48,EA,
704395,18FED007,true,Rx,0,6,00,03,A0,AB,AA,AB,00,00,
704609,18FED008,true,Rx,0,7,7E,AB,0B,80,F6,FE,00,00,
704819,18FED009,true,Rx,0,7,00,00,00,00,00,00,00,00,
707290,000001BD,false,Rx,0,8,D2,37,A4,43,4A,A4,4A,EA,
707501,000001BE,false,Rx,0,8,C5,B7,A4,49,9A,A4,4A,EA,
707711,000001B1,false,Rx,0,8,1C,87,A4,48,9A,A4,4B,EA,
708093,000000BA,false,Rx,0,8,94,47,29,00,00,00,00,2F,
708304,000001B2,false,Rx,0,8,C7,B7,A4,4C,BA,A4,4B,EA,
708520,000001B5,false,Rx,0,8,A7,87,A4,47,8A,A4,48,EA,
708730,000001B6,false,Rx,0,8,64,87,A4,49,9A,A4,48,EA,
708940,000001B9,false,Rx,0,8,98,A7,A4,4A,9A,A4,49,EA,
709150,000001BA,false,Rx,0,8,36,B7,A4,48,9A,A4,49,EA,
709361,000001C1,false,Rx,0,8,90,77,A4,45,7A,A4,4A,EA,
711715,000001C2,false,Rx,0,8,53,A7,A4,49,AA,A4,48,EA,
711720,000001C5,false,Rx,0,8,E1,87,A4,48,AA,A4,4C,EA,
711725,000001C6,false,Rx,0,8,B8,C7,A4,4C,CA,A4,4C,EA,
711731,000001C9,false,Rx,0,8,F8,67,A4,46,6A,A4,4A,EA,
711736,000001CA,false,Rx,0,8,C9,97,A4,48,9A,A4,48,EA,
711741,000001CD,false,Rx,0,8,A0,77,A4,47,9A,A4,49,EA,
711746,000001CE,false,Rx,0,8,AE,B7,A4,4A,AA,A4,4B,EA,
712146,000000BB,false,Rx,0,8,FC,E6,FF,C9,95,2B,00,1E,
712374,0000015B,false,Rx,0,8,4F,57,00,03,00,00,00,00,
712597,18FED007,true,Rx,0,6,00,03,94,AB,93,AB,00,00,
712805,18FED008,true,Rx,0,7,7E,AB,00,80,F6,FE,00,00,
713016,18FED009,true,Rx,0,7,00,00,00,00,00,00,00,00,
717829,000000BA,false,Rx,0,8,D8,48,29,00,00,00,00,21,
722048,000000BB,false,Rx,0,8,5D,E7,FF,D1,95,2B,00,02,
722260,0000015B,false,Rx,0,8,65,58,00,03,00,00,00,00,
722471,18FED007,true,Rx,0,6,00,03,A0,AB,9F,AB,00,00,
722854,18FED008,true,Rx,0,7,7E,AB,0B,80,F6,FE,00,00,
723064,18FED009,true,Rx,0,7,00,00,00,00,00,00,00,00,
727795,000000BA,false,Rx,0,8,D5,49,29,00,00,00,00,30,
732027,000000BB,false,Rx,0,8,7B,E8,FF,D1,95,2B,00,00,
732252,0000015B,false,Rx,0,8,66,59,00,03,00,00,00,00,
732636,18FED007,true,Rx,0,6,00,03,A0,AB,9F,AB,00,00,
732846,18FED008,true,Rx,0,7,7E,AB,0B,80,F6,FE,00,00,
733056,18FED009,true,Rx,0,7,00,00,00,00,00,00,00,00,
734488,000001BC,false,Rx,0,8,3B,28,A4,43,3A,A4,45,0A,
734698,000001C8,false,Rx,0,8,B4,68,A4,46,5A,A4,46,0A,
734908,000001C4,false,Rx,0,8,D0,38,A4,45,5A,A4,43,0A,
735117,000001B0,false,Rx,0,8,5D,28,A4,43,2A,A4,42,0A,
735329,000001B4,false,Rx,0,8,49,68,A4,46,6A,A4,47,0A,
735559,000001B8,false,Rx,0,8,E8,58,A4,45,5A,A4,43,0A,
735786,000001C0,false,Rx,0,8,C6,38,A4,45,6A,A4,43,0A,
736005,000001CC,false,Rx,0,8,90,58,A4,46,6A,A4,46,0A,
737824,000000BA,false,Rx,0,8,91,4A,29,00,00,00,00,22,
739250,000001BD,false,Rx,0,8,89,58,A4,43,AA,A3,45,0A,
739467,000001C9,false,Rx,0,8,BC,38,A4,43,BA,A3,43,0A,
739676,000001BE,false,Rx,0,8,B6,58,A4,43,3A,A4,3D,0A,
739887,000001B1,false,Rx,0,8,98,28,A4,42,AA,A3,46,0A,
740097,000001B2,false,Rx,0,8,42,68,A4,47,6A,A4,3F,0A,
740309,000001B5,false,Rx,0,8,08,78,A4,46,FA,A3,47,0A,
740526,000001B6,false,Rx,0,8,39,78,A4,46,6A,A4,40,0A,
740736,000001B9,false,Rx,0,8,6E,58,A4,42,AA,A3,48,0A,
741118,000001BA,false,Rx,0,8,E4,A8,A4,47,7A,A4,42,0A,
741330,000001C1,false,Rx,0,8,33,58,A4,42,BA,A3,46,0A,
741546,000001C2,false,Rx,0,8,E9,58,A4,45,5A,A4,3C,0A,
741756,000001C5,false,Rx,0,8,2D,28,A4,42,CA,A3,45,0A,
741966,000001C6,false,Rx,0,8,35,58,A4,45,5A,A4,3D,0A,
742176,000000BB,false,Rx,0,8,AE,E9,FF,D1,B5,2B,00,04,
742388,0000015B,false,Rx,0,8,73,5A,00,03,00,00,00,00,
742605,000001CA,false,Rx,0,8,6E,38,A4,43,3A,A4,3C,0A,
742814,000001CD,false,Rx,0,8,BA,68,A4,45,DA,A3,45,0A,
743024,000001CE,false,Rx,0,8,FF,78,A4,45,5A,A4,3F,0A,
743409,18FED007,true,Rx,0,6,00,03,A0,AB,AA,AB,00,00,
743625,18FED008,true,Rx,0,7,7E,AB,0B,80,F6,FE,00,00,
743836,18FED009,true,Rx,0,7,00,00,00,00,00,00,00,00,
747869,000000BA,false,Rx,0,8,5E,4B,29,00,00,00,00,23,
752030,000000BB,false,Rx,0,8,EE,EA,FF,D5,95,2B,00,06,
752252,0000015B,false,Rx,0,8,8C,5B,00,03,00,00,00,00,
752635,18FED007,true,Rx,0,6,00,03,AB,AB,9F,AB,00,00,
752845,18FED008,true,Rx,0,7,7E,AB,0B,80,F6,FE,00,00,
753056,18FED009,true,Rx,0,7,00,00,00,00,00,00,00,00,
757795,000000BA,false,Rx,0,8,56,4C,29,00,00,00,00,34,
762144,000000BB,false,Rx,0,8,73,CB,FF,D1,95,2B,00,08,
762355,0000015B,false,Rx,0,8,B3,5C,00,03,00,00,00,00,
762565,000001BC,false,Rx,0,8,B1,39,A4,43,3A,A4,45,4A,
762782,000001B0,false,Rx,0,8,05,79,A4,48,9A,A4,48,4A,
762992,000001B4,false,Rx,0,8,DF,89,A4,48,8A,A4,48,4A,
763201,000001B8,false,Rx,0,8,9E,A9,A4,4A,AA,A4,49,4A,
763413,000001C0,false,Rx,0,8,0B,79,A4,47,8A,A4,46,4A,
763628,000001C4,false,Rx,0,8,94,99,A4,49,AA,A4,49,4A,
763838,000001C8,false,Rx,0,8,67,89,A4,47,6A,A4,46,4A,
764048,000001CC,false,Rx,0,8,89,79,A4,48,8A,A4,48,4A,
764432,18FED007,true,Rx,0,6,00,03,A0,AB,9F,AB,00,00,
764649,18FED008,true,Rx,0,7,7E,AB,0B,80,F6,FE,00,00,
764858,18FED009,true,Rx,0,7,00,00,00,00,00,00,00,00,
765243,18FED00A,true,Rx,0,8,00,00,30,1E,00,41,00,00,
767365,000001BD,false,Rx,0,8,20,39,A4,44,4A,A4,4A,4A,
767580,000001BE,false,Rx,0,8,EA,A9,A4,49,9A,A4,49,4A,
767790,000001B1,false,Rx,0,8,A4,99,A4,48,9A,A4,4C,4A,
768000,000000BA,false,Rx,0,8,D0,4D,29,00,00,00,00,25,
768210,000001B2,false,Rx,0,8,51,B9,A4,4C,BA,A4,4B,4A,
768423,000001B5,false,Rx,0,8,FC,89,A4,47,8A,A4,49,4A,
768640,000001B6,false,Rx,0,8,15,89,A4,48,8A,A4,49,4A,
768850,000001B9,false,Rx,0,8,AF,B9,A4,49,9A,A4,48,4A,
769060,000001BA,false,Rx,0,8,7B,A9,A4,48,9A,A4,4A,4A,
769272,000001C1,false,Rx,0,8,86,79,A4,45,7A,A4,4A,4A,
769661,000001C2,false,Rx,0,8,B1,A9,A4,4A,9A,A4,48,4A,
771321,000001C5,false,Rx,0,8,79,89,A4,48,AA,A4,4C,4A,
771326,000001C6,false,Rx,0,8,83,B9,A4,4C,CA,A4,4C,4A,
771331,000001C9,false,Rx,0,8,EA,69,A4,46,6A,A4,49,4A,
771336,000001CA,false,Rx,0,8,B2,A9,A4,49,9A,A4,49,4A,
771341,000001CD,false,Rx,0,8,0A,79,A4,47,9A,A4,49,4A,
771346,000001CE,false,Rx,0,8,48,A9,A4,4A,AA,A4,4A,4A,
772106,000000BB,false,Rx,0,8,14,CC,FF,D1,95,2B,00,0A,
772319,0000015B,false,Rx,0,8,F9,5D,00,03,00,00,00,00,
772531,18FED007,true,Rx,0,6,00,03,A0,AB,9F,AB,00,00,
772741,18FED008,true,Rx,0,7,7E,AB,0B,80,F6,FE,00,00,
773123,18FED009,true,Rx,0,7,00,00,00,00,00,00,00,00,
777827,000000BA,false,Rx,0,8,8B,4E,29,00,00,00,00,26,
782053,000000BB,false,Rx,0,8,5A,ED,FF,D1,95,2B,00,0C,
782311,0000015B,false,Rx,0,8,2E,5E,00,03,00,00,00,00,
782525,18FED007,true,Rx,0,6,00,03,A0,AB,9F,AB,00,00,
782907,18FED008,true,Rx,0,7,7E,AB,0B,80,F6,FE,00,00,
783118,18FED009,true,Rx,0,7,00,00,00,00,00,00,00,00,
783328,18FED502,true,Rx,0,5,0C,20,00,00,02,00,00,00,
784235,16A9541E,true,Rx,0,8,80,A0,80,AA,A0,A0,AA,AA,
784450,18FED102,true,Rx,0,5,0C,20,00,00,02,00,00,00,
784660,1A555464,true,Rx,0,8,80,34,31,48,20,75,00,00,
784870,18FED402,true,Rx,0,5,0C,20,00,00,02,00,00,00,
785255,16A9541A,true,Rx,0,8,80,A0,80,AA,A0,A0,AA,AA,
785471,18FED202,true,Rx,0,5,0C,20,00,00,02,00,00,00,
785681,18FED802,true,Rx,0,5,0C,20,00,00,02,00,00,00,
786063,16A9541D,true,Rx,0,8,80,A0,80,AA,A0,A0,AA,AA,
786275,18FED602,true,Rx,0,5,0C,20,00,00,02,00,00,00,
786490,16A9541B,true,Rx,0,8,80,A0,80,AA,A0,A0,AA,AA,
786873,16A95421,true,Rx,0,8,80,A0,80,AA,A0,A0,AA,AA,
787082,16A95420,true,Rx,0,8,80,A0,80,AA,A0,A0,AA,AA,
787294,16A9541F,true,Rx,0,8,80,A0,80,AA,A0,A0,AA,AA,
787683,16A9541C,true,Rx,0,8,80,A0,80,AA,A0,A0,AA,AA,
787893,000000BA,false,Rx,0,8,E3,4F,29,00,00,00,00,30,
788103,18FED302,true,Rx,0,5,0C,20,00,00,02,00,00,00,
788313,18FED702,true,Rx,0,5,0C,20,00,00,02,00,00,00,
788529,1A555460,true,Rx,0,8,80,34,31,48,20,75,00,00,
788911,1A555461,true,Rx,0,8,80,34,31,48,20,75,00,00,
789122,1A555462,true,Rx,0,8,80,34,31,48,20,75,00,00,
789512,1A555463,true,Rx,0,8,80,34,31,48,20,75,00,00,
789723,1A555465,true,Rx,0,8,80,34,31,48,20,75,00,00,
791302,1A555466,true,Rx,0,8,80,34,31,48,20,75,00,00,
791307,1A555467,true,Rx,0,8,80,34,31,48,20,75,00,00,
792052,000000BB,false,Rx,0,8,92,CE,FF,D1,95,2B,00,00,
792266,0000015B,false,Rx,0,8,45,5F,00,03,00,00,00,00,
792655,18FED007,true,Rx,0,6,00,03,A0,AB,9F,AB,00,00,
792866,18FED008,true,Rx,0,7,7E,AB,0B,80,F6,FE,00,00,
793088,18FED009,true,Rx,0,7,00,00,00,00,00,00,00,00,
794342,000001C4,false,Rx,0,8,92,3A,A4,45,5A,A4,43,0A,
794729,000001B8,false,Rx,0,8,E9,5A,A4,45,5A,A4,43,0A,
794939,000001B0,false,Rx,0,8,9E,2A,A4,43,2A,A4,42,0A,
795149,000001B4,false,Rx,0,8,A5,6A,A4,46,6A,A4,47,0A,
795363,000001BC,false,Rx,0,8,54,2A,A4,43,3A,A4,45,0A,
795579,000001C0,false,Rx,0,8,53,3A,A4,45,6A,A4,43,0A,
795805,000001C8,false,Rx,0,8,8C,6A,A4,46,5A,A4,46,0A,
796015,000001CC,false,Rx,0,8,93,5A,A4,46,6A,A4,46,0A,
797793,000000BA,false,Rx,0,8,00,40,29,00,00,00,00,27,
799045,000001B5,false,Rx,0,8,82,7A,A4,46,FA,A3,47,0A,
799434,000001BD,false,Rx,0,8,3D,5A,A4,43,AA,A3,45,0A,
799650,000001B6,false,Rx,0,8,CD,7A,A4,46,6A,A4,40,0A,
799859,000001B1,false,Rx,0,8,23,2A,A4,42,AA,A3,46,0A,
800069,000001B2,false,Rx,0,8,BB,6A,A4,47,6A,A4,3F,0A,
800280,000001B9,false,Rx,0,8,64,5A,A4,42,AA,A3,48,0A,
800496,000001BA,false,Rx,0,8,F5,AA,A4,47,7A,A4,42,0A,
800705,000001BE,false,Rx,0,8,C7,5A,A4,43,3A,A4,3D,0A,
800915,000001C1,false,Rx,0,8,9B,5A,A4,42,BA,A3,46,0A,
801125,000001C2,false,Rx,0,8,67,5A,A4,45,5A,A4,3C,0A,
801338,000001C5,false,Rx,0,8,83,2A,A4,42,CA,A3,45,0A,
801554,000001C6,false,Rx,0,8,B7,5A,A4,45,5A,A4,3D,0A,
801764,000001C9,false,Rx,0,8,7A,3A,A4,43,BA,A3,43,0A,
801974,000001CA,false,Rx,0,8,7E,3A,A4,43,3A,A4,3C,0A,
802359,000000BB,false,Rx,0,8,2A,CF,FF,D5,95,2B,00,0E,
802575,0000015B,false,Rx,0,8,BA,50,00,03,00,00,00,00,
802785,000001CD,false,Rx,0,8,24,6A,A4,46,DA,A3,45,0A,
802995,000001CE,false,Rx,0,8,E8,7A,A4,45,5A,A4,3F,0A,
803205,18FED007,true,Rx,0,6,00,03,AB,AB,9F,AB,00,00,
803416,18FED008,true,Rx,0,7,7E,AB,0B,80,F6,FE,00,00,
803805,18FED009,true,Rx,0,7,00,00,00,00,00,00,00,00,
807756,000000BA,false,Rx,0,8,C7,41,29,00,00,00,00,28,
812132,000000BB,false,Rx,0,8,CD,F0,FF,D1,95,2B,00,10,
812345,0000015B,false,Rx,0,8,14,51,00,03,00,00,00,00,
812560,18FED007,true,Rx,0,6,00,03,A0,AB,9F,AB,00,00,
812769,18FED008,true,Rx,0,7,7E,AB,0B,80,F6,FE,00,00,
813152,18FED009,true,Rx,0,7,00,00,00,00,00,00,00,00,
817919,000000BA,false,Rx,0,8,11,42,29,00,00,00,00,39,
822145,000000BB,false,Rx,0,8,3B,F1,FF,D1,95,2B,00,12,
822366,0000015B,false,Rx,0,8,1A,52,00,03,00,00,00,00,
822589,000001BC,false,Rx,0,8,0E,3B,A4,44,4A,A4,45,9A,
822841,000001B0,false,Rx,0,8,A7,8B,A4,48,9A,A4,48,9A,
823068,000001B4,false,Rx,0,8,70,7B,A4,48,8A,A4,48,9A,
823280,000001B8,false,Rx,0,8,DC,AB,A4,49,AA,A4,49,9A,
823496,000001C0,false,Rx,0,8,A8,7B,A4,47,8A,A4,46,9A,
823705,000001C4,false,Rx,0,8,48,9B,A4,49,9A,A4,49,9A,
823915,000001C8,false,Rx,0,8,CD,7B,A4,47,6A,A4,47,9A,
824125,000001CC,false,Rx,0,8,18,7B,A4,48,7A,A4,48,9A,
824336,18FED007,true,Rx,0,6,00,03,A0,AB,9F,AB,00,00,
824725,18FED008,true,Rx,0,7,7E,AB,0B,80,F6,FE,00,00,
824934,18FED009,true,Rx,0,7,00,00,00,00,00,00,00,00,
827241,000001BD,false,Rx,0,8,28,3B,A4,43,4A,A4,4A,9A,
827624,000001BE,false,Rx,0,8,0D,AB,A4,49,9A,A4,49,9A,
827834,000001B1,false,Rx,0,8,6C,9B,A4,48,9A,A4,4B,9A,
828044,000000BA,false,Rx,0,8,F4,43,29,00,00,00,00,2A,
828255,000001B2,false,Rx,0,8,E2,BB,A4,4C,CA,A4,4B,9A,
828471,000001B5,false,Rx,0,8,FB,8B,A4,47,9A,A4,48,9A,
828680,000001B6,false,Rx,0,8,58,8B,A4,49,8A,A4,48,9A,
828890,000001B9,false,Rx,0,8,DF,AB,A4,4A,9A,A4,48,9A,
829100,000001BA,false,Rx,0,8,1B,AB,A4,48,8A,A4,49,9A,
829312,000001C1,false,Rx,0,8,21,7B,A4,45,7A,A4,4A,9A,
829528,000001C2,false,Rx,0,8,60,AB,A4,49,AA,A4,48,9A,
829738,000001C5,false,Rx,0,8,5D,8B,A4,48,AA,A4,4C,9A,
829948,000001C6,false,Rx,0,8,79,BB,A4,4C,CA,A4,4B,9A,
831648,000001C9,false,Rx,0,8,CB,5B,A4,46,6A,A4,49,9A,
831653,000001CA,false,Rx,0,8,1A,AB,A4,49,9A,A4,48,9A,
831658,000001CD,false,Rx,0,8,DC,8B,A4,47,9A,A4,49,9A,
831663,000001CE,false,Rx,0,8,4F,AB,A4,4A,AA,A4,4A,9A,
831668,16A95419,true,Rx,0,8,AA,9A,8A,20,00,00,A0,80,
832061,000000BB,false,Rx,0,8,68,F2,FF,D1,B5,2B,00,14,
832273,0000015B,false,Rx,0,8,2B,53,00,03,00,00,00,00,
832484,18FED007,true,Rx,0,6,00,03,A0,AB,AA,AB,00,00,
832866,18FED008,true,Rx,0,7,7E,AB,0B,80,F6,FE,00,00,
833075,18FED009,true,Rx,0,7,00,00,00,00,00,00,00,00,
837817,000000BA,false,Rx,0,8,34,44,29,00,00,00,00,2B,
842038,000000BB,false,Rx,0,8,CC,F3,FF,D1,95,2B,00,16,
842251,0000015B,false,Rx,0,8,8D,54,00,03,00,00,00,00,
842639,18FED007,true,Rx,0,6,00,03,A0,AB,9F,AB,00,00,
842849,18FED008,true,Rx,0,7,7E,AB,0B,80,F6,FE,00,00,
843060,18FED009,true,Rx,0,7,00,00,00,00,00,00,00,00,
847876,000000BA,false,Rx,0,8,CB,45,29,00,00,00,00,30,
852067,000000BB,false,Rx,0,8,53,F4,FF,D5,B5,2B,00,00,
852284,0000015B,false,Rx,0,8,04,55,00,03,00,00,00,00,
852508,18FED007,true,Rx,0,6,00,03,AB,AB,B6,AB,00,00,
852890,18FED008,true,Rx,0,7,7E,AB,17,80,F6,FE,00,00,
853100,18FED009,true,Rx,0,7,00,00,00,00,00,00,00,00,
854531,000001BC,false,Rx,0,8,13,2C,A4,43,3A,A4,45,0A,
854741,000001C8,false,Rx,0,8,7B,6C,A4,46,5A,A4,46,0A,
854951,000001C4,false,Rx,0,8,10,3C,A4,45,5A,A4,43,0A,
855161,000001B0,false,Rx,0,8,CE,2C,A4,43,2A,A4,42,0A,
855374,000001B4,false,Rx,0,8,BB,6C,A4,46,6A,A4,47,0A,
855590,000001B8,false,Rx,0,8,ED,5C,A4,45,5A,A4,43,0A,
855800,000001C0,false,Rx,0,8,9E,3C,A4,45,6A,A4,43,0A,
856010,000001CC,false,Rx,0,8,0A,5C,A4,46,6A,A4,46,0A,
857786,000000BA,false,Rx,0,8,A9,46,29,00,00,00,00,2C,
859210,000001BD,false,Rx,0,8,17,5C,A4,43,AA,A3,45,0A,
859423,000001C9,false,Rx,0,8,CD,5C,A4,43,BA,A3,43,0A,
859640,000001BE,false,Rx,0,8,BB,5C,A4,43,3A,A4,3D,0A,
859849,000001B1,false,Rx,0,8,4D,2C,A4,42,AA,A3,46,0A,
860059,000001B2,false,Rx,0,8,C1,6C,A4,47,6A,A4,3F,0A,
860448,000001B5,false,Rx,0,8,47,7C,A4,46,FA,A3,47,0A,
860658,000001B6,false,Rx,0,8,F7,7C,A4,46,6A,A4,40,0A,
860868,000001B9,false,Rx,0,8,C4,5C,A4,42,AA,A3,48,0A,
861078,000001BA,false,Rx,0,8,6B,AC,A4,47,7A,A4,42,0A,
861290,000001C1,false,Rx,0,8,9F,5C,A4,42,BA,A3,46,0A,
861505,000001C2,false,Rx,0,8,C9,5C,A4,45,5A,A4,3C,0A,
861717,000001C5,false,Rx,0,8,82,3C,A4,43,CA,A3,45,0A,
861925,000001C6,false,Rx,0,8,66,5C,A4,45,5A,A4,3D,0A,
862150,000000BB,false,Rx,0,8,4E,F5,FF,D1,95,2B,00,18,
862363,0000015B,false,Rx,0,8,54,56,00,03,00,00,00,00,
862578,000001CA,false,Rx,0,8,CC,3C,A4,43,3A,A4,3C,0A,
862789,000001CD,false,Rx,0,8,47,6C,A4,46,DA,A3,45,0A,
862998,000001CE,false,Rx,0,8,84,7C,A4,45,5A,A4,3F,0A,
863380,18FED007,true,Rx,0,6,00,03,A0,AB,9F,AB,00,00,
863596,18FED008,true,Rx,0,7,7E,AB,0B,80,F6,FE,00,00,
863806,18FED009,true,Rx,0,7,00,00,00,00,00,00,00,00,
864189,18FED00A,true,Rx,0,8,00,00,30,1E,00,41,00,00,
867877,000000BA,false,Rx,0,8,69,47,29,00,00,00,00,2D,
872089,000000BB,false,Rx,0,8,3B,F6,FF,D1,B5,2B,00,1A,
872300,0000015B,false,Rx,0,8,4F,57,00,03,00,00,00,00,
872515,18FED007,true,Rx,0,6,00,03,A0,AB,AA,AB,00,00,
872898,18FED008,true,Rx,0,7,7E,AB,0B,80,F6,FE,00,00,
873112,18FED009,true,Rx,0,7,00,00,00,00,00,00,00,00,
877891,000000BA,false,Rx,0,8,B9,48,29,00,00,00,00,3E,
882136,000000BB,false,Rx,0,8,95,F7,FF,D5,B5,2B,00,1C,
882352,0000015B,false,Rx,0,8,65,58,00,03,00,00,00,00,
882563,000001BC,false,Rx,0,8,62,3D,A4,44,3A,A4,45,EA,
882773,000001B0,false,Rx,0,8,03,8D,A4,48,9A,A4,48,EA,
882983,000001B4,false,Rx,0,8,C0,7D,A4,48,8A,A4,48,EA,
883193,000001B8,false,Rx,0,8,EE,AD,A4,4A,AA,A4,49,EA,
883405,000001C0,false,Rx,0,8,9B,7D,A4,47,8A,A4,46,EA,
883622,000001C4,false,Rx,0,8,ED,9D,A4,49,9A,A4,49,EA,
883832,000001C8,false,Rx,0,8,79,8D,A4,46,6A,A4,47,EA,
884212,000001CC,false,Rx,0,8,4C,7D,A4,49,8A,A4,47,EA,
884424,18FED007,true,Rx,0,6,00,03,AB,AB,AA,AB,00,00,
884640,18FED008,true,Rx,0,7,7E,AB,17,80,F6,FE,00,00,
884850,18FED009,true,Rx,0,7,00,00,00,00,00,00,00,00,
887320,000001BD,false,Rx,0,8,7B,3D,A4,44,4A,A4,4A,EA,
887537,000001BE,false,Rx,0,8,FF,AD,A4,49,9A,A4,4A,EA,
887746,000001B1,false,Rx,0,8,CC,8D,A4,48,9A,A4,4C,EA,
888130,000000BA,false,Rx,0,8,B4,49,29,00,00,00,00,2F,
888360,000001B2,false,Rx,0,8,25,CD,A4,4D,BA,A4,4B,EA,
888671,000001B5,false,Rx,0,8,99,7D,A4,47,8A,A4,49,EA,
888676,000001B6,false,Rx,0,8,A4,8D,A4,48,8A,A4,48,EA,
888886,000001B9,false,Rx,0,8,25,AD,A4,49,9A,A4,48,EA,
889096,000001BA,false,Rx,0,8,7C,AD,A4,48,9A,A4,4A,EA,
889307,000001C1,false,Rx,0,8,F9,7D,A4,46,7A,A4,4A,EA,
889696,000001C2,false,Rx,0,8,2D,AD,A4,4A,AA,A4,48,EA,
889904,000001C5,false,Rx,0,8,1D,7D,A4,48,AA,A4,4C,EA,
890114,000001C6,false,Rx,0,8,37,BD,A4,4C,CA,A4,4B,EA,
891754,000001C9,false,Rx,0,8,8F,5D,A4,45,6A,A4,49,EA,
891759,000001CA,false,Rx,0,8,72,9D,A4,49,9A,A4,48,EA,
891764,000001CD,false,Rx,0,8,6B,7D,A4,47,9A,A4,49,EA,
891769,000001CE,false,Rx,0,8,BA,BD,A4,4A,AA,A4,4A,EA,
892161,000000BB,false,Rx,0,8,51,F8,FF,D1,95,2B,00,1E,
892371,0000015B,false,Rx,0,8,66,59,00,03,00,00,00,00,
892587,18FED007,true,Rx,0,6,00,03,A0,AB,9F,AB,00,00,
892796,18FED008,true,Rx,0,7,7E,AB,0B,80,F6,FE,00,00,
893179,18FED009,true,Rx,0,7,00,00,00,00,00,00,00,00,
897759,000000BA,false,Rx,0,8,85,4A,29,00,00,00,00,21,
902138,000000BB,false,Rx,0,8,86,E9,FF,D1,B5,2B,00,02,
902348,0000015B,false,Rx,0,8,73,5A,00,03,00,00,00,00,
902565,18FED007,true,Rx,0,6,00,03,A0,AB,AA,AB,00,00,
902775,18FED008,true,Rx,0,7,7E,AB,0B,80,F6,FE,00,00,
903157,18FED009,true,Rx,0,7,00,00,00,00,00,00,00,00,
907832,000000BA,false,Rx,0,8,6F,4B,29,00,00,00,00,30,
912163,000000BB,false,Rx,0,8,B9,EA,FF,D1,95,2B,00,00,
912374,0000015B,false,Rx,0,8,8C,5B,00,03,00,00,00,00,
912590,18FED007,true,Rx,0,6,00,03,A0,AB,9F,AB,00,00,
912800,18FED008,true,Rx,0,7,7E,AB,0B,80,F6,FE,00,00,
913183,18FED009,true,Rx,0,7,00,00,00,00,00,00,00,00,
914436,000001BC,false,Rx,0,8,CF,2E,A4,43,3A,A4,45,0A,
914653,000001C8,false,Rx,0,8,F5,6E,A4,46,5A,A4,46,0A,
914862,000001C4,false,Rx,0,8,27,3E,A4,45,5A,A4,43,0A,
915247,000001B0,false,Rx,0,8,F3,2E,A4,43,2A,A4,42,0A,
915464,000001B4,false,Rx,0,8,EA,6E,A4,46,6A,A4,47,0A,
915685,000001B8,false,Rx,0,8,2A,5E,A4,45,5A,A4,43,0A,
915902,000001C0,false,Rx,0,8,1C,3E,A4,45,6A,A4,43,0A,
916122,000001CC,false,Rx,0,8,26,5E,A4,46,6A,A4,46,0A,
917761,000000BA,false,Rx,0,8,5B,4C,29,00,00,00,00,22,
919208,000001BD,false,Rx,0,8,AD,5E,A4,43,AA,A3,45,0A,
919419,000001C9,false,Rx,0,8,38,5E,A4,43,BA,A3,43,0A,
919636,000001BE,false,Rx,0,8,DC,5E,A4,43,3A,A4,3D,0A,
919846,000001B1,false,Rx,0,8,B6,2E,A4,42,AA,A3,46,0A,
920055,000001B2,false,Rx,0,8,54,6E,A4,47,6A,A4,3F,0A,
920439,000001B5,false,Rx,0,8,EE,7E,A4,46,FA,A3,47,0A,
920653,000001B6,false,Rx,0,8,29,7E,A4,46,6A,A4,40,0A,
920863,000001B9,false,Rx,0,8,F6,5E,A4,42,BA,A3,48,0A,
921073,000001BA,false,Rx,0,8,55,AE,A4,47,7A,A4,42,0A,
921284,000001C1,false,Rx,0,8,58,5E,A4,42,BA,A3,46,0A,
921500,000001C2,false,Rx,0,8,9D,5E,A4,45,5A,A4,3C,0A,
921710,000001C5,false,Rx,0,8,EB,3E,A4,43,CA,A3,45,0A,
921920,000001C6,false,Rx,0,8,94,5E,A4,45,5A,A4,3D,0A,
922130,000000BB,false,Rx,0,8,48,EB,FF,D1,95,2B,00,04,
922342,0000015B,false,Rx,0,8,B3,5C,00,03,00,00,00,00,
922558,000001CA,false,Rx,0,8,95,3E,A4,43,3A,A4,3C,0A,
922940,000001CD,false,Rx,0,8,0A,6E,A4,46,DA,A3,45,0A,
923150,000001CE,false,Rx,0,8,27,7E,A4,45,5A,A4,3F,0A,
923366,18FED007,true,Rx,0,6,00,03,A0,AB,9F,AB,00,00,
923582,18FED008,true,Rx,0,7,7E,AB,0B,80,F6,FE,00,00,
923792,18FED009,true,Rx,0,7,00,00,00,00,00,00,00,00,
927826,000000BA,false,Rx,0,8,F8,4D,29,00,00,00,00,23,
932045,000000BB,false,Rx,0,8,CD,EC,FF,D5,B5,2B,00,06,
932270,0000015B,false,Rx,0,8,F9,5D,00,03,00,00,00,00,
932659,18FED007,true,Rx,0,6,00,03,AB,AB,AA,AB,00,00,
932869,18FED008,true,Rx,0,7,7E,AB,17,80,F6,FE,00,00,
933079,18FED009,true,Rx,0,7,00,00,00,00,00,00,00,00,
937809,000000BA,false,Rx,0,8,53,4E,29,00,00,00,00,34,
942091,000000BB,false,Rx,0,8,8F,ED,FF,D1,95,2B,00,08,
942304,0000015B,false,Rx,0,8,2E,5E,00,03,00,00,00,00,
942520,000001BC,false,Rx,0,8,11,3F,A4,44,3A,A4,45,4A,
942729,000001B0,false,Rx,0,8,35,8F,A4,48,9A,A4,48,4A,
943111,000001B4,false,Rx,0,8,CA,8F,A4,49,8A,A4,48,4A,
943323,000001B8,false,Rx,0,8,05,AF,A4,4A,AA,A4,49,4A,
943540,000001C0,false,Rx,0,8,3A,7F,A4,48,8A,A4,46,4A,
943753,000001C4,false,Rx,0,8,23,9F,A4,49,9A,A4,49,4A,
943977,000001C8,false,Rx,0,8,94,8F,A4,47,6A,A4,47,4A,
944186,000001CC,false,Rx,0,8,9E,7F,A4,48,8A,A4,48,4A,
944398,18FED007,true,Rx,0,6,00,03,A0,AB,9F,AB,00,00,
944614,18FED008,true,Rx,0,7,7E,AB,0B,80,F6,FE,00,00,
944996,18FED009,true,Rx,0,7,00,00,00,00,00,00,00,00,
947289,000001BD,false,Rx,0,8,03,3F,A4,43,4A,A4,4A,4A,
947500,000001BE,false,Rx,0,8,8F,AF,A4,49,8A,A4,49,4A,
947710,000001B1,false,Rx,0,8,FA,8F,A4,48,9A,A4,4B,4A,
948092,000000BA,false,Rx,0,8,FA,4F,29,00,00,00,00,25,
948304,000001B2,false,Rx,0,8,4E,CF,A4,4D,CA,A4,4B,4A,
948520,000001B5,false,Rx,0,8,67,8F,A4,48,8A,A4,48,4A,
948729,000001B6,false,Rx,0,8,0B,7F,A4,48,8A,A4,48,4A,
948939,000001B9,false,Rx,0,8,96,AF,A4,49,9A,A4,48,4A,
949148,000001BA,false,Rx,0,8,99,BF,A4,48,9A,A4,49,4A,
949359,000001C1,false,Rx,0,8,05,7F,A4,46,7A,A4,4A,4A,
949576,000001C2,false,Rx,0,8,B0,AF,A4,49,AA,A4,48,4A,
949786,000001C5,false,Rx,0,8,48,8F,A4,48,AA,A4,4C,4A,
949995,000001C6,false,Rx,0,8,FC,CF,A4,4C,CA,A4,4C,4A,
950205,000001C9,false,Rx,0,8,28,5F,A4,46,6A,A4,4A,4A,
950595,000001CA,false,Rx,0,8,FA,9F,A4,49,9A,A4,49,4A,
952179,000001CD,false,Rx,0,8,28,7F,A4,47,9A,A4,49,4A,
952184,000001CE,false,Rx,0,8,68,AF,A4,4A,AA,A4,4A,4A,
952189,000000BB,false,Rx,0,8,81,EE,FF,D1,95,2B,00,0A,
952412,0000015B,false,Rx,0,8,45,5F,00,03,00,00,00,00,
952628,18FED007,true,Rx,0,6,00,03,A0,AB,9F,AB,00,00,
952838,18FED008,true,Rx,0,7,7E,AB,0B,80,F6,FE,00,00,
953048,18FED009,true,Rx,0,7,00,00,00,00,00,00,00,00,
957794,000000BA,false,Rx,0,8,E9,40,29,00,00,00,00,26,
960967,18FED003,true,Rx,0,6,00,00,00,00,00,00,00,00,
961187,18FED004,true,Rx,0,3,00,00,00,00,00,00,00,00,
961408,1A55545F,true,Rx,0,8,80,20,20,5A,41,15,00,00,
962161,000000BB,false,Rx,0,8,C3,EF,FF,D1,95,2B,00,0C,
962393,0000015B,false,Rx,0,8,BA,50,00,03,00,00,00,00,
962609,18FED007,true,Rx,0,6,00,03,A0,AB,9F,AB,00,00,
962819,18FED008,true,Rx,0,7,7E,AB,00,80,F6,FE,00,00,
963040,18FED009,true,Rx,0,7,00,00,00,00,00,00,00,00,
963494,18FED00A,true,Rx,0,8,00,00,30,1E,00,41,00,00,
967874,000000BA,false,Rx,0,8,67,41,29,00,00,00,00,30,
968952,1A55540A,true,Rx,0,8,00,00,00,00,00,00,00,00,
969162,1A55540B,true,Rx,0,8,00,00,00,00,FE,FE,FE,FE,
969552,1A55540C,true,Rx,0,8,00,00,00,00,00,00,00,00,
969761,1A55540D,true,Rx,0,8,00,00,00,00,FE,FE,FE,FE,
970144,1A555410,true,Rx,0,8,00,00,00,00,00,00,00,00,
970356,1A555411,true,Rx,0,8,00,00,00,00,FE,FE,FE,FE,
970744,1A555412,true,Rx,0,8,00,00,00,00,00,00,00,00,
972361,1A555413,true,Rx,0,8,00,00,00,00,FE,FE,FE,FE,
972366,1A555414,true,Rx,0,8,00,00,00,00,00,00,00,00,
972371,1A555415,true,Rx,0,8,00,00,00,00,FE,FE,FE,FE,
972376,1A555416,true,Rx,0,8,00,00,00,00,00,00,00,00,
972381,000000BB,false,Rx,0,8,4A,E0,FF,D1,95,2B,00,00,
972386,0000015B,false,Rx,0,8,14,51,00,03,00,00,00,00,
972612,18FED007,true,Rx,0,6,00,03,A0,AB,9F,AB,00,00,
972994,18FED008,true,Rx,0,7,7E,AB,0B,80,F6,FE,00,00,
973204,18FED009,true,Rx,0,7,00,00,00,00,00,00,00,00,
973416,1A555417,true,Rx,0,8,00,00,00,00,FE,FE,FE,FE,
973805,1A555418,true,Rx,0,8,00,00,00,00,00,00,00,00,
974188,1A555419,true,Rx,0,8,00,00,00,00,FE,FE,FE,FE,
974411,000001BC,false,Rx,0,8,15,20,A4,43,3A,A4,45,0A,
974635,1A55541A,true,Rx,0,8,FE,FE,FE,FE,FE,FE,FE,FE,
974845,000001B0,false,Rx,0,8,54,20,A4,43,2A,A4,42,0A,
975055,000001B4,false,Rx,0,8,3C,60,A4,47,6A,A4,47,0A,
975268,000001B8,false,Rx,0,8,18,50,A4,45,5A,A4,43,0A,
975483,000001C0,false,Rx,0,8,F4,30,A4,45,6A,A4,43,0A,
975693,000001C4,false,Rx,0,8,8A,30,A4,45,5A,A4,43,0A,
975903,000001C8,false,Rx,0,8,C8,60,A4,46,5A,A4,46,0A,
976287,000001CC,false,Rx,0,8,8B,50,A4,46,6A,A4,46,0A,
976504,1A55541B,true,Rx,0,8,FE,FE,FE,FE,FE,FE,FE,FE,
976886,1A55541E,true,Rx,0,8,00,00,00,00,00,00,00,00,
977096,1A55541F,true,Rx,0,8,00,00,00,00,FE,FE,FE,FE,
977309,1BFFDA19,true,Rx,0,2,00,00,00,00,00,00,00,00,
977525,1BFFDA1A,true,Rx,0,2,00,08,00,00,00,00,00,00,
977906,000000BA,false,Rx,0,8,99,42,29,00,00,00,00,27,
978813,000001C1,false,Rx,0,8,1F,50,A4,42,BA,A3,46,0A,
979023,000001BD,false,Rx,0,8,69,50,A4,45,AA,A3,45,0A,
979234,000001BE,false,Rx,0,8,8E,50,A4,43,3A,A4,3D,0A,
979450,000001C2,false,Rx,0,8,19,50,A4,45,5A,A4,3C,0A,
979660,000001B1,false,Rx,0,8,12,20,A4,42,AA,A3,46,0A,
979869,000001B2,false,Rx,0,8,11,60,A4,47,6A,A4,3F,0A,
980079,000001B5,false,Rx,0,8,5C,70,A4,46,FA,A3,47,0A,
980295,000001B6,false,Rx,0,8,B7,70,A4,46,6A,A4,3F,0A,
980506,000001B9,false,Rx,0,8,0E,50,A4,42,BA,A3,48,0A,
980716,000001BA,false,Rx,0,8,32,A0,A4,47,7A,A4,42,0A,
981099,000001C5,false,Rx,0,8,32,30,A4,43,CA,A3,45,0A,
981309,000001C6,false,Rx,0,8,99,50,A4,45,5A,A4,3D,0A,
981526,000001C9,false,Rx,0,8,F0,50,A4,43,BA,A3,43,0A,
981735,000001CA,false,Rx,0,8,79,30,A4,43,3A,A4,3C,0A,
981944,000001CD,false,Rx,0,8,B2,60,A4,46,DA,A3,45,0A,
982154,000000BB,false,Rx,0,8,EC,E1,FF,D1,95,2B,00,0E,
982369,0000015B,false,Rx,0,8,1A,52,00,03,00,00,00,00,
982602,000001CE,false,Rx,0,8,40,70,A4,45,5A,A4,3F,0A,
982827,18FED002,true,Rx,0,3,C0,00,10,00,00,00,00,00,
983058,18FED007,true,Rx,0,6,00,03,A0,AB,9F,AB,00,00,
983269,18FED008,true,Rx,0,7,7E,AB,0B,80,F6,FE,00,00,
983657,18FED009,true,Rx,0,7,00,00,00,00,00,00,00,00,
987865,000000BA,false,Rx,0,8,09,43,29,00,00,00,00,28,
992358,000000BB,false,Rx,0,8,20,F2,FF,D1,95,2B,00,10,
992363,0000015B,false,Rx,0,8,2B,53,00,03,00,00,00,00,
992589,18FED007,true,Rx,0,6,00,03,A0,AB,9F,AB,00,00,
992798,18FED008,true,Rx,0,7,7E,AB,0B,80,F6,FE,00,00,
993181,18FED009,true,Rx,0,7,00,00,00,00,00,00,00,00,
997927,000000BA,false,Rx,0,8,EC,44,29,00,00,00,00,39,
1002029,000000BB,false,Rx,0,8,19,F3,FF,D1,95,2B,00,12,
1002417,0000015B,false,Rx,0,8,8D,54,00,03,00,00,00,00,
1002632,000001BC,false,Rx,0,8,DE,31,A4,43,4A,A4,44,9A,
1002842,000001B0,false,Rx,0,8,C7,81,A4,48,8A,A4,48,9A,
1003052,000001B4,false,Rx,0,8,10,81,A4,48,8A,A4,47,9A,
1003263,000001B8,false,Rx,0,8,C1,A1,A4,4A,AA,A4,49,9A,
1003479,000001C0,false,Rx,0,8,52,71,A4,48,8A,A4,46,9A,
1003689,000001C4,false,Rx,0,8,69,91,A4,49,9A,A4,49,9A,
1003899,000001C8,false,Rx,0,8,E4,81,A4,47,6A,A4,47,9A,
1004109,000001CC,false,Rx,0,8,17,71,A4,48,8A,A4,48,9A,
1004319,18FED007,true,Rx,0,6,00,03,A0,AB,9F,AB,00,00,
1004707,18FED008,true,Rx,0,7,7E,AB,0B,80,F6,FE,00,00,
1004917,18FED009,true,Rx,0,7,00,00,00,00,00,00,00,00,
1007385,000001BD,false,Rx,0,8,BA,31,A4,43,4A,A4,4A,9A,
1007595,000001BE,false,Rx,0,8,08,A1,A4,49,9A,A4,49,9A,
1007805,000001B1,false,Rx,0,8,FB,81,A4,48,9A,A4,4B,9A,
1008015,000000BA,false,Rx,0,8,96,45,29,00,00,00,00,2A,
1008226,000001B2,false,Rx,0,8,0D,C1,A4,4C,BA,A4,4A,9A,
1008438,000001B5,false,Rx,0,8,CA,81,A4,47,9A,A4,48,9A,
1008654,000001B6,false,Rx,0,8,51,81,A4,48,8A,A4,48,9A,
1008864,000001B9,false,Rx,0,8,70,A1,A4,49,9A,A4,48,9A,
1009074,000001BA,false,Rx,0,8,C1,A1,A4,48,9A,A4,49,9A,
1009463,000001C1,false,Rx,0,8,FC,71,A4,45,7A,A4,4A,9A,
1009673,000001C2,false,Rx,0,8,16,91,A4,4A,9A,A4,48,9A,
1009883,000001C5,false,Rx,0,8,84,81,A4,48,AA,A4,4C,9A,
1010093,000001C6,false,Rx,0,8,C4,C1,A4,4C,CA,A4,4C,9A,
1010305,000001C9,false,Rx,0,8,C7,51,A4,46,6A,A4,4A,9A,
1010522,000001CA,false,Rx,0,8,37,91,A4,49,9A,A4,49,9A,
1010731,000001CD,false,Rx,0,8,51,71,A4,47,9A,A4,49,9A,
1010940,000001CE,false,Rx,0,8,44,A1,A4,4A,AA,A4,4A,9A,
1012512,000000BB,false,Rx,0,8,41,F4,FF,D1,95,2B,00,14,
1012517,0000015B,false,Rx,0,8,04,55,00,03,00,00,00,00,
1012522,18FED007,true,Rx,0,6,00,03,A0,AB,9F,AB,00,00,
1012915,18FED008,true,Rx,0,7,7E,AB,0B,80,F6,FE,00,00,
1013125,18FED009,true,Rx,0,7,00,00,00,00,00,00,00,00,
1017876,000000BA,false,Rx,0,8,68,46,29,00,00,00,00,2B,
1022096,000000BB,false,Rx,0,8,41,E5,FF,D1,95,2B,00,16,
1022310,0000015B,false,Rx,0,8,54,56,00,03,00,00,00,00,
1022526,18FED007,true,Rx,0,6,00,03,A0,AB,9F,AB,00,00,
1022909,18FED008,true,Rx,0,7,7E,AB,0B,80,F6,FE,00,00,
1023119,18FED009,true,Rx,0,7,00,00,00,00,00,00,00,00,
1027806,000000BA,false,Rx,0,8,F5,47,29,00,00,00,00,30,
1030799,18FED005,true,Rx,0,2,00,00,00,00,00,00,00,00,
1032582,000000BB,false,Rx,0,8,59,E6,FF,D1,95,2B,00,00,
1032587,0000015B,false,Rx,0,8,4F,57,00,03,00,00,00,00,
1032592,18FED007,true,Rx,0,6,00,03,A0,AB,9F,AB,00,00,
1032813,18FED008,true,Rx,0,7,7E,AB,0B,80,F6,FE,00,00,
1033210,18FED009,true,Rx,0,7,00,00,00,00,00,00,00,00,
1034472,000001BC,false,Rx,0,8,76,22,A4,43,3A,A4,45,0A,
1034683,000001C8,false,Rx,0,8,19,62,A4,46,5A,A4,46,0A,
1034892,000001C4,false,Rx,0,8,14,32,A4,45,5A,A4,43,0A,
1035102,000001B0,false,Rx,0,8,EC,22,A4,43,2A,A4,42,0A,
1035313,000001B4,false,Rx,0,8,AB,62,A4,47,6A,A4,47,0A,
1035530,000001B8,false,Rx,0,8,33,52,A4,45,5A,A4,43,0A,
1035912,000001C0,false,Rx,0,8,29,32,A4,45,6A,A4,43,0A,
1036122,000001CC,false,Rx,0,8,C7,52,A4,46,6A,A4,46,0A,
1037897,000000BA,false,Rx,0,8,61,48,29,00,00,00,00,2C,
1039323,000001BD,false,Rx,0,8,24,52,A4,45,AA,A3,45,0A,
1039539,000001C9,false,Rx,0,8,06,52,A4,43,BA,A3,43,0A,
1039748,000001B1,false,Rx,0,8,76,22,A4,42,AA,A3,46,0A,
1039957,000001B5,false,Rx,0,8,55,72,A4,46,FA,A3,47,0A,
1040167,000001B2,false,Rx,0,8,E6,62,A4,47,6A,A4,3F,0A,
1040380,000001B6,false,Rx,0,8,45,72,A4,46,6A,A4,40,0A,
1040596,000001B9,false,Rx,0,8,3D,52,A4,42,BA,A3,48,0A,
1040806,000001BA,false,Rx,0,8,52,A2,A4,47,7A,A4,42,0A,
1041016,000001BE,false,Rx,0,8,D3,52,A4,43,3A,A4,3D,0A,
1041227,000001C1,false,Rx,0,8,A0,52,A4,42,BA,A3,46,0A,
1041437,000001C2,false,Rx,0,8,99,52,A4,45,5A,A4,3C,0A,
1041653,000001C5,false,Rx,0,8,06,32,A4,43,CA,A3,45,0A,
1041863,000001C6,false,Rx,0,8,56,52,A4,45,5A,A4,3D,0A,
1042247,000000BB,false,Rx,0,8,00,E7,FF,D1,95,2B,00,18,
1042464,0000015B,false,Rx,0,8,65,58,00,03,00,00,00,00,
1042673,000001CA,false,Rx,0,8,31,32,A4,43,3A,A4,3C,0A,
1042883,000001CD,false,Rx,0,8,41,62,A4,46,DA,A3,45,0A,
1043093,000001CE,false,Rx,0,8,12,72,A4,45,5A,A4,3F,0A,
1043305,18FED007,true,Rx,0,6,00,03,A0,AB,9F,AB,00,00,
1043520,18FED008,true,Rx,0,7,7E,AB,0B,80,F6,FE,00,00,
1043902,18FED009,true,Rx,0,7,00,00,00,00,00,00,00,00,
1047852,000000BA,false,Rx,0,8,49,49,29,00,00,00,00,2D,
1052548,000000BB,false,Rx,0,8,26,E8,FF,D1,95,2B,00,1A,
1052553,0000015B,false,Rx,0,8,66,59,00,03,00,00,00,00,
1052558,18FED007,true,Rx,0,6,00,03,A0,AB,9F,AB,00,00,
1052779,18FED008,true,Rx,0,7,7E,AB,0B,80,F6,FE,00,00,
1053165,18FED009,true,Rx,0,7,00,00,00,00,00,00,00,00,
1057903,000000BA,false,Rx,0,8,E4,4A,29,00,00,00,00,3E,
1062107,000000BB,false,Rx,0,8,93,E9,FF,D1,95,2B,00,1C,
1062321,0000015B,false,Rx,0,8,73,5A,00,03,00,00,00,00,
1062538,000001BC,false,Rx,0,8,1D,43,A4,44,4A,A4,44,EA,
1062748,000001B0,false,Rx,0,8,5F,83,A4,48,9A,A4,48,EA,
1062958,000001B4,false,Rx,0,8,F8,83,A4,48,8A,A4,48,EA,
1063342,000001B8,false,Rx,0,8,D4,A3,A4,49,AA,A4,49,EA,
1063560,000001C0,false,Rx,0,8,90,73,A4,47,8A,A4,46,EA,
1063775,000001C4,false,Rx,0,8,FF,83,A4,49,9A,A4,48,EA,
1063996,000001C8,false,Rx,0,8,D3,73,A4,46,6A,A4,46,EA,
1064206,000001CC,false,Rx,0,8,E3,83,A4,48,7A,A4,48,EA,
1064418,18FED007,true,Rx,0,6,00,03,A0,AB,9F,AB,00,00,
1064634,18FED008,true,Rx,0,7,7E,AB,0B,80,F6,FE,00,00,
1065015,18FED009,true,Rx,0,7,00,00,00,00,00,00,00,00,
1065225,18FED00A,true,Rx,0,8,00,00,30,1E,00,41,00,00,
1067385,000001BD,false,Rx,0,8,A6,33,A4,43,4A,A4,4A,EA,
1067636,000001BE,false,Rx,0,8,81,A3,A4,49,9A,A4,49,EA,
1067846,000001B1,false,Rx,0,8,1C,93,A4,48,9A,A4,4B,EA,
1068055,000000BA,false,Rx,0,8,0E,4B,29,00,00,00,00,2F,
1068268,000001B2,false,Rx,0,8,57,B3,A4,4D,CA,A4,4B,EA,
1068483,000001B5,false,Rx,0,8,C6,83,A4,47,8A,A4,48,EA,
1068692,000001B6,false,Rx,0,8,62,83,A4,48,8A,A4,49,EA,
1068902,000001B9,false,Rx,0,8,C2,A3,A4,49,9A,A4,48,EA,
1069112,000001BA,false,Rx,0,8,C4,B3,A4,48,8A,A4,49,EA,
1069323,000001C1,false,Rx,0,8,99,63,A4,45,7A,A4,4A,EA,
1069540,000001C2,false,Rx,0,8,BC,93,A4,49,AA,A4,48,EA,
1069750,000001C5,false,Rx,0,8,72,83,A4,48,AA,A4,4C,EA,
1069960,000001C6,false,Rx,0,8,E9,C3,A4,4B,CA,A4,4C,EA,
1070344,000001C9,false,Rx,0,8,FD,53,A4,46,6A,A4,49,EA,
1070560,000001CA,false,Rx,0,8,38,93,A4,49,9A,A4,49,EA,
1070770,000001CD,false,Rx,0,8,61,73,A4,47,9A,A4,49,EA,
1070980,000001CE,false,Rx,0,8,DC,B3,A4,4A,AA,A4,4A,EA,
1072552,000000BB,false,Rx,0,8,31,EA,FF,D1,95,2B,00,1E,
1072557,0000015B,false,Rx,0,8,8C,5B,00,03,00,00,00,00,
1072562,18FED007,true,Rx,0,6,00,03,A0,AB,9F,AB,00,00,
1072782,18FED008,true,Rx,0,7,7E,AB,0B,80,F6,FE,00,00,
1073165,18FED009,true,Rx,0,7,00,00,00,00,00,00,00,00,
1077923,000000BA,false,Rx,0,8,4F,4C,29,00,00,00,00,21,
1082128,000000BB,false,Rx,0,8,60,EB,FF,D1,95,2B,00,02,
1082338,0000015B,false,Rx,0,8,B3,5C,00,03,00,00,00,00,
1082555,18FED007,true,Rx,0,6,00,03,A0,AB,9F,AB,00,00,
1082937,18FED008,true,Rx,0,7,7E,AB,0B,80,F6,FE,00,00,
1083147,18FED009,true,Rx,0,7,00,00,00,00,00,00,00,00,
1087875,000000BA,false,Rx,0,8,C9,4D,29,00,00,00,00,30,
1092410,000000BB,false,Rx,0,8,07,EC,FF,D1,95,2B,00,00,
1092415,0000015B,false,Rx,0,8,F9,5D,00,03,00,00,00,00,
1092640,18FED007,true,Rx,0,6,00,03,A0,AB,9F,AB,00,00,
1092848,18FED008,true,Rx,0,7,7E,AB,0B,80,F6,FE,00,00,
1093058,18FED009,true,Rx,0,7,00,00,00,00,00,00,00,00,
1094661,000001C8,false,Rx,0,8,AE,64,A4,46,5A,A4,46,0A,
1094871,000001B0,false,Rx,0,8,27,24,A4,43,2A,A4,42,0A,
1095255,000001BC,false,Rx,0,8,49,24,A4,43,3A,A4,45,0A,
1095469,000001B8,false,Rx,0,8,24,54,A4,45,5A,A4,43,0A,
1095679,000001C0,false,Rx,0,8,1F,34,A4,45,6A,A4,43,0A,
1095888,000001B4,false,Rx,0,8,6E,64,A4,47,6A,A4,47,0A,
1096098,000001C4,false,Rx,0,8,6E,34,A4,45,5A,A4,43,0A,
1096309,000001CC,false,Rx,0,8,99,54,A4,46,6A,A4,46,0A,
1097927,000000BA,false,Rx,0,8,5E,4E,29,00,00,00,00,22,
1099176,000001C9,false,Rx,0,8,46,54,A4,43,BA,A3,43,0A,
1099389,000001C5,false,Rx,0,8,AD,34,A4,43,CA,A3,45,0A,
1099600,000001C1,false,Rx,0,8,92,54,A4,42,BA,A3,46,0A,
1099809,000001B1,false,Rx,0,8,BD,24,A4,42,AA,A3,46,0A,
1100018,000001B2,false,Rx,0,8,DC,64,A4,47,6A,A4,3F,0A,
1100228,000001B5,false,Rx,0,8,73,74,A4,46,FA,A3,47,0A,
1100439,000001B6,false,Rx,0,8,F2,74,A4,46,6A,A4,40,0A,
1100655,000001B9,false,Rx,0,8,42,54,A4,43,BA,A3,48,0A,
1100864,000001BA,false,Rx,0,8,8E,A4,A4,47,7A,A4,42,0A,
1101074,000001BD,false,Rx,0,8,7D,54,A4,45,AA,A3,45,0A,
1101285,000001BE,false,Rx,0,8,C0,54,A4,43,3A,A4,3D,0A,
1101673,000001C2,false,Rx,0,8,2C,54,A4,45,5A,A4,3C,0A,
1101881,000001C6,false,Rx,0,8,DF,54,A4,45,5A,A4,3D,0A,
1102091,000001CA,false,Rx,0,8,12,34,A4,43,3A,A4,3C,0A,
1102304,000000BB,false,Rx,0,8,DF,ED,FF,D1,95,2B,00,04,
1102520,0000015B,false,Rx,0,8,2E,5E,00,03,00,00,00,00,
1102729,000001CD,false,Rx,0,8,29,64,A4,46,DA,A3,46,0A,
1102939,000001CE,false,Rx,0,8,78,74,A4,45,5A,A4,3F,0A,
1103148,18FED007,true,Rx,0,6,00,03,A0,AB,9F,AB,00,00,
1103539,18FED008,true,Rx,0,7,7E,AB,0B,80,F6,FE,00,00,
1103748,18FED009,true,Rx,0,7,00,00,00,00,00,00,00,00,
1107777,000000BA,false,Rx,0,8,D2,4F,29,00,00,00,00,23,
1112461,000000BB,false,Rx,0,8,D1,EE,FF,D1,95,2B,00,06,
1112466,0000015B,false,Rx,0,8,45,5F,00,03,00,00,00,00,
1112686,18FED007,true,Rx,0,6,00,03,A0,AB,9F,AB,00,00,
1112897,18FED008,true,Rx,0,7,7E,AB,0B,80,F6,FE,00,00,
1113112,18FED009,true,Rx,0,7,00,00,00,00,00,00,00,00,
1117777,000000BA,false,Rx,0,8,31,40,29,00,00,00,00,34,
1122182,000000BB,false,Rx,0,8,16,EF,FF,D1,95,2B,00,08,
1122395,0000015B,false,Rx,0,8,BA,50,00,03,00,00,00,00,
1122610,000001BC,false,Rx,0,8,DA,35,A4,43,3A,A4,44,4A,
1122820,000001B0,false,Rx,0,8,CA,85,A4,48,8A,A4,48,4A,
1123043,000001B4,false,Rx,0,8,9D,75,A4,48,8A,A4,48,4A,
1123260,000001B8,false,Rx,0,8,AD,A5,A4,4A,AA,A4,49,4A,
1123487,000001C0,false,Rx,0,8,DC,75,A4,48,8A,A4,46,4A,
1123697,000001C4,false,Rx,0,8,18,95,A4,49,9A,A4,48,4A,
1123908,000001C8,false,Rx,0,8,FE,75,A4,47,6A,A4,47,4A,
1124118,000001CC,false,Rx,0,8,1B,75,A4,48,8A,A4,47,4A,
1124329,18FED007,true,Rx,0,6,00,03,A0,AB,9F,AB,00,00,
1124718,18FED008,true,Rx,0,7,7E,AB,0B,80,F6,FE,00,00,
1124926,18FED009,true,Rx,0,7,00,00,00,00,00,00,00,00,
1127395,000001BD,false,Rx,0,8,46,35,A4,44,4A,A4,4A,4A,
1127606,000001BE,false,Rx,0,8,75,A5,A4,49,9A,A4,49,4A,
1127816,000001B1,false,Rx,0,8,09,95,A4,49,8A,A4,4B,4A,
1128026,000000BA,false,Rx,0,8,7E,41,29,00,00,00,00,25,
1128237,000001B2,false,Rx,0,8,8C,C5,A4,4D,BA,A4,4A,4A,
1128453,000001B5,false,Rx,0,8,96,85,A4,47,9A,A4,48,4A,
1128664,000001B6,false,Rx,0,8,44,85,A4,48,8A,A4,48,4A,
1128874,000001B9,false,Rx,0,8,FC,A5,A4,49,9A,A4,48,4A,
1129083,000001BA,false,Rx,0,8,43,A5,A4,48,9A,A4,49,4A,
1129295,000001C1,false,Rx,0,8,C3,65,A4,45,7A,A4,4A,4A,
1129511,000001C2,false,Rx,0,8,A5,95,A4,4A,AA,A4,48,4A,
1129721,000001C5,false,Rx,0,8,F0,85,A4,48,AA,A4,4C,4A,
1130105,000001C6,false,Rx,0,8,64,C5,A4,4C,CA,A4,4C,4A,
1130317,000001C9,false,Rx,0,8,96,65,A4,46,7A,A4,49,4A,
1130549,000001CA,false,Rx,0,8,34,95,A4,49,9A,A4,49,4A,
1130758,000001CD,false,Rx,0,8,A3,65,A4,47,9A,A4,4A,4A,
1130968,000001CE,false,Rx,0,8,B7,A5,A4,4A,AA,A4,4A,4A,
1132802,000000BB,false,Rx,0,8,32,E0,FF,D1,95,2B,00,0A,
1132807,0000015B,false,Rx,0,8,14,51,00,03,00,00,00,00,
1132812,18FED007,true,Rx,0,6,00,03,A0,AB,9F,AB,00,00,
1132817,18FED008,true,Rx,0,7,7E,AB,0B,80,F6,FE,00,00,
1133222,18FED009,true,Rx,0,7,00,00,00,00,00,00,00,00,
1137809,000000BA,false,Rx,0,8,70,42,29,00,00,00,00,26,
1142202,000000BB,false,Rx,0,8,F3,E1,FF,D5,B5,2B,00,0C,
1142434,0000015B,false,Rx,0,8,1A,52,00,03,00,00,00,00,
1142679,18FED007,true,Rx,0,6,00,03,AB,AB,B6,AB,00,00,
1142901,18FED008,true,Rx,0,7,7E,AB,17,80,F6,FE,00,00,
1143111,18FED009,true,Rx,0,7,00,00,00,00,00,00,00,00,
1147842,000000BA,false,Rx,0,8,A9,43,29,00,00,00,00,30,
1152861,000000BB,false,Rx,0,8,A7,E2,FF,D1,95,2B,00,00,
1152866,0000015B,false,Rx,0,8,2B,53,00,03,00,00,00,00,
1152871,18FED007,true,Rx,0,6,00,03,A0,AB,9F,AB,00,00,
1152876,18FED008,true,Rx,0,7,7E,AB,0B,80,F6,FE,00,00,
1153097,18FED009,true,Rx,0,7,00,00,00,00,00,00,00,00,
1154530,000001BC,false,Rx,0,8,D0,26,A4,43,3A,A4,45,0A,
1154740,000001C8,false,Rx,0,8,30,66,A4,46,5A,A4,46,0A,
1154949,000001B0,false,Rx,0,8,C2,26,A4,43,2A,A4,42,0A,
1155159,000001B4,false,Rx,0,8,8D,66,A4,47,6A,A4,47,0A,
1155381,000001B8,false,Rx,0,8,79,56,A4,45,5A,A4,43,0A,
1155603,000001C0,false,Rx,0,8,DE,36,A4,45,6A,A4,43,0A,
1155813,000001C4,false,Rx,0,8,FA,36,A4,45,5A,A4,43,0A,
1156023,000001CC,false,Rx,0,8,6E,56,A4,46,6A,A4,46,0A,
1157800,000000BA,false,Rx,0,8,64,44,29,00,00,00,00,27,
1159224,000001BD,false,Rx,0,8,F4,56,A4,45,AA,A3,45,0A,
1159436,000001C9,false,Rx,0,8,7B,56,A4,43,BA,A3,43,0A,
1159652,000001BE,false,Rx,0,8,83,56,A4,43,3A,A4,3D,0A,
1159861,000001B1,false,Rx,0,8,41,26,A4,42,AA,A3,46,0A,
1160071,000001B2,false,Rx,0,8,1D,56,A4,47,6A,A4,3F,0A,
1160282,000001B5,false,Rx,0,8,B6,76,A4,46,FA,A3,47,0A,
1160671,000001B6,false,Rx,0,8,58,76,A4,46,6A,A4,40,0A,
1160879,000001B9,false,Rx,0,8,F4,56,A4,43,BA,A3,48,0A,
1161089,000001BA,false,Rx,0,8,36,A6,A4,47,7A,A4,42,0A,
1161300,000001C1,false,Rx,0,8,E7,56,A4,42,BA,A3,46,0A,
1161516,000001C2,false,Rx,0,8,78,56,A4,45,5A,A4,3C,0A,
1161726,000001C5,false,Rx,0,8,25,26,A4,43,CA,A3,45,0A,
1161936,000001C6,false,Rx,0,8,EF,56,A4,45,5A,A4,3D,0A,
1162146,000000BB,false,Rx,0,8,CE,E3,FF,D1,95,2B,00,0E,
1162358,0000015B,false,Rx,0,8,8D,54,00,03,00,00,00,00,
1162575,000001CA,false,Rx,0,8,2F,36,A4,43,3A,A4,3C,0A,
1162956,000001CD,false,Rx,0,8,B9,66,A4,46,DA,A3,46,0A,
1163166,000001CE,false,Rx,0,8,60,76,A4,45,5A,A4,3F,0A,
1163383,18FED007,true,Rx,0,6,00,03,A0,AB,9F,AB,00,00,
1163599,18FED008,true,Rx,0,7,7E,AB,0B,80,F6,FE,00,00,
1163809,18FED009,true,Rx,0,7,00,00,00,00,00,00,00,00,
1164192,18FED00A,true,Rx,0,8,00,00,30,1E,00,41,00,00,
1167882,000000BA,false,Rx,0,8,6B,45,29,00,00,00,00,28,
1173055,000000BB,false,Rx,0,8,09,F4,FF,D1,B5,2B,00,10,
1173060,0000015B,false,Rx,0,8,04,55,00,03,00,00,00,00,
1173065,18FED007,true,Rx,0,6,00,03,A0,AB,AA,AB,00,00,
1173070,18FED008,true,Rx,0,7,7E,AB,0B,80,F6,FE,00,00,
1173075,18FED009,true,Rx,0,7,00,00,00,00,00,00,00,00,
1177855,000000BA,false,Rx,0,8,B0,46,29,00,00,00,00,39,
1182063,000000BB,false,Rx,0,8,36,F5,FF,D1,95,2B,00,12,
1182275,0000015B,false,Rx,0,8,54,56,00,03,00,00,00,00,
1182664,000001BC,false,Rx,0,8,41,37,A4,44,3A,A4,44,9A,
1182874,000001B0,false,Rx,0,8,01,87,A4,48,9A,A4,48,9A,
1183083,000001B4,false,Rx,0,8,C5,77,A4,48,8A,A4,48,9A,
1183294,000001B8,false,Rx,0,8,B1,B7,A4,49,AA,A4,49,9A,
1183510,000001C0,false,Rx,0,8,8F,77,A4,47,8A,A4,46,9A,
1183720,000001C4,false,Rx,0,8,53,97,A4,49,9A,A4,48,9A,
1183930,000001C8,false,Rx,0,8,92,87,A4,47,6A,A4,47,9A,
1184140,000001CC,false,Rx,0,8,5D,77,A4,48,8A,A4,48,9A,
1184352,18FED007,true,Rx,0,6,00,03,A0,AB,9F,AB,00,00,
1184740,18FED008,true,Rx,0,7,7E,AB,0B,80,F6,FE,00,00,
1184950,18FED009,true,Rx,0,7,00,00,00,00,00,00,00,00,
1187420,000001BD,false,Rx,0,8,B5,47,A4,44,4A,A4,4A,9A,
1187636,000001BE,false,Rx,0,8,9C,A7,A4,49,9A,A4,4A,9A,
1187845,000001B1,false,Rx,0,8,E7,87,A4,48,9A,A4,4B,9A,
1188055,000000BA,false,Rx,0,8,A8,47,29,00,00,00,00,2A,
1188266,000001B2,false,Rx,0,8,28,C7,A4,4D,CA,A4,4A,9A,
1188483,000001B5,false,Rx,0,8,5C,87,A4,47,8A,A4,48,9A,
1188692,000001B6,false,Rx,0,8,9F,87,A4,49,9A,A4,48,9A,
1188903,000001B9,false,Rx,0,8,91,A7,A4,49,9A,A4,48,9A,
1189111,000001BA,false,Rx,0,8,6F,A7,A4,48,9A,A4,49,9A,
1189323,000001C1,false,Rx,0,8,97,77,A4,46,7A,A4,4A,9A,
1189540,000001C2,false,Rx,0,8,54,A7,A4,4A,AA,A4,48,9A,
1189758,000001C5,false,Rx,0,8,1A,87,A4,48,AA,A4,4C,9A,
1189985,000001C6,false,Rx,0,8,43,C7,A4,4C,CA,A4,4C,9A,
1190207,000001C9,false,Rx,0,8,C8,67,A4,46,7A,A4,49,9A,
1190461,000001CA,false,Rx,0,8,66,97,A4,49,9A,A4,48,9A,
1190671,000001CD,false,Rx,0,8,49,77,A4,47,9A,A4,4A,9A,
1190881,000001CE,false,Rx,0,8,F9,A7,A4,4A,AA,A4,4A,9A,
1193158,000000BB,false,Rx,0,8,0B,F6,FF,D1,95,2B,00,14,
1193163,0000015B,false,Rx,0,8,4F,57,00,03,00,00,00,00,
1193168,18FED007,true,Rx,0,6,00,03,A0,AB,9F,AB,00,00,
1193173,18FED008,true,Rx,0,7,7E,AB,0B,80,F6,FE,00,00,
1193178,18FED009,true,Rx,0,7,00,00,00,00,00,00,00,00,
1197933,000000BA,false,Rx,0,8,A0,48,29,00,00,00,00,2B,
1202149,000000BB,false,Rx,0,8,4F,E7,FF,D5,B5,2B,00,16,
1202362,0000015B,false,Rx,0,8,65,58,00,03,00,00,00,00,
1202578,18FED007,true,Rx,0,6,00,03,AB,AB,AA,AB,00,00,
1202788,18FED008,true,Rx,0,7,7E,AB,17,80,F6,FE,00,00,
1203169,18FED009,true,Rx,0,7,00,00,00,00,00,00,00,00,
1207909,000000BA,false,Rx,0,8,D5,49,29,00,00,00,00,30,
1213229,000000BB,false,Rx,0,8,7B,E8,FF,D1,95,2B,00,00,
1213235,0000015B,false,Rx,0,8,66,59,00,03,00,00,00,00,
1213240,18FED007,true,Rx,0,6,00,03,A0,AB,9F,AB,00,00,
1213245,18FED008,true,Rx,0,7,7E,AB,0B,80,F6,FE,00,00,
1213250,18FED009,true,Rx,0,7,00,00,00,00,00,00,00,00,
1214539,000001BC,false,Rx,0,8,3B,28,A4,43,3A,A4,45,0A,
1214749,000001C8,false,Rx,0,8,B4,68,A4,46,5A,A4,46,0A,
1214959,000001C4,false,Rx,0,8,D0,38,A4,45,5A,A4,43,0A,
1215169,000001B0,false,Rx,0,8,5D,28,A4,43,2A,A4,42,0A,
1215380,000001B4,false,Rx,0,8,1D,68,A4,47,6A,A4,47,0A,
1215596,000001B8,false,Rx,0,8,E8,58,A4,45,5A,A4,43,0A,
1215806,000001C0,false,Rx,0,8,C6,38,A4,45,6A,A4,43,0A,
1216015,000001CC,false,Rx,0,8,90,58,A4,46,6A,A4,46,0A,
1217793,000000BA,false,Rx,0,8,3C,4A,29,00,00,00,00,2C,
1219232,000001BD,false,Rx,0,8,5E,58,A4,45,AA,A3,45,0A,
1219449,000001C9,false,Rx,0,8,01,58,A4,43,BA,A3,43,0A,
1219659,000001BE,false,Rx,0,8,61,58,A4,45,3A,A4,3D,0A,
1219869,000001B1,false,Rx,0,8,98,28,A4,42,AA,A3,46,0A,
1220079,000001B2,false,Rx,0,8,8B,58,A4,47,6A,A4,3F,0A,
1220291,000001B5,false,Rx,0,8,08,78,A4,46,FA,A3,47,0A,
1220506,000001B6,false,Rx,0,8,39,78,A4,46,6A,A4,40,0A,
1220889,000001B9,false,Rx,0,8,E3,58,A4,43,BA,A3,48,0A,
1221098,000001BA,false,Rx,0,8,E4,A8,A4,47,7A,A4,42,0A,
1221310,000001C1,false,Rx,0,8,33,58,A4,42,BA,A3,46,0A,
1221525,000001C2,false,Rx,0,8,E9,58,A4,45,5A,A4,3C,0A,
1221735,000001C5,false,Rx,0,8,79,28,A4,43,CA,A3,45,0A,
1221945,000001C6,false,Rx,0,8,35,58,A4,45,5A,A4,3D,0A,
1222155,000000BB,false,Rx,0,8,46,E9,FF,D1,95,2B,00,18,
1222366,0000015B,false,Rx,0,8,73,5A,00,03,00,00,00,00,
1222582,000001CA,false,Rx,0,8,6E,38,A4,43,3A,A4,3C,0A,
1222792,000001CD,false,Rx,0,8,46,68,A4,46,DA,A3,45,0A,
1223174,000001CE,false,Rx,0,8,FF,78,A4,45,5A,A4,3F,0A,
1223390,18FED007,true,Rx,0,6,00,03,A0,AB,9F,AB,00,00,
1223606,18FED008,true,Rx,0,7,7E,AB,0B,80,F6,FE,00,00,
1223815,18FED009,true,Rx,0,7,00,00,00,00,00,00,00,00,
1227860,000000BA,false,Rx,0,8,F3,4B,29,00,00,00,00,2D,
1233393,000000BB,false,Rx,0,8,E4,EA,FF,D1,95,2B,00,1A,
1233398,0000015B,false,Rx,0,8,8C,5B,00,03,00,00,00,00,
1233403,18FED007,true,Rx,0,6,00,03,A0,AB,9F,AB,00,00,
1233408,18FED008,true,Rx,0,7,7E,AB,0B,80,F6,FE,00,00,
1233413,18FED009,true,Rx,0,7,00,00,00,00,00,00,00,00,
1237825,000000BA,false,Rx,0,8,2E,4C,29,00,00,00,00,3E,
1242106,000000BB,false,Rx,0,8,E8,EB,FF,D1,95,2B,00,1C,
1242318,0000015B,false,Rx,0,8,B3,5C,00,03,00,00,00,00,
1242533,000001BC,false,Rx,0,8,F2,39,A4,43,3A,A4,44,EA,
1242743,000001B0,false,Rx,0,8,D4,89,A4,48,9A,A4,48,EA,
1242952,000001B4,false,Rx,0,8,0E,79,A4,48,8A,A4,48,EA,
1243337,000001B8,false,Rx,0,8,D3,A9,A4,4A,AA,A4,49,EA,
1243553,000001C0,false,Rx,0,8,99,69,A4,48,8A,A4,46,EA,
1243763,000001C4,false,Rx,0,8,93,99,A4,49,9A,A4,48,EA,
1243973,000001C8,false,Rx,0,8,24,89,A4,47,6A,A4,47,EA,
1244183,000001CC,false,Rx,0,8,C4,79,A4,48,8A,A4,48,EA,
1244394,18FED007,true,Rx,0,6,00,03,A0,AB,9F,AB,00,00,
1244611,18FED008,true,Rx,0,7,7E,AB,0B,80,F6,FE,00,00,
1244992,18FED009,true,Rx,0,7,00,00,00,00,00,00,00,00,
1247287,000001BD,false,Rx,0,8,72,49,A4,44,4A,A4,4A,EA,
1247498,000001BE,false,Rx,0,8,A7,A9,A4,49,9A,A4,49,EA,
1247707,000001B1,false,Rx,0,8,61,89,A4,48,9A,A4,4B,EA,
1248089,000000BA,false,Rx,0,8,A8,4D,29,00,00,00,00,2F,
1248300,000001B2,false,Rx,0,8,1C,B9,A4,4C,BA,A4,4B,EA,
1248516,000001B5,false,Rx,0,8,15,89,A4,48,9A,A4,49,EA,
1248726,000001B6,false,Rx,0,8,8F,89,A4,48,9A,A4,48,EA,
1248935,000001B9,false,Rx,0,8,BC,A9,A4,4A,9A,A4,48,EA,
1249145,000001BA,false,Rx,0,8,62,A9,A4,49,9A,A4,4A,EA,
1249358,000001C1,false,Rx,0,8,CB,79,A4,45,7A,A4,4A,EA,
1249574,000001C2,false,Rx,0,8,C7,99,A4,49,9A,A4,49,EA,
1249784,000001C5,false,Rx,0,8,34,89,A4,48,AA,A4,4C,EA,
1249995,000001C6,false,Rx,0,8,D1,C9,A4,4C,CA,A4,4C,EA,
1250204,000001C9,false,Rx,0,8,B5,69,A4,46,6A,A4,4A,EA,
1250414,000001CA,false,Rx,0,8,F1,A9,A4,49,9A,A4,48,EA,
1250628,000001CD,false,Rx,0,8,DB,89,A4,47,9A,A4,49,EA,
1251010,000001CE,false,Rx,0,8,05,A9,A4,4A,AA,A4,4A,EA,
1253554,000000BB,false,Rx,0,8,8F,EC,FF,D1,95,2B,00,1E,
1253559,0000015B,false,Rx,0,8,F9,5D,00,03,00,00,00,00,
1253564,18FED007,true,Rx,0,6,00,03,A0,AB,9F,AB,00,00,
1253569,18FED008,true,Rx,0,7,7E,AB,0B,80,F6,FE,00,00,
1253574,18FED009,true,Rx,0,7,00,00,00,00,00,00,00,00,
1257802,000000BA,false,Rx,0,8,4A,4E,29,00,00,00,00,21,
1262194,000000BB,false,Rx,0,8,55,FD,FF,D1,95,2B,00,02,
1262406,0000015B,false,Rx,0,8,2E,5E,00,03,00,00,00,00,
1262622,18FED007,true,Rx,0,6,00,03,A0,AB,9F,AB,00,00,
1262840,18FED008,true,Rx,0,7,7E,AB,0B,80,F6,FE,00,00,
1263228,18FED009,true,Rx,0,7,00,00,00,00,00,00,00,00,
1263439,18FED00A,true,Rx,0,8,00,00,30,1E,00,41,00,00,
1267770,000000BA,false,Rx,0,8,E3,4F,29,00,00,00,00,30,
1273578,000000BB,false,Rx,0,8,5B,FE,FF,D1,95,2B,00,00,
1273584,0000015B,false,Rx,0,8,45,5F,00,03,00,00,00,00,
1273589,18FED007,true,Rx,0,6,00,03,A0,AB,9F,AB,00,00,
1273594,18FED008,true,Rx,0,7,7E,AB,0B,80,F6,FE,00,00,
1273599,18FED009,true,Rx,0,7,00,00,00,00,00,00,00,00,
1274516,000001BC,false,Rx,0,8,54,2A,A4,43,3A,A4,45,0A,
1274726,000001C8,false,Rx,0,8,8C,6A,A4,46,5A,A4,46,0A,
1274936,000001C4,false,Rx,0,8,92,3A,A4,45,5A,A4,43,0A,
1275145,000001B0,false,Rx,0,8,9E,2A,A4,43,2A,A4,42,0A,
1275357,000001B4,false,Rx,0,8,F1,6A,A4,47,6A,A4,47,0A,
1275572,000001B8,false,Rx,0,8,E9,5A,A4,45,5A,A4,43,0A,
1275782,000001C0,false,Rx,0,8,53,3A,A4,45,6A,A4,43,0A,
1275991,000001CC,false,Rx,0,8,93,5A,A4,46,6A,A4,46,0A,
1277783,000000BA,false,Rx,0,8,3C,40,29,00,00,00,00,22,
1279206,000001BD,false,Rx,0,8,EA,5A,A4,45,AA,A3,45,0A,
1279417,000001C9,false,Rx,0,8,C7,5A,A4,43,BA,A3,43,0A,
1279632,000001BE,false,Rx,0,8,10,5A,A4,45,3A,A4,3D,0A,
1279842,000001B1,false,Rx,0,8,23,2A,A4,42,AA,A3,46,0A,
1280052,000001B2,false,Rx,0,8,72,5A,A4,47,6A,A4,3F,0A,
1280435,000001B5,false,Rx,0,8,82,7A,A4,46,FA,A3,47,0A,
1280650,000001B6,false,Rx,0,8,CD,7A,A4,46,6A,A4,40,0A,
1280860,000001B9,false,Rx,0,8,E9,5A,A4,43,BA,A3,48,0A,
1281069,000001BA,false,Rx,0,8,F5,AA,A4,47,7A,A4,42,0A,
1281280,000001C1,false,Rx,0,8,89,5A,A4,42,BA,A3,45,0A,
1281497,000001C2,false,Rx,0,8,67,5A,A4,45,5A,A4,3C,0A,
1281707,000001C5,false,Rx,0,8,D7,2A,A4,43,CA,A3,45,0A,
1281916,000001C6,false,Rx,0,8,B7,5A,A4,45,5A,A4,3D,0A,
1282126,000000BB,false,Rx,0,8,E4,FF,FF,D1,95,2B,00,04,
1282337,0000015B,false,Rx,0,8,BA,50,00,03,00,00,00,00,
1282553,000001CA,false,Rx,0,8,7E,3A,A4,43,3A,A4,3C,0A,
1282935,000001CD,false,Rx,0,8,24,6A,A4,46,DA,A3,45,0A,
1283145,000001CE,false,Rx,0,8,4A,6A,A4,45,5A,A4,3F,0A,
1283356,18FED007,true,Rx,0,6,00,03,A0,AB,9F,AB,00,00,
1283572,18FED008,true,Rx,0,7,7E,AB,0B,80,F6,FE,00,00,
1283782,18FED009,true,Rx,0,7,00,00,00,00,00,00,00,00,
1284337,1A555405,true,Rx,0,8,65,40,00,00,FE,FE,FE,FE,
1284898,1A555401,true,Rx,0,8,66,40,00,00,FE,FE,FE,FE,
1285108,1A555404,true,Rx,0,8,63,40,00,00,FE,FE,FE,FE,
1285497,16A9541E,true,Rx,0,8,80,A0,80,AA,A0,A0,AA,AA,
1285708,1A555402,true,Rx,0,8,64,40,00,00,FE,FE,FE,FE,
1286090,16A9541A,true,Rx,0,8,80,A0,80,AA,A0,A0,AA,AA,
1286302,16A9541D,true,Rx,0,8,80,A0,80,AA,A0,A0,AA,AA,
1286517,1A555403,true,Rx,0,8,63,40,00,00,FE,FE,FE,FE,
1286900,16A9541B,true,Rx,0,8,80,A0,80,AA,A0,A0,AA,AA,
1287109,16A9541F,true,Rx,0,8,80,A0,80,AA,A0,A0,AA,AA,
1287320,16A9541C,true,Rx,0,8,80,A0,80,AA,A0,A0,AA,AA,
1287709,16A95420,true,Rx,0,8,80,A0,80,AA,A0,A0,AA,AA,
1287920,16A95421,true,Rx,0,8,80,A0,80,AA,A0,A0,AA,AA,
1288304,1A555406,true,Rx,0,8,62,40,00,00,FE,FE,FE,FE,
1288520,1A555407,true,Rx,0,8,64,40,00,00,FE,FE,FE,FE,
1288730,1A555408,true,Rx,0,8,64,40,00,00,FE,FE,FE,FE,
1289111,000000BA,false,Rx,0,8,56,41,29,00,00,00,00,23,
1293662,000000BB,false,Rx,0,8,62,E0,FF,D1,95,2B,00,06,
1293667,0000015B,false,Rx,0,8,14,51,00,03,00,00,00,00,
1293672,18FED007,true,Rx,0,6,00,03,A0,AB,9F,AB,00,00,
1293677,18FED008,true,Rx,0,7,7E,AB,0B,80,F6,FE,00,00,
1293682,18FED009,true,Rx,0,7,00,00,00,00,00,00,00,00,
1297908,000000BA,false,Rx,0,8,A8,42,29,00,00,00,00,34,
1302122,000000BB,false,Rx,0,8,C4,E1,FF,D1,95,2B,00,08,
1302333,0000015B,false,Rx,0,8,1A,52,00,03,00,00,00,00,
1302549,000001BC,false,Rx,0,8,B8,3B,A4,44,4A,A4,45,4A,
1302759,000001B0,false,Rx,0,8,C8,8B,A4,48,8A,A4,48,4A,
1302969,000001B4,false,Rx,0,8,0E,8B,A4,49,8A,A4,48,4A,
1303353,000001B8,false,Rx,0,8,6A,AB,A4,49,AA,A4,49,4A,
1303569,000001C0,false,Rx,0,8,1E,7B,A4,47,8A,A4,46,4A,
1303779,000001C4,false,Rx,0,8,F0,9B,A4,49,9A,A4,48,4A,
1303989,000001C8,false,Rx,0,8,BD,8B,A4,46,6A,A4,46,4A,
1304199,000001CC,false,Rx,0,8,49,8B,A4,48,8A,A4,48,4A,
1304411,18FED007,true,Rx,0,6,00,03,A0,AB,9F,AB,00,00,
1304627,18FED008,true,Rx,0,7,7E,AB,0B,80,F6,FE,00,00,
1305010,18FED009,true,Rx,0,7,00,00,00,00,00,00,00,00,
1307305,000001BD,false,Rx,0,8,1D,3B,A4,44,4A,A4,4A,4A,
1307516,000001BE,false,Rx,0,8,A9,AB,A4,49,9A,A4,4A,4A,
1307726,000001B1,false,Rx,0,8,8B,8B,A4,48,8A,A4,4C,4A,
1307936,000000BA,false,Rx,0,8,B0,43,29,00,00,00,00,25,
1308320,000001B2,false,Rx,0,8,51,BB,A4,4D,BA,A4,4B,4A,
1308536,000001B5,false,Rx,0,8,4D,8B,A4,47,9A,A4,48,4A,
1308746,000001B6,false,Rx,0,8,BA,8B,A4,48,8A,A4,48,4A,
1308956,000001B9,false,Rx,0,8,42,AB,A4,49,8A,A4,49,4A,
1309166,000001BA,false,Rx,0,8,82,BB,A4,49,9A,A4,49,4A,
1309377,000001C1,false,Rx,0,8,65,7B,A4,46,7A,A4,4B,4A,
1309593,000001C2,false,Rx,0,8,2A,AB,A4,4A,AA,A4,48,4A,
1309803,000001C5,false,Rx,0,8,EB,8B,A4,48,AA,A4,4C,4A,
1310013,000001C6,false,Rx,0,8,23,CB,A4,4C,DA,A4,4C,4A,
1310223,000001C9,false,Rx,0,8,5A,6B,A4,45,6A,A4,4A,4A,
1310435,000001CA,false,Rx,0,8,6B,9B,A4,49,9A,A4,49,4A,
1310649,000001CD,false,Rx,0,8,A2,7B,A4,46,9A,A4,49,4A,
1310859,000001CE,false,Rx,0,8,F9,AB,A4,4A,AA,A4,4A,4A,
1312110,000000BB,false,Rx,0,8,A0,E2,FF,D5,95,2B,00,0A,
1313598,0000015B,false,Rx,0,8,2B,53,00,03,00,00,00,00,
1313603,18FED007,true,Rx,0,6,00,03,AB,AB,9F,AB,00,00,
1313608,18FED008,true,Rx,0,7,7E,AB,0B,80,F6,FE,00,00,
1313613,18FED009,true,Rx,0,7,00,00,00,00,00,00,00,00,
1317828,000000BA,false,Rx,0,8,8D,44,29,00,00,00,00,26,
1322097,000000BB,false,Rx,0,8,33,E3,FF,D1,95,2B,00,0C,
1322309,0000015B,false,Rx,0,8,8D,54,00,03,00,00,00,00,
1322699,18FED007,true,Rx,0,6,00,03,A0,AB,9F,AB,00,00,
1322909,18FED008,true,Rx,0,7,7E,AB,0B,80,F6,FE,00,00,
1323119,18FED009,true,Rx,0,7,00,00,00,00,00,00,00,00,
1327849,000000BA,false,Rx,0,8,CB,45,29,00,00,00,00,30,
1331013,16A95419,true,Rx,0,8,AA,9A,8A,20,00,00,A0,80,
1331222,18FED006,true,Rx,0,3,02,00,00,00,00,00,00,00,
1332131,000000BB,false,Rx,0,8,F1,E4,FF,D5,B5,2B,00,00,
1333631,0000015B,false,Rx,0,8,04,55,00,03,00,00,00,00,
1333636,18FED007,true,Rx,0,6,00,03,AB,AB,AA,AB,00,00,
1333641,18FED008,true,Rx,0,7,7E,AB,17,80,F6,FE,00,00,
1333646,18FED009,true,Rx,0,7,00,00,00,00,00,00,00,00,
1334564,000001BC,false,Rx,0,8,13,2C,A4,43,3A,A4,45,0A,
1334773,000001C8,false,Rx,0,8,7B,6C,A4,46,5A,A4,46,0A,
1334983,000001C4,false,Rx,0,8,10,3C,A4,45,5A,A4,43,0A,
1335192,000001B0,false,Rx,0,8,CE,2C,A4,43,2A,A4,42,0A,
1335404,000001B4,false,Rx,0,8,EF,6C,A4,47,6A,A4,47,0A,
1335621,000001B8,false,Rx,0,8,ED,5C,A4,45,5A,A4,43,0A,
1335831,000001C0,false,Rx,0,8,9E,3C,A4,45,6A,A4,43,0A,
1336041,000001CC,false,Rx,0,8,0A,5C,A4,46,6A,A4,46,0A,
1337829,000000BA,false,Rx,0,8,38,46,29,00,00,00,00,27,
1339196,000001BD,false,Rx,0,8,C0,5C,A4,45,AA,A3,45,0A,
1339414,000001C9,false,Rx,0,8,CD,5C,A4,43,BA,A3,43,0A,
1339628,000001BE,false,Rx,0,8,BB,5C,A4,43,3A,A4,3D,0A,
1339838,000001B1,false,Rx,0,8,4D,2C,A4,42,AA,A3,46,0A,
1340220,000001B2,false,Rx,0,8,C1,6C,A4,47,6A,A4,3F,0A,
