Time Stamp,ID,Extended,Dir,Bus,LEN,D1,D2,D3,D4,D5,D6,D7,D8
31186833,000001B8,false,Rx,0,8,28,A9,A4,4A,AA,A4,49,9A,
31186838,000001C4,false,Rx,0,8,CA,89,A4,49,9A,A4,48,9A,
31186843,000001C8,false,Rx,0,8,4D,79,A4,47,6A,A4,46,9A,
31186848,000001CC,false,Rx,0,8,65,79,A4,48,8A,A4,47,9A,
31189326,000001BD,false,Rx,0,8,15,39,A4,43,4A,A4,4A,9A,
31189542,000001B5,false,Rx,0,8,D8,79,A4,47,8A,A4,48,9A,
31189763,0000015B,false,Rx,0,8,2E,5E,00,03,00,00,00,00,
31190158,000000BA,false,Rx,0,8,94,4D,29,00,00,00,00,2A,
31190383,000001B1,false,Rx,0,8,9A,89,A4,48,9A,A4,4B,9A,
31190597,000001B2,false,Rx,0,8,B6,B9,A4,4C,CA,A4,4B,9A,
31190805,000001B6,false,Rx,0,8,AD,89,A4,48,8A,A4,48,9A,
31191015,000001B9,false,Rx,0,8,B5,A9,A4,49,9A,A4,49,9A,
31191224,000001BA,false,Rx,0,8,7D,B9,A4,48,9A,A4,49,9A,
31191436,000001BE,false,Rx,0,8,4E,A9,A4,49,9A,A4,4A,9A,
31191652,000001C1,false,Rx,0,8,E9,79,A4,45,6A,A4,4A,9A,
31191862,000001C2,false,Rx,0,8,CE,99,A4,4A,9A,A4,48,9A,
31192072,000001C5,false,Rx,0,8,CF,89,A4,48,AA,A4,4C,9A,
31192283,000001C6,false,Rx,0,8,1F,B9,A4,4C,CA,A4,4B,9A,
31192498,000001C9,false,Rx,0,8,95,59,A4,46,6A,A4,49,9A,
31192708,000001CA,false,Rx,0,8,CD,99,A4,49,9A,A4,49,9A,
31192918,000001CD,false,Rx,0,8,BC,79,A4,47,9A,A4,49,9A,
31193302,000001CE,false,Rx,0,8,5C,B9,A4,4A,AA,A4,4A,9A,
31193519,18FED007,true,Rx,0,6,00,03,AB,AB,AA,AB,00,00,
31193729,18FED008,true,Rx,0,7,7E,AB,0B,80,F6,FE,00,00,
31193938,18FED009,true,Rx,0,7,00,00,00,00,00,00,00,00,
31194846,000000BB,false,Rx,0,8,DC,DC,FF,D5,B5,2B,00,14,
31199786,0000015B,false,Rx,0,8,45,5F,00,03,00,00,00,00,
31199996,000000BA,false,Rx,0,8,32,4E,29,00,00,00,00,2B,
31200205,18FED007,true,Rx,0,6,00,03,AB,AB,AA,AB,00,00,
31200595,18FED008,true,Rx,0,7,7E,AB,0B,80,F6,FE,00,00,
31200805,18FED009,true,Rx,0,7,00,00,00,00,00,00,00,00,
31204841,000000BB,false,Rx,0,8,2C,DD,FF,D5,B5,2B,00,16,
31209732,0000015B,false,Rx,0,8,BA,50,00,03,00,00,00,00,
31209942,000000BA,false,Rx,0,8,E3,4F,29,00,00,00,00,30,
31210327,18FED007,true,Rx,0,6,00,03,A0,AB,9F,AB,00,00,
31210543,18FED008,true,Rx,0,7,7E,AB,00,80,F6,FE,00,00,
31210752,18FED009,true,Rx,0,7,00,00,00,00,00,00,00,00,
31214806,000000BB,false,Rx,0,8,30,DE,FF,D1,95,2B,00,00,
31216584,000001BC,false,Rx,0,8,70,2A,A4,43,3A,A4,43,0A,
31216794,000001B4,false,Rx,0,8,A5,6A,A4,46,6A,A4,47,0A,
31217004,000001C0,false,Rx,0,8,53,3A,A4,45,6A,A4,43,0A,
31217214,000001B0,false,Rx,0,8,9E,2A,A4,43,2A,A4,42,0A,
31217425,000001B8,false,Rx,0,8,3E,5A,A4,43,5A,A4,43,0A,
31217642,000001C4,false,Rx,0,8,92,3A,A4,45,5A,A4,43,0A,
31217852,000001C8,false,Rx,0,8,8C,6A,A4,46,5A,A4,46,0A,
31218062,000001CC,false,Rx,0,8,93,5A,A4,46,6A,A4,46,0A,
31219839,0000015B,false,Rx,0,8,14,51,00,03,00,00,00,00,
31220049,000000BA,false,Rx,0,8,91,40,29,00,00,00,00,2C,
31220262,18FED007,true,Rx,0,6,00,03,AB,AB,AA,AB,00,00,
31220478,18FED008,true,Rx,0,7,7E,AB,0B,80,F6,FE,00,00,
31220860,18FED009,true,Rx,0,7,00,00,00,00,00,00,00,00,
31221244,000001BD,false,Rx,0,8,19,5A,A4,43,AA,A3,43,0A,
31221460,000001B5,false,Rx,0,8,8C,7A,A4,46,FA,A3,46,0A,
31221670,000001B6,false,Rx,0,8,CB,6A,A4,46,6A,A4,3F,0A,
31221880,000001B1,false,Rx,0,8,23,2A,A4,42,AA,A3,46,0A,
31222090,000001B2,false,Rx,0,8,BB,6A,A4,47,6A,A4,3F,0A,
31222481,000001B9,false,Rx,0,8,E7,5A,A4,42,BA,A3,47,0A,
31222690,000001BA,false,Rx,0,8,A1,AA,A4,46,7A,A4,42,0A,
31222899,000001BE,false,Rx,0,8,C7,5A,A4,43,3A,A4,3D,0A,
31223109,000001C1,false,Rx,0,8,34,3A,A4,42,BA,A3,45,0A,
31223321,000001C2,false,Rx,0,8,67,5A,A4,45,5A,A4,3C,0A,
31223538,000001C5,false,Rx,0,8,21,3A,A4,42,CA,A3,45,0A,
31223748,000001C6,false,Rx,0,8,B7,5A,A4,45,5A,A4,3D,0A,
31223958,000001C9,false,Rx,0,8,C7,5A,A4,43,BA,A3,43,0A,
31224168,000001CA,false,Rx,0,8,7E,3A,A4,43,3A,A4,3C,0A,
31224380,000001CD,false,Rx,0,8,D8,6A,A4,45,DA,A3,45,0A,
31224595,000001CE,false,Rx,0,8,4C,7A,A4,45,5A,A4,40,0A,
31224805,000000BB,false,Rx,0,8,18,DF,FF,D5,B5,2B,00,18,
31229732,0000015B,false,Rx,0,8,1A,52,00,03,00,00,00,00,
31229942,000000BA,false,Rx,0,8,FB,41,29,00,00,00,00,2D,
31230326,18FED007,true,Rx,0,6,00,03,AB,AB,AA,AB,00,00,
31230543,18FED008,true,Rx,0,7,7E,AB,0B,80,F6,FE,00,00,
31230753,18FED009,true,Rx,0,7,00,00,00,00,00,00,00,00,
31234882,000000BB,false,Rx,0,8,3C,D0,FF,D5,B5,2B,00,1A,
31239710,0000015B,false,Rx,0,8,2B,53,00,03,00,00,00,00,
31240091,000000BA,false,Rx,0,8,D0,42,29,00,00,00,00,3E,
31240302,18FED007,true,Rx,0,6,00,03,A0,AB,9F,AB,00,00,
31240518,18FED008,true,Rx,0,7,7E,AB,0B,80,F6,FE,00,00,
31240728,18FED009,true,Rx,0,7,00,00,00,00,00,00,00,00,
31244261,000001BC,false,Rx,0,8,FB,3B,A4,44,4A,A4,44,EA,
31244649,000001B4,false,Rx,0,8,F0,7B,A4,48,7A,A4,48,EA,
31244859,000001C0,false,Rx,0,8,53,7B,A4,47,8A,A4,46,EA,
31245069,000000BB,false,Rx,0,8,FD,D1,FF,D1,95,2B,00,1C,
31245280,000001B0,false,Rx,0,8,9A,7B,A4,49,9A,A4,49,EA,
31245497,000001B8,false,Rx,0,8,DB,AB,A4,4A,AA,A4,49,EA,
31247125,000001C4,false,Rx,0,8,BD,9B,A4,49,9A,A4,48,EA,
31247130,000001C8,false,Rx,0,8,7D,8B,A4,47,7A,A4,46,EA,
31247135,000001CC,false,Rx,0,8,C2,7B,A4,48,8A,A4,47,EA,
31249313,000001BD,false,Rx,0,8,4F,4B,A4,44,4A,A4,4A,EA,
31249539,000001B5,false,Rx,0,8,45,7B,A4,47,8A,A4,48,EA,
31249749,0000015B,false,Rx,0,8,8D,54,00,03,00,00,00,00,
31249959,000000BA,false,Rx,0,8,C8,43,29,00,00,00,00,2F,
31250350,000001B1,false,Rx,0,8,C6,8B,A4,48,8A,A4,4C,EA,
31250567,000001B2,false,Rx,0,8,4D,BB,A4,4D,CA,A4,4B,EA,
31250776,000001B6,false,Rx,0,8,A3,8B,A4,49,8A,A4,48,EA,
31250985,000001B9,false,Rx,0,8,24,AB,A4,4A,9A,A4,48,EA,
31251195,000001BA,false,Rx,0,8,39,AB,A4,48,9A,A4,49,EA,
31251407,000001BE,false,Rx,0,8,E4,AB,A4,49,9A,A4,4A,EA,
31251624,000001C1,false,Rx,0,8,DA,7B,A4,45,7A,A4,4A,EA,
31251834,000001C2,false,Rx,0,8,DF,AB,A4,49,9A,A4,48,EA,
31252043,000001C5,false,Rx,0,8,A6,8B,A4,48,AA,A4,4C,EA,
31252255,000001C6,false,Rx,0,8,F9,BB,A4,4C,BA,A4,4C,EA,
31252472,000001C9,false,Rx,0,8,30,5B,A4,46,6A,A4,49,EA,
31252681,000001CA,false,Rx,0,8,28,9B,A4,49,9A,A4,48,EA,
31252891,000001CD,false,Rx,0,8,EF,7B,A4,46,9A,A4,49,EA,
31253101,000001CE,false,Rx,0,8,48,AB,A4,49,AA,A4,4A,EA,
31253490,18FED007,true,Rx,0,6,00,03,AB,AB,AA,AB,00,00,
31253700,18FED008,true,Rx,0,7,7E,AB,0B,80,F6,FE,00,00,
31253910,18FED009,true,Rx,0,7,00,00,00,00,00,00,00,00,
31254294,18FED00A,true,Rx,0,8,00,00,30,1E,00,41,00,00,
31254855,000000BB,false,Rx,0,8,CD,E2,FF,D5,B5,2B,00,1E,
31259757,0000015B,false,Rx,0,8,04,55,00,03,00,00,00,00,
31259967,000000BA,false,Rx,0,8,4C,44,29,00,00,00,00,21,
31260177,18FED007,true,Rx,0,6,00,03,AB,AB,AA,AB,00,00,
31260567,18FED008,true,Rx,0,7,7E,AB,0B,80,F6,FE,00,00,
31260777,18FED009,true,Rx,0,7,00,00,00,00,00,00,00,00,
31264808,000000BB,false,Rx,0,8,7C,E3,FF,D5,B5,2B,00,02,
31269853,0000015B,false,Rx,0,8,54,56,00,03,00,00,00,00,
31270062,000000BA,false,Rx,0,8,CB,45,29,00,00,00,00,30,
31270274,18FED007,true,Rx,0,6,00,03,A0,AB,9F,AB,00,00,
31270491,18FED008,true,Rx,0,7,7E,AB,00,80,F6,FE,00,00,
31270873,18FED009,true,Rx,0,7,00,00,00,00,00,00,00,00,
31274925,000000BB,false,Rx,0,8,13,E4,FF,D1,95,2B,00,00,
31276530,000001BC,false,Rx,0,8,37,2C,A4,43,3A,A4,43,0A,
31276740,000001B4,false,Rx,0,8,BB,6C,A4,46,6A,A4,47,0A,
31276950,000001C0,false,Rx,0,8,9E,3C,A4,45,6A,A4,43,0A,
31277160,000001B0,false,Rx,0,8,CE,2C,A4,43,2A,A4,42,0A,
31277373,000001B8,false,Rx,0,8,3A,5C,A4,43,5A,A4,43,0A,
31277588,000001C4,false,Rx,0,8,10,3C,A4,45,5A,A4,43,0A,
31277798,000001C8,false,Rx,0,8,7B,6C,A4,46,5A,A4,46,0A,
31278180,000001CC,false,Rx,0,8,0A,5C,A4,46,6A,A4,46,0A,
31279786,0000015B,false,Rx,0,8,4F,57,00,03,00,00,00,00,
31279996,000000BA,false,Rx,0,8,04,46,29,00,00,00,00,22,
31280206,18FED007,true,Rx,0,6,00,03,AB,AB,AA,AB,00,00,
31280595,18FED008,true,Rx,0,7,7E,AB,0B,80,F6,FE,00,00,
31280805,18FED009,true,Rx,0,7,00,00,00,00,00,00,00,00,
31281188,000001BD,false,Rx,0,8,33,5C,A4,43,AA,A3,43,0A,
31281579,000001B5,false,Rx,0,8,49,7C,A4,46,FA,A3,46,0A,
31281788,000001B6,false,Rx,0,8,F1,6C,A4,46,6A,A4,3F,0A,
31281998,000001B1,false,Rx,0,8,4D,2C,A4,42,AA,A3,46,0A,
31282208,000001B2,false,Rx,0,8,C1,6C,A4,47,6A,A4,3F,0A,
31282420,000001B9,false,Rx,0,8,47,5C,A4,42,BA,A3,47,0A,
31282636,000001BA,false,Rx,0,8,3F,AC,A4,46,7A,A4,42,0A,
31282846,000001BE,false,Rx,0,8,BB,5C,A4,43,3A,A4,3D,0A,
31283057,000001C1,false,Rx,0,8,30,3C,A4,42,BA,A3,45,0A,
31283268,000001C2,false,Rx,0,8,C9,5C,A4,45,5A,A4,3C,0A,
31283483,000001C5,false,Rx,0,8,D6,3C,A4,42,CA,A3,45,0A,
31283692,000001C6,false,Rx,0,8,66,5C,A4,45,5A,A4,3D,0A,
31283902,000001C9,false,Rx,0,8,CD,5C,A4,43,BA,A3,43,0A,
31284112,000001CA,false,Rx,0,8,CC,3C,A4,43,3A,A4,3C,0A,
31284503,000001CD,false,Rx,0,8,BB,6C,A4,45,DA,A3,45,0A,
31284711,000001CE,false,Rx,0,8,82,6C,A4,45,5A,A4,40,0A,
31284921,000000BB,false,Rx,0,8,B2,D5,FF,D5,B5,2B,00,04,
216852,0000015B,false,Rx,0,8,65,58,00,03,00,00,00,00,
217071,000000BA,false,Rx,0,8,C4,47,29,00,00,00,00,23,
217289,18FED007,true,Rx,0,6,00,03,AB,AB,AA,AB,00,00,
217505,18FED008,true,Rx,0,7,7E,AB,0B,80,F6,FE,00,00,
217715,18FED009,true,Rx,0,7,00,00,00,00,00,00,00,00,
221951,000000BB,false,Rx,0,8,5A,D6,FF,D5,B5,2B,00,06,
226870,0000015B,false,Rx,0,8,66,59,00,03,00,00,00,00,
227080,000000BA,false,Rx,0,8,C1,48,29,00,00,00,00,34,
227291,18FED007,true,Rx,0,6,00,03,A0,AB,9F,AB,00,00,
227503,18FED008,true,Rx,0,7,7E,AB,00,80,F6,FE,00,00,
227886,18FED009,true,Rx,0,7,00,00,00,00,00,00,00,00,
231574,000001B4,false,Rx,0,8,D7,7D,A4,48,8A,A4,47,4A,
231784,000001C0,false,Rx,0,8,D6,7D,A4,47,8A,A4,46,4A,
231994,000000BB,false,Rx,0,8,EC,D7,FF,D1,95,2B,00,08,
232204,000001B0,false,Rx,0,8,05,7D,A4,48,8A,A4,49,4A,
232415,000001B8,false,Rx,0,8,A3,AD,A4,4A,AA,A4,49,4A,
232630,000001BC,false,Rx,0,8,F3,3D,A4,43,4A,A4,44,4A,
232838,000001C4,false,Rx,0,8,A0,9D,A4,49,9A,A4,49,4A,
234478,000001C8,false,Rx,0,8,FC,7D,A4,47,6A,A4,47,4A,
234483,000001CC,false,Rx,0,8,55,7D,A4,48,8A,A4,47,4A,
236614,000001B5,false,Rx,0,8,12,8D,A4,46,8A,A4,48,4A,
236823,000001C1,false,Rx,0,8,B4,7D,A4,46,7A,A4,4A,4A,
237034,000000BA,false,Rx,0,8,CC,49,29,00,00,00,00,25,
237247,0000015B,false,Rx,0,8,73,5A,00,03,00,00,00,00,
237475,000001B1,false,Rx,0,8,58,8D,A4,48,8A,A4,4C,4A,
237704,000001B2,false,Rx,0,8,72,BD,A4,4C,CA,A4,4B,4A,
237975,000001B6,false,Rx,0,8,BD,8D,A4,49,8A,A4,48,4A,
238184,000001B9,false,Rx,0,8,68,AD,A4,49,9A,A4,48,4A,
238396,000001BA,false,Rx,0,8,23,AD,A4,48,9A,A4,49,4A,
238612,000001BD,false,Rx,0,8,AA,4D,A4,43,4A,A4,4A,4A,
238822,000001BE,false,Rx,0,8,A0,AD,A4,49,9A,A4,49,4A,
239031,000001C2,false,Rx,0,8,D8,AD,A4,49,9A,A4,48,4A,
239243,000001C5,false,Rx,0,8,CC,8D,A4,48,AA,A4,4C,4A,
239460,000001C6,false,Rx,0,8,01,BD,A4,4C,BA,A4,4C,4A,
239670,000001C9,false,Rx,0,8,2C,5D,A4,46,6A,A4,4A,4A,
239885,000001CA,false,Rx,0,8,F6,AD,A4,49,9A,A4,48,4A,
240103,000001CD,false,Rx,0,8,26,7D,A4,47,9A,A4,49,4A,
240328,000001CE,false,Rx,0,8,55,AD,A4,4A,AA,A4,4A,4A,
240582,18FED007,true,Rx,0,6,00,03,AB,AB,AA,AB,00,00,
241306,18FED008,true,Rx,0,7,7E,AB,0B,80,F6,FE,00,00,
241311,18FED009,true,Rx,0,7,00,00,00,00,00,00,00,00,
241879,000000BB,false,Rx,0,8,28,D8,FF,D5,B5,2B,00,0A,
246841,0000015B,false,Rx,0,8,8C,5B,00,03,00,00,00,00,
247058,000000BA,false,Rx,0,8,44,4A,29,00,00,00,00,26,
247279,18FED007,true,Rx,0,6,00,03,AB,AB,AA,AB,00,00,
247496,18FED008,true,Rx,0,7,7E,AB,0B,80,F6,FE,00,00,
247879,18FED009,true,Rx,0,7,00,00,00,00,00,00,00,00,
251912,000000BB,false,Rx,0,8,9D,D9,FF,D5,B5,2B,00,0C,
256783,0000015B,false,Rx,0,8,B3,5C,00,03,00,00,00,00,
257007,000000BA,false,Rx,0,8,6F,4B,29,00,00,00,00,30,
257218,18FED007,true,Rx,0,6,00,03,A0,AB,9F,AB,00,00,
257604,18FED008,true,Rx,0,7,7E,AB,00,80,F6,FE,00,00,
257826,18FED009,true,Rx,0,7,00,00,00,00,00,00,00,00,
261859,000000BB,false,Rx,0,8,70,DA,FF,D1,95,2B,00,00,
263461,000001BC,false,Rx,0,8,EB,2E,A4,43,3A,A4,43,0A,
263671,000001B4,false,Rx,0,8,EA,6E,A4,46,6A,A4,47,0A,
263880,000001C0,false,Rx,0,8,1C,3E,A4,45,6A,A4,43,0A,
264265,000001B0,false,Rx,0,8,F3,2E,A4,43,2A,A4,42,0A,
264480,000001B8,false,Rx,0,8,FD,5E,A4,43,5A,A4,43,0A,
264690,000001C4,false,Rx,0,8,27,3E,A4,45,5A,A4,43,0A,
264899,000001C8,false,Rx,0,8,E7,6E,A4,46,5A,A4,45,0A,
265109,000001CC,false,Rx,0,8,26,5E,A4,46,6A,A4,46,0A,
266712,0000015B,false,Rx,0,8,F9,5D,00,03,00,00,00,00,
267094,000000BA,false,Rx,0,8,67,4C,29,00,00,00,00,27,
267307,18FED007,true,Rx,0,6,00,03,AB,AB,AA,AB,00,00,
267523,18FED008,true,Rx,0,7,7E,AB,0B,80,F6,FE,00,00,
267733,18FED009,true,Rx,0,7,00,00,00,00,00,00,00,00,
268288,000001BD,false,Rx,0,8,89,5E,A4,43,AA,A3,43,0A,
268505,000001B5,false,Rx,0,8,E0,7E,A4,46,FA,A3,46,0A,
268715,000001B6,false,Rx,0,8,6D,7E,A4,46,5A,A4,40,0A,
268925,000001B1,false,Rx,0,8,B6,2E,A4,42,AA,A3,46,0A,
269135,000001B2,false,Rx,0,8,54,6E,A4,47,6A,A4,3F,0A,
269346,000001B9,false,Rx,0,8,AC,5E,A4,42,BA,A3,47,0A,
269562,000001BA,false,Rx,0,8,01,AE,A4,46,7A,A4,42,0A,
269772,000001BE,false,Rx,0,8,DC,5E,A4,43,3A,A4,3D,0A,
270154,000001C1,false,Rx,0,8,F7,3E,A4,42,BA,A3,45,0A,
270366,000001C2,false,Rx,0,8,9D,5E,A4,45,5A,A4,3C,0A,
270581,000001C5,false,Rx,0,8,BF,3E,A4,42,CA,A3,45,0A,
270791,000001C6,false,Rx,0,8,94,5E,A4,45,5A,A4,3D,0A,
271001,000001C9,false,Rx,0,8,38,5E,A4,43,BA,A3,43,0A,
271211,000001CA,false,Rx,0,8,95,3E,A4,43,3A,A4,3C,0A,
271422,000001CD,false,Rx,0,8,F6,6E,A4,45,DA,A3,45,0A,
271637,000001CE,false,Rx,0,8,21,6E,A4,45,5A,A4,40,0A,
271859,000000BB,false,Rx,0,8,1B,DB,FF,D5,B5,2B,00,0E,
276838,0000015B,false,Rx,0,8,2E,5E,00,03,00,00,00,00,
277052,000000BA,false,Rx,0,8,69,4D,29,00,00,00,00,28,
277268,18FED007,true,Rx,0,6,00,03,A0,AB,9F,AB,00,00,
277477,18FED008,true,Rx,0,7,7E,AB,00,80,F6,FE,00,00,
277866,18FED009,true,Rx,0,7,00,00,00,00,00,00,00,00,
278077,18FED00A,true,Rx,0,8,00,00,30,1E,00,41,00,00,
281937,000000BB,false,Rx,0,8,EB,DC,FF,D1,95,2B,00,10,
286853,0000015B,false,Rx,0,8,45,5F,00,03,00,00,00,00,
287063,000000BA,false,Rx,0,8,EA,4E,29,00,00,00,00,39,
287275,18FED007,true,Rx,0,6,00,03,A0,AB,9F,AB,00,00,
287483,18FED008,true,Rx,0,7,7E,AB,00,80,F6,FE,00,00,
287873,18FED009,true,Rx,0,7,00,00,00,00,00,00,00,00,
291579,000001B4,false,Rx,0,8,B4,7F,A4,48,8A,A4,48,9A,
291789,000001C0,false,Rx,0,8,8C,7F,A4,48,8A,A4,46,9A,
291999,000000BB,false,Rx,0,8,1B,DD,FF,D1,95,2B,00,12,
292209,000001B0,false,Rx,0,8,AC,9F,A4,49,8A,A4,48,9A,
292421,000001B8,false,Rx,0,8,B3,AF,A4,4A,AA,A4,49,9A,
292637,000001BC,false,Rx,0,8,F8,3F,A4,44,4A,A4,44,9A,
292847,000001C4,false,Rx,0,8,95,9F,A4,49,9A,A4,49,9A,
293057,000001C8,false,Rx,0,8,E4,7F,A4,46,6A,A4,46,9A,
294511,000001CC,false,Rx,0,8,72,7F,A4,48,8A,A4,47,9A,
296485,000001B5,false,Rx,0,8,75,8F,A4,47,9A,A4,48,9A,
296694,000001C1,false,Rx,0,8,4F,7F,A4,45,7A,A4,4A,9A,
297076,000000BA,false,Rx,0,8,BE,4F,29,00,00,00,00,2A,
297288,0000015B,false,Rx,0,8,BA,50,00,03,00,00,00,00,
297505,000001B1,false,Rx,0,8,EE,9F,A4,48,9A,A4,4B,9A,
297714,000001B2,false,Rx,0,8,F8,CF,A4,4D,CA,A4,4B,9A,
297924,000001B6,false,Rx,0,8,D7,9F,A4,49,8A,A4,48,9A,
298134,000001B9,false,Rx,0,8,2E,AF,A4,49,9A,A4,49,9A,
298346,000001BA,false,Rx,0,8,8D,AF,A4,48,9A,A4,49,9A,
298563,000001BD,false,Rx,0,8,AA,4F,A4,43,4A,A4,4A,9A,
298772,000001BE,false,Rx,0,8,E0,AF,A4,49,9A,A4,49,9A,
298981,000001C2,false,Rx,0,8,77,9F,A4,4A,9A,A4,48,9A,
299365,000001C5,false,Rx,0,8,FE,8F,A4,48,AA,A4,4C,9A,
299580,000001C6,false,Rx,0,8,34,CF,A4,4D,CA,A4,4B,9A,
299790,000001C9,false,Rx,0,8,8C,5F,A4,46,6A,A4,49,9A,
300000,000001CA,false,Rx,0,8,42,9F,A4,49,9A,A4,48,9A,
300210,000001CD,false,Rx,0,8,9E,7F,A4,47,9A,A4,49,9A,
300421,000001CE,false,Rx,0,8,DE,AF,A4,4A,AA,A4,4A,9A,
300636,18FED007,true,Rx,0,6,00,03,AB,AB,AA,AB,00,00,
300846,18FED008,true,Rx,0,7,7E,AB,17,80,F6,FE,00,00,
301239,18FED009,true,Rx,0,7,00,00,00,00,00,00,00,00,
301886,000000BB,false,Rx,0,8,22,DE,FF,D5,B5,2B,00,14,
306800,0000015B,false,Rx,0,8,14,51,00,03,00,00,00,00,
307010,000000BA,false,Rx,0,8,50,40,29,00,00,00,00,2B,
307220,18FED007,true,Rx,0,6,00,03,AB,AB,AA,AB,00,00,
307604,18FED008,true,Rx,0,7,7E,AB,0B,80,F6,FE,00,00,
307821,18FED009,true,Rx,0,7,00,00,00,00,00,00,00,00,
311850,000000BB,false,Rx,0,8,B5,DF,FF,D5,B5,2B,00,16,
316740,0000015B,false,Rx,0,8,1A,52,00,03,00,00,00,00,
317122,000000BA,false,Rx,0,8,67,41,29,00,00,00,00,30,
317334,18FED007,true,Rx,0,6,00,03,A0,AB,9F,AB,00,00,
317549,18FED008,true,Rx,0,7,7E,AB,00,80,F6,FE,00,00,
317759,18FED009,true,Rx,0,7,00,00,00,00,00,00,00,00,
321856,000000BB,false,Rx,0,8,83,D0,FF,D1,95,2B,00,00,
323802,000001C0,false,Rx,0,8,F4,30,A4,45,6A,A4,43,0A,
324184,000001B0,false,Rx,0,8,54,20,A4,43,2A,A4,42,0A,
324398,000001B4,false,Rx,0,8,68,60,A4,46,6A,A4,47,0A,
324613,000001BC,false,Rx,0,8,31,20,A4,43,3A,A4,43,0A,
324822,000001B8,false,Rx,0,8,CF,50,A4,43,5A,A4,43,0A,
325031,000001C4,false,Rx,0,8,8A,30,A4,45,5A,A4,43,0A,
325244,000001C8,false,Rx,0,8,C8,60,A4,46,5A,A4,46,0A,
325460,000001CC,false,Rx,0,8,8B,50,A4,46,6A,A4,46,0A,
326757,0000015B,false,Rx,0,8,2B,53,00,03,00,00,00,00,
326967,000000BA,false,Rx,0,8,08,42,29,00,00,00,00,2C,
327350,18FED007,true,Rx,0,6,00,03,AB,AB,AA,AB,00,00,
327565,18FED008,true,Rx,0,7,7E,AB,0B,80,F6,FE,00,00,
327775,18FED009,true,Rx,0,7,00,00,00,00,00,00,00,00,
328510,000001B5,false,Rx,0,8,5C,70,A4,46,FA,A3,47,0A,
328719,000001C1,false,Rx,0,8,B0,30,A4,42,BA,A3,45,0A,
328929,000001B1,false,Rx,0,8,12,20,A4,42,AA,A3,46,0A,
329139,000001B2,false,Rx,0,8,11,60,A4,47,6A,A4,3F,0A,
329353,000001B6,false,Rx,0,8,57,70,A4,46,5A,A4,40,0A,
329569,000001B9,false,Rx,0,8,54,50,A4,42,BA,A3,47,0A,
329779,000001BA,false,Rx,0,8,66,A0,A4,46,7A,A4,42,0A,
329989,000001BD,false,Rx,0,8,9A,50,A4,43,AA,A3,43,0A,
330380,000001BE,false,Rx,0,8,8E,50,A4,43,3A,A4,3D,0A,
330678,000001C2,false,Rx,0,8,19,50,A4,45,5A,A4,3C,0A,
330683,000001C5,false,Rx,0,8,66,30,A4,42,CA,A3,45,0A,
330893,000001C6,false,Rx,0,8,99,50,A4,45,5A,A4,3D,0A,
331102,000001C9,false,Rx,0,8,4D,30,A4,43,BA,A3,43,0A,
331502,000001CA,false,Rx,0,8,79,30,A4,43,3A,A4,3C,0A,
331721,000001CD,false,Rx,0,8,4E,60,A4,45,DA,A3,45,0A,
331930,000001CE,false,Rx,0,8,46,60,A4,45,5A,A4,40,0A,
332140,000000BB,false,Rx,0,8,CA,D1,FF,D5,B5,2B,00,18,
336860,0000015B,false,Rx,0,8,8D,54,00,03,00,00,00,00,
337070,000000BA,false,Rx,0,8,35,43,29,00,00,00,00,2D,
337282,18FED007,true,Rx,0,6,00,03,AB,AB,AA,AB,00,00,
337491,18FED008,true,Rx,0,7,7E,AB,0B,80,F6,FE,00,00,
337894,18FED009,true,Rx,0,7,00,00,00,00,00,00,00,00,
341922,000000BB,false,Rx,0,8,D1,D2,FF,D5,B5,2B,00,1A,
346823,0000015B,false,Rx,0,8,04,55,00,03,00,00,00,00,
347033,000000BA,false,Rx,0,8,2D,44,29,00,00,00,00,3E,
347244,18FED007,true,Rx,0,6,00,03,A0,AB,9F,AB,00,00,
347632,18FED008,true,Rx,0,7,7E,AB,00,80,F6,FE,00,00,
347842,18FED009,true,Rx,0,7,00,00,00,00,00,00,00,00,
351570,000001B4,false,Rx,0,8,56,71,A4,48,7A,A4,48,EA,
351825,000001C0,false,Rx,0,8,D4,71,A4,47,8A,A4,46,EA,
352072,000000BB,false,Rx,0,8,DF,D3,FF,D1,95,2B,00,1C,
352322,000001B0,false,Rx,0,8,AE,71,A4,48,8A,A4,49,EA,
352538,000001B8,false,Rx,0,8,3A,A1,A4,4A,AA,A4,49,EA,
352748,000001BC,false,Rx,0,8,7A,31,A4,43,3A,A4,45,EA,
352958,000001C4,false,Rx,0,8,30,81,A4,49,9A,A4,49,EA,
353168,000001C8,false,Rx,0,8,D7,71,A4,46,6A,A4,47,EA,
354709,000001CC,false,Rx,0,8,EC,71,A4,48,8A,A4,48,EA,
355628,16A95419,true,Rx,0,8,AA,9A,8A,20,00,00,A0,80,
356536,000001B5,false,Rx,0,8,74,71,A4,47,8A,A4,48,EA,
356746,000001C1,false,Rx,0,8,07,71,A4,45,7A,A4,4A,EA,
356956,000000BA,false,Rx,0,8,AA,45,29,00,00,00,00,2F,
357341,0000015B,false,Rx,0,8,54,56,00,03,00,00,00,00,
357557,000001B1,false,Rx,0,8,D9,81,A4,48,8A,A4,4B,EA,
357767,000001B2,false,Rx,0,8,FD,C1,A4,4D,CA,A4,4B,EA,
357977,000001B6,false,Rx,0,8,FE,81,A4,49,8A,A4,48,EA,
358187,000001B9,false,Rx,0,8,8B,A1,A4,49,9A,A4,48,EA,
358398,000001BA,false,Rx,0,8,3A,A1,A4,48,9A,A4,49,EA,
358614,000001BD,false,Rx,0,8,4C,41,A4,43,4A,A4,49,EA,
358823,000001BE,false,Rx,0,8,1D,A1,A4,4A,9A,A4,4A,EA,
359032,000001C2,false,Rx,0,8,11,91,A4,49,9A,A4,48,EA,
359243,000001C5,false,Rx,0,8,E3,71,A4,48,AA,A4,4C,EA,
359460,000001C6,false,Rx,0,8,15,C1,A4,4C,CA,A4,4B,EA,
359670,000001C9,false,Rx,0,8,E7,61,A4,46,6A,A4,49,EA,
360052,000001CA,false,Rx,0,8,CC,91,A4,49,9A,A4,49,EA,
360265,000001CD,false,Rx,0,8,AA,71,A4,47,9A,A4,49,EA,
360479,000001CE,false,Rx,0,8,BF,A1,A4,4A,AA,A4,4A,EA,
360689,18FED007,true,Rx,0,6,00,03,AB,AB,AA,AB,00,00,
360899,18FED008,true,Rx,0,7,7E,AB,0B,80,F6,FE,00,00,
361109,18FED009,true,Rx,0,7,00,00,00,00,00,00,00,00,
361845,000000BB,false,Rx,0,8,B0,D4,FF,D5,B5,2B,00,1E,
366779,0000015B,false,Rx,0,8,4F,57,00,03,00,00,00,00,
366988,000000BA,false,Rx,0,8,10,46,29,00,00,00,00,21,
367198,18FED007,true,Rx,0,6,00,03,AB,AB,AA,AB,00,00,
367582,18FED008,true,Rx,0,7,7E,AB,0B,80,F6,FE,00,00,
367798,18FED009,true,Rx,0,7,00,00,00,00,00,00,00,00,
371833,000000BB,false,Rx,0,8,9A,D5,FF,D5,B5,2B,00,02,
376811,0000015B,false,Rx,0,8,65,58,00,03,00,00,00,00,
377021,000000BA,false,Rx,0,8,F5,47,29,00,00,00,00,30,
377241,18FED007,true,Rx,0,6,00,03,A0,AB,9F,AB,00,00,
377629,18FED008,true,Rx,0,7,7E,AB,00,80,F6,FE,00,00,
377839,18FED009,true,Rx,0,7,00,00,00,00,00,00,00,00,
378050,18FED00A,true,Rx,0,8,00,00,30,1E,00,41,00,00,
381913,000000BB,false,Rx,0,8,90,D6,FF,D1,95,2B,00,00,
383691,000001B4,false,Rx,0,8,FF,62,A4,46,6A,A4,47,0A,
383901,000001C0,false,Rx,0,8,29,32,A4,45,6A,A4,43,0A,
384111,000001B0,false,Rx,0,8,EC,22,A4,43,2A,A4,42,0A,
384322,000001B8,false,Rx,0,8,E4,52,A4,43,5A,A4,43,0A,
384709,000001BC,false,Rx,0,8,52,22,A4,43,3A,A4,43,0A,
384919,000001C4,false,Rx,0,8,14,32,A4,45,5A,A4,43,0A,
385129,000001C8,false,Rx,0,8,19,62,A4,46,5A,A4,46,0A,
385341,000001CC,false,Rx,0,8,C7,52,A4,46,6A,A4,46,0A,
386772,0000015B,false,Rx,0,8,66,59,00,03,00,00,00,00,
386982,000000BA,false,Rx,0,8,CC,48,29,00,00,00,00,22,
387366,18FED007,true,Rx,0,6,00,03,AB,AB,AA,AB,00,00,
387575,18FED008,true,Rx,0,7,7E,AB,0B,80,F6,FE,00,00,
387792,18FED009,true,Rx,0,7,00,00,00,00,00,00,00,00,
388527,000001B5,false,Rx,0,8,55,72,A4,46,FA,A3,47,0A,
388736,000001C1,false,Rx,0,8,0F,32,A4,42,BA,A3,45,0A,
388946,000001B1,false,Rx,0,8,76,22,A4,42,AA,A3,46,0A,
389156,000001B2,false,Rx,0,8,E6,62,A4,47,6A,A4,3F,0A,
389368,000001B6,false,Rx,0,8,A3,62,A4,46,5A,A4,40,0A,
389584,000001B9,false,Rx,0,8,67,52,A4,42,BA,A3,47,0A,
389794,000001BA,false,Rx,0,8,06,A2,A4,46,7A,A4,42,0A,
390005,000001BD,false,Rx,0,8,D7,52,A4,43,AA,A3,43,0A,
390215,000001BE,false,Rx,0,8,D3,52,A4,43,3A,A4,3D,0A,
390426,000001C2,false,Rx,0,8,99,52,A4,45,5A,A4,3C,0A,
390640,000001C5,false,Rx,0,8,52,32,A4,42,CA,A3,45,0A,
391023,000001C6,false,Rx,0,8,56,52,A4,45,5A,A4,3D,0A,
391234,000001C9,false,Rx,0,8,BB,32,A4,43,BA,A3,43,0A,
391450,000001CA,false,Rx,0,8,31,32,A4,43,3A,A4,3C,0A,
391660,000001CD,false,Rx,0,8,BD,62,A4,45,DA,A3,45,0A,
391869,000001CE,false,Rx,0,8,50,62,A4,45,6A,A4,40,0A,
392079,000000BB,false,Rx,0,8,5E,D7,FF,D5,B5,2B,00,04,
396854,0000015B,false,Rx,0,8,73,5A,00,03,00,00,00,00,
397064,000000BA,false,Rx,0,8,E4,49,29,00,00,00,00,23,
397277,18FED007,true,Rx,0,6,00,03,A0,AB,9F,AB,00,00,
397492,18FED008,true,Rx,0,7,7E,AB,00,80,F6,FE,00,00,
397874,18FED009,true,Rx,0,7,00,00,00,00,00,00,00,00,
401910,000000BB,false,Rx,0,8,9A,D8,FF,D1,95,2B,00,06,
406891,0000015B,false,Rx,0,8,8C,5B,00,03,00,00,00,00,
407101,000000BA,false,Rx,0,8,9C,4A,29,00,00,00,00,34,
407312,18FED007,true,Rx,0,6,00,03,A0,AB,9F,AB,00,00,
407529,18FED008,true,Rx,0,7,7E,AB,0B,80,F6,FE,00,00,
407739,18FED009,true,Rx,0,7,00,00,00,00,00,00,00,00,
411586,000001B4,false,Rx,0,8,B5,83,A4,48,8A,A4,48,4A,
411796,000001C0,false,Rx,0,8,DD,73,A4,47,8A,A4,46,4A,
412006,000000BB,false,Rx,0,8,AA,D9,FF,D1,95,2B,00,08,
412216,000001B0,false,Rx,0,8,8E,73,A4,48,9A,A4,48,4A,
412429,000001B8,false,Rx,0,8,65,A3,A4,4A,AA,A4,49,4A,
412646,000001BC,false,Rx,0,8,CC,33,A4,43,4A,A4,44,4A,
412856,000001C4,false,Rx,0,8,10,93,A4,49,9A,A4,48,4A,
413066,000001C8,false,Rx,0,8,9E,73,A4,46,6A,A4,46,4A,
413280,000001CC,false,Rx,0,8,32,73,A4,48,7A,A4,48,4A,
415216,18FED502,true,Rx,0,5,0C,20,00,00,00,00,00,00,
415256,18FED102,true,Rx,0,5,0C,20,00,00,00,00,00,00,
415261,18FED402,true,Rx,0,5,0C,20,00,00,00,00,00,00,
415266,18FED202,true,Rx,0,5,0C,20,00,00,00,00,00,00,
415270,18FED602,true,Rx,0,5,0C,20,00,00,00,00,00,00,
415275,18FED302,true,Rx,0,5,0C,20,00,00,00,00,00,00,
415280,18FED702,true,Rx,0,5,0C,20,00,00,00,00,00,00,
415506,18FED802,true,Rx,0,5,0C,20,00,00,00,00,00,00,
415888,16A9541E,true,Rx,0,8,80,A0,80,AA,A0,A0,AA,AA,
416099,16A9541A,true,Rx,0,8,80,A0,80,AA,A0,A0,AA,AA,
416489,16A9541B,true,Rx,0,8,80,A0,80,AA,A0,A0,AA,AA,
416699,16A9541C,true,Rx,0,8,80,A0,80,AA,A0,A0,AA,AA,
416912,000000BA,false,Rx,0,8,76,4B,29,00,00,00,00,25,
417136,0000015B,false,Rx,0,8,B3,5C,00,03,00,00,00,00,
417354,000001C1,false,Rx,0,8,76,73,A4,45,7A,A4,4A,4A,
417581,000001B1,false,Rx,0,8,88,93,A4,48,8A,A4,4B,4A,
417804,000001B2,false,Rx,0,8,05,C3,A4,4D,CA,A4,4B,4A,
418030,000001B5,false,Rx,0,8,CE,73,A4,47,9A,A4,48,4A,
418243,000001B6,false,Rx,0,8,BD,73,A4,48,8A,A4,48,4A,
418458,000001B9,false,Rx,0,8,8F,A3,A4,49,9A,A4,48,4A,
418667,000001BA,false,Rx,0,8,F2,A3,A4,48,9A,A4,49,4A,
418877,000001BD,false,Rx,0,8,F4,43,A4,43,4A,A4,4A,4A,
419270,000001BE,false,Rx,0,8,CC,A3,A4,49,9A,A4,49,4A,
419486,000001C2,false,Rx,0,8,F1,93,A4,49,AA,A4,48,4A,
419703,000001C5,false,Rx,0,8,3F,83,A4,48,AA,A4,4C,4A,
419912,000001C6,false,Rx,0,8,76,C3,A4,4C,BA,A4,4C,4A,
420122,000001C9,false,Rx,0,8,4C,53,A4,45,6A,A4,49,4A,
420334,000001CA,false,Rx,0,8,7B,93,A4,49,9A,A4,48,4A,
420550,000001CD,false,Rx,0,8,2C,73,A4,47,9A,A4,49,4A,
420760,000001CE,false,Rx,0,8,33,A3,A4,4A,AA,A4,4A,4A,
420970,16A9541D,true,Rx,0,8,80,A0,80,AA,A0,A0,AA,AA,
421354,16A9541F,true,Rx,0,8,80,A0,80,AA,A0,A0,AA,AA,
421571,16A95420,true,Rx,0,8,80,A0,80,AA,A0,A0,AA,AA,
421780,16A95421,true,Rx,0,8,80,A0,80,AA,A0,A0,AA,AA,
422002,000000BB,false,Rx,0,8,08,DA,FF,D1,95,2B,00,0A,
422394,18FED007,true,Rx,0,6,00,03,A0,AB,9F,AB,00,00,
422610,18FED008,true,Rx,0,7,7E,AB,00,80,F6,FE,00,00,
422821,18FED009,true,Rx,0,7,00,00,00,00,00,00,00,00,
423203,1A555460,true,Rx,0,8,83,35,45,51,35,59,00,00,
423415,1A555461,true,Rx,0,8,83,35,45,51,35,59,00,00,
423630,1A555462,true,Rx,0,8,83,35,45,51,35,59,00,00,
424013,1A555463,true,Rx,0,8,83,35,45,51,35,59,00,00,
424222,1A555464,true,Rx,0,8,83,35,45,51,35,59,00,00,
424434,1A555465,true,Rx,0,8,83,35,45,51,35,59,00,00,
424824,1A555466,true,Rx,0,8,83,35,45,51,35,59,00,00,
425056,1A555467,true,Rx,0,8,83,35,45,51,35,59,00,00,
426869,0000015B,false,Rx,0,8,F9,5D,00,03,00,00,00,00,
427078,18FED007,true,Rx,0,6,00,03,A0,AB,9F,AB,00,00,
427290,18FED008,true,Rx,0,7,7E,AB,00,80,F6,FE,00,00,
427506,18FED009,true,Rx,0,7,00,00,00,00,00,00,00,00,
427889,000000BA,false,Rx,0,8,8E,4C,29,00,00,00,00,26,
431924,000000BB,false,Rx,0,8,04,DB,FF,D1,95,2B,00,0C,
436843,0000015B,false,Rx,0,8,2E,5E,00,03,00,00,00,00,
437056,000000BA,false,Rx,0,8,C9,4D,29,00,00,00,00,30,
437273,18FED007,true,Rx,0,6,00,03,A0,AB,9F,AB,00,00,
437494,18FED008,true,Rx,0,7,7E,AB,00,80,F6,FE,00,00,
437902,18FED009,true,Rx,0,7,00,00,00,00,00,00,00,00,
441884,000000BB,false,Rx,0,8,CE,DC,FF,D1,95,2B,00,00,
443661,000001B4,false,Rx,0,8,3A,64,A4,46,6A,A4,47,0A,
443871,000001C0,false,Rx,0,8,1F,34,A4,45,6A,A4,43,0A,
444255,000001B0,false,Rx,0,8,27,24,A4,43,2A,A4,42,0A,
444471,000001B8,false,Rx,0,8,F3,54,A4,43,5A,A4,43,0A,
444681,000001BC,false,Rx,0,8,6D,24,A4,43,3A,A4,43,0A,
444891,000001C4,false,Rx,0,8,D3,54,A4,45,5A,A4,43,0A,
445100,000001C8,false,Rx,0,8,AE,64,A4,46,5A,A4,46,0A,
445312,000001CC,false,Rx,0,8,99,54,A4,46,6A,A4,46,0A,
446744,0000015B,false,Rx,0,8,45,5F,00,03,00,00,00,00,
447127,000000BA,false,Rx,0,8,62,4E,29,00,00,00,00,27,
447339,18FED007,true,Rx,0,6,00,03,AB,AB,AA,AB,00,00,
447555,18FED008,true,Rx,0,7,7E,AB,17,80,F6,FE,00,00,
447764,18FED009,true,Rx,0,7,00,00,00,00,00,00,00,00,
448500,000001B5,false,Rx,0,8,7D,74,A4,46,FA,A3,46,0A,
448710,000001C1,false,Rx,0,8,3D,34,A4,42,BA,A3,45,0A,
448920,000001B1,false,Rx,0,8,BD,24,A4,42,AA,A3,46,0A,
449130,000001B2,false,Rx,0,8,DC,64,A4,47,6A,A4,3F,0A,
449342,000001B6,false,Rx,0,8,14,64,A4,46,5A,A4,40,0A,
449558,000001B9,false,Rx,0,8,4C,54,A4,42,BA,A3,47,0A,
449768,000001BA,false,Rx,0,8,DA,A4,A4,46,7A,A4,42,0A,
449978,000001BD,false,Rx,0,8,8E,54,A4,43,AA,A3,43,0A,
450362,000001BE,false,Rx,0,8,C0,54,A4,43,3A,A4,3D,0A,
450578,000001C2,false,Rx,0,8,2C,54,A4,45,5A,A4,3C,0A,
450788,000001C5,false,Rx,0,8,F9,34,A4,42,CA,A3,45,0A,
450997,000001C6,false,Rx,0,8,DF,54,A4,45,5A,A4,3D,0A,
451206,000001C9,false,Rx,0,8,FB,34,A4,43,BA,A3,43,0A,
451417,000001CA,false,Rx,0,8,12,34,A4,43,3A,A4,3C,0A,
451633,000001CD,false,Rx,0,8,C7,64,A4,45,DA,A3,45,0A,
451843,000001CE,false,Rx,0,8,3A,64,A4,45,6A,A4,40,0A,
452053,000000BB,false,Rx,0,8,8C,DD,FF,D5,B5,2B,00,0E,
456747,0000015B,false,Rx,0,8,BA,50,00,03,00,00,00,00,
457130,000000BA,false,Rx,0,8,43,4F,29,00,00,00,00,28,
457341,18FED007,true,Rx,0,6,00,03,A0,AB,9F,AB,00,00,
457557,18FED008,true,Rx,0,7,7E,AB,0B,80,F6,FE,00,00,
457767,18FED009,true,Rx,0,7,00,00,00,00,00,00,00,00,
461905,000000BB,false,Rx,0,8,15,DE,FF,D1,95,2B,00,10,
466807,0000015B,false,Rx,0,8,14,51,00,03,00,00,00,00,
467018,000000BA,false,Rx,0,8,88,40,29,00,00,00,00,39,
467227,18FED007,true,Rx,0,6,00,03,A0,AB,9F,AB,00,00,
467612,18FED008,true,Rx,0,7,7E,AB,00,80,F6,FE,00,00,
467823,18FED009,true,Rx,0,7,00,00,00,00,00,00,00,00,
471508,000001B4,false,Rx,0,8,50,75,A4,48,7A,A4,48,9A,
471725,000001C0,false,Rx,0,8,17,75,A4,47,8A,A4,46,9A,
471934,000000BB,false,Rx,0,8,82,DF,FF,D1,95,2B,00,12,
472143,000001B0,false,Rx,0,8,37,75,A4,48,9A,A4,49,9A,
472534,000001B8,false,Rx,0,8,1B,A5,A4,4A,AA,A4,49,9A,
472744,000001BC,false,Rx,0,8,62,35,A4,43,3A,A4,45,9A,
472953,000001C4,false,Rx,0,8,0C,85,A4,49,9A,A4,48,9A,
473162,000001C8,false,Rx,0,8,12,75,A4,46,6A,A4,46,9A,
473373,000001CC,false,Rx,0,8,6B,85,A4,48,8A,A4,48,9A,
476504,000001B5,false,Rx,0,8,65,75,A4,47,8A,A4,48,9A,
476714,000001C1,false,Rx,0,8,AC,75,A4,45,8A,A4,4A,9A,
477108,000000BA,false,Rx,0,8,3A,41,29,00,00,00,00,2A,
477319,0000015B,false,Rx,0,8,1A,52,00,03,00,00,00,00,
477536,000001B1,false,Rx,0,8,BA,85,A4,48,9A,A4,4C,9A,
477751,000001B2,false,Rx,0,8,7A,B5,A4,4D,CA,A4,4B,9A,
477973,000001B6,false,Rx,0,8,FC,85,A4,48,8A,A4,49,9A,
478182,000001B9,false,Rx,0,8,E8,B5,A4,49,9A,A4,48,9A,
478394,000001BA,false,Rx,0,8,F5,A5,A4,48,9A,A4,49,9A,
478611,000001BD,false,Rx,0,8,73,35,A4,43,4A,A4,4A,9A,
478821,000001BE,false,Rx,0,8,C3,A5,A4,49,9A,A4,49,9A,
479030,000001C2,false,Rx,0,8,1D,95,A4,4A,AA,A4,49,9A,
479243,000001C5,false,Rx,0,8,12,85,A4,49,AA,A4,4C,9A,
479459,000001C6,false,Rx,0,8,9C,B5,A4,4C,BA,A4,4C,9A,
479669,000001C9,false,Rx,0,8,30,55,A4,46,6A,A4,49,9A,
479879,000001CA,false,Rx,0,8,55,95,A4,49,8A,A4,48,9A,
480263,000001CD,false,Rx,0,8,39,85,A4,47,9A,A4,49,9A,
480479,000001CE,false,Rx,0,8,A3,B5,A4,4A,AA,A4,4A,9A,
480689,18FED007,true,Rx,0,6,00,03,A0,AB,9F,AB,00,00,
480899,18FED008,true,Rx,0,7,7E,AB,00,80,F6,FE,00,00,
481108,18FED009,true,Rx,0,7,00,00,00,00,00,00,00,00,
481499,18FED00A,true,Rx,0,8,00,00,30,1E,00,41,00,00,
481880,000000BB,false,Rx,0,8,73,D0,FF,D1,95,2B,00,14,
486799,0000015B,false,Rx,0,8,2B,53,00,03,00,00,00,00,
487009,000000BA,false,Rx,0,8,C9,42,29,00,00,00,00,2B,
487219,18FED007,true,Rx,0,6,00,03,AB,AB,AA,AB,00,00,
487609,18FED008,true,Rx,0,7,7E,AB,0B,80,F6,FE,00,00,
487819,18FED009,true,Rx,0,7,00,00,00,00,00,00,00,00,
491856,000000BB,false,Rx,0,8,67,D1,FF,D5,B5,2B,00,16,
496786,0000015B,false,Rx,0,8,8D,54,00,03,00,00,00,00,
496998,000000BA,false,Rx,0,8,A9,43,29,00,00,00,00,30,
497223,18FED007,true,Rx,0,6,00,03,A0,AB,9F,AB,00,00,
497609,18FED008,true,Rx,0,7,7E,AB,00,80,F6,FE,00,00,
497819,18FED009,true,Rx,0,7,00,00,00,00,00,00,00,00,
501964,000000BB,false,Rx,0,8,6E,D2,FF,D1,95,2B,00,00,
503743,000001B4,false,Rx,0,8,D9,66,A4,46,6A,A4,47,0A,
503952,000001C0,false,Rx,0,8,DE,36,A4,45,6A,A4,43,0A,
504162,000001B0,false,Rx,0,8,C2,26,A4,43,2A,A4,42,0A,
504374,000001B8,false,Rx,0,8,AE,56,A4,43,5A,A4,43,0A,
504591,000001BC,false,Rx,0,8,F4,26,A4,43,3A,A4,43,0A,
504800,000001C4,false,Rx,0,8,FA,36,A4,45,5A,A4,43,0A,
505010,000001C8,false,Rx,0,8,30,66,A4,46,5A,A4,46,0A,
505220,000001CC,false,Rx,0,8,6E,56,A4,46,6A,A4,46,0A,
506825,0000015B,false,Rx,0,8,04,55,00,03,00,00,00,00,
507035,000000BA,false,Rx,0,8,F5,44,29,00,00,00,00,2C,
507247,18FED007,true,Rx,0,6,00,03,AB,AB,AA,AB,00,00,
507635,18FED008,true,Rx,0,7,7E,AB,0B,80,F6,FE,00,00,
507845,18FED009,true,Rx,0,7,00,00,00,00,00,00,00,00,
508401,000001B5,false,Rx,0,8,B8,76,A4,46,FA,A3,46,0A,
508790,000001C1,false,Rx,0,8,48,36,A4,42,BA,A3,45,0A,
508999,000001B1,false,Rx,0,8,41,26,A4,42,AA,A3,46,0A,
509208,000001B2,false,Rx,0,8,D4,66,A4,47,6A,A4,3F,0A,
509419,000001B6,false,Rx,0,8,BE,66,A4,46,5A,A4,40,0A,
509636,000001B9,false,Rx,0,8,FA,56,A4,42,BA,A3,47,0A,
509846,000001BA,false,Rx,0,8,62,A6,A4,46,7A,A4,42,0A,
510055,000001BD,false,Rx,0,8,07,56,A4,43,AA,A3,43,0A,
510268,000001BE,false,Rx,0,8,83,56,A4,43,3A,A4,3D,0A,
510483,000001C2,false,Rx,0,8,78,56,A4,45,5A,A4,3C,0A,
510692,000001C5,false,Rx,0,8,D3,36,A4,42,CA,A3,45,0A,
510902,000001C6,false,Rx,0,8,13,56,A4,46,5A,A4,3D,0A,
511112,000001C9,false,Rx,0,8,C6,36,A4,43,BA,A3,43,0A,
511503,000001CA,false,Rx,0,8,2F,36,A4,43,3A,A4,3C,0A,
511712,000001CD,false,Rx,0,8,57,66,A4,45,DA,A3,45,0A,
511922,000001CE,false,Rx,0,8,66,66,A4,45,5A,A4,40,0A,
512131,000000BB,false,Rx,0,8,E8,D3,FF,D5,B5,2B,00,18,
516746,0000015B,false,Rx,0,8,54,56,00,03,00,00,00,00,
517128,000000BA,false,Rx,0,8,57,45,29,00,00,00,00,2D,
517341,18FED007,true,Rx,0,6,00,03,A0,AB,9F,AB,00,00,
517552,18FED008,true,Rx,0,7,7E,AB,00,80,F6,FE,00,00,
517762,18FED009,true,Rx,0,7,00,00,00,00,00,00,00,00,
521818,000000BB,false,Rx,0,8,87,D4,FF,D1,95,2B,00,1A,
526745,0000015B,false,Rx,0,8,4F,57,00,03,00,00,00,00,
527128,000000BA,false,Rx,0,8,71,46,29,00,00,00,00,3E,
527341,18FED007,true,Rx,0,6,00,03,A0,AB,9F,AB,00,00,
527552,18FED008,true,Rx,0,7,7E,AB,00,80,F6,FE,00,00,
527761,18FED009,true,Rx,0,7,00,00,00,00,00,00,00,00,
531616,000001B4,false,Rx,0,8,45,77,A4,48,7A,A4,48,EA,
531833,000001C0,false,Rx,0,8,D6,67,A4,47,8A,A4,46,EA,
532043,000000BB,false,Rx,0,8,F0,D5,FF,D1,95,2B,00,1C,
532255,000001B0,false,Rx,0,8,77,87,A4,49,8A,A4,48,EA,
532471,000001B8,false,Rx,0,8,1A,A7,A4,4A,AA,A4,48,EA,
532681,000001BC,false,Rx,0,8,E5,37,A4,44,4A,A4,45,EA,
532891,000001C4,false,Rx,0,8,0A,87,A4,49,9A,A4,48,EA,
533102,000001C8,false,Rx,0,8,33,87,A4,46,6A,A4,46,EA,
533313,000001CC,false,Rx,0,8,A6,77,A4,48,8A,A4,48,EA,
536638,000001B5,false,Rx,0,8,A7,87,A4,47,8A,A4,48,EA,
536848,000001C1,false,Rx,0,8,6C,77,A4,46,7A,A4,4A,EA,
537058,000000BA,false,Rx,0,8,94,47,29,00,00,00,00,2F,
537270,0000015B,false,Rx,0,8,65,58,00,03,00,00,00,00,
537487,000001B1,false,Rx,0,8,C5,87,A4,48,8A,A4,4B,EA,
537697,000001B2,false,Rx,0,8,93,B7,A4,4D,BA,A4,4B,EA,
537907,000001B6,false,Rx,0,8,BD,87,A4,49,8A,A4,48,EA,
538117,000001B9,false,Rx,0,8,96,A7,A4,4A,9A,A4,48,EA,
538328,000001BA,false,Rx,0,8,94,A7,A4,48,9A,A4,49,EA,
538545,000001BD,false,Rx,0,8,CD,47,A4,43,4A,A4,4A,EA,
538755,000001BE,false,Rx,0,8,75,A7,A4,49,9A,A4,49,EA,
539137,000001C2,false,Rx,0,8,DE,97,A4,49,9A,A4,48,EA,
539350,000001C5,false,Rx,0,8,CB,87,A4,48,AA,A4,4B,EA,
539570,000001C6,false,Rx,0,8,E9,C7,A4,4C,BA,A4,4C,EA,
539791,000001C9,false,Rx,0,8,F8,67,A4,46,6A,A4,4A,EA,
540001,000001CA,false,Rx,0,8,C9,97,A4,48,9A,A4,48,EA,
540213,000001CD,false,Rx,0,8,A0,77,A4,47,9A,A4,49,EA,
540429,000001CE,false,Rx,0,8,02,A7,A4,4A,AA,A4,4A,EA,
540654,18FED007,true,Rx,0,6,00,03,AB,AB,AA,AB,00,00,
540864,18FED008,true,Rx,0,7,7E,AB,0B,80,F6,FE,00,00,
541250,18FED009,true,Rx,0,7,00,00,00,00,00,00,00,00,
541981,000000BB,false,Rx,0,8,FA,D6,FF,D5,B5,2B,00,1E,
546885,0000015B,false,Rx,0,8,66,59,00,03,00,00,00,00,
547095,000000BA,false,Rx,0,8,D8,48,29,00,00,00,00,21,
547307,18FED007,true,Rx,0,6,00,03,A0,AB,9F,AB,00,00,
547518,18FED008,true,Rx,0,7,7E,AB,00,80,F6,FE,00,00,
547901,18FED009,true,Rx,0,7,00,00,00,00,00,00,00,00,
551935,000000BB,false,Rx,0,8,94,D7,FF,D1,95,2B,00,02,
556839,0000015B,false,Rx,0,8,73,5A,00,03,00,00,00,00,
557052,000000BA,false,Rx,0,8,D5,49,29,00,00,00,00,30,
557277,18FED007,true,Rx,0,6,00,03,A0,AB,9F,AB,00,00,
557494,18FED008,true,Rx,0,7,7E,AB,00,80,F6,FE,00,00,
557908,18FED009,true,Rx,0,7,00,00,00,00,00,00,00,00,
561860,000000BB,false,Rx,0,8,B2,D8,FF,D1,95,2B,00,00,
563636,000001B4,false,Rx,0,8,49,68,A4,46,6A,A4,47,0A,
564019,000001C0,false,Rx,0,8,C6,38,A4,45,6A,A4,43,0A,
564229,000001B0,false,Rx,0,8,5D,28,A4,43,2A,A4,42,0A,
564446,000001B8,false,Rx,0,8,3F,58,A4,43,5A,A4,43,0A,
564657,000001BC,false,Rx,0,8,1F,28,A4,43,3A,A4,43,0A,
564866,000001C4,false,Rx,0,8,D0,38,A4,45,5A,A4,43,0A,
565076,000001C8,false,Rx,0,8,B4,68,A4,46,5A,A4,46,0A,
565288,000001CC,false,Rx,0,8,90,58,A4,46,6A,A4,46,0A,
566892,0000015B,false,Rx,0,8,8C,5B,00,03,00,00,00,00,
567102,000000BA,false,Rx,0,8,91,4A,29,00,00,00,00,22,
567313,18FED007,true,Rx,0,6,00,03,AB,AB,AA,AB,00,00,
567525,18FED008,true,Rx,0,7,7E,AB,17,80,F6,FE,00,00,
567908,18FED009,true,Rx,0,7,00,00,00,00,00,00,00,00,
568470,000001B5,false,Rx,0,8,06,78,A4,46,FA,A3,46,0A,
568680,000001C1,false,Rx,0,8,9C,38,A4,42,BA,A3,45,0A,
568890,000001B1,false,Rx,0,8,98,28,A4,42,AA,A3,46,0A,
569100,000001B2,false,Rx,0,8,42,68,A4,47,6A,A4,3F,0A,
569312,000001B6,false,Rx,0,8,DF,68,A4,46,5A,A4,40,0A,
569526,000001B9,false,Rx,0,8,ED,58,A4,42,BA,A3,47,0A,
569909,000001BA,false,Rx,0,8,B0,A8,A4,46,7A,A4,42,0A,
570119,000001BD,false,Rx,0,8,AD,58,A4,43,AA,A3,43,0A,
570331,000001BE,false,Rx,0,8,B6,58,A4,43,3A,A4,3D,0A,
570547,000001C2,false,Rx,0,8,E9,58,A4,45,5A,A4,3C,0A,
570757,000001C5,false,Rx,0,8,8F,38,A4,42,CA,A3,45,0A,
570967,000001C6,false,Rx,0,8,35,58,A4,45,5A,A4,3D,0A,
571177,000001C9,false,Rx,0,8,BC,38,A4,43,BA,A3,43,0A,
571389,000001CA,false,Rx,0,8,6E,38,A4,43,3A,A4,3C,0A,
571605,000001CD,false,Rx,0,8,BA,68,A4,45,DA,A3,45,0A,
571815,000001CE,false,Rx,0,8,F9,68,A4,45,5A,A4,40,0A,
572026,000000BB,false,Rx,0,8,18,D9,FF,D5,B5,2B,00,04,
575810,18FED003,true,Rx,0,6,00,00,00,00,00,00,00,00,
575815,18FED004,true,Rx,0,3,00,00,00,00,00,00,00,00,
576036,1A55545F,true,Rx,0,8,83,32,30,51,35,A6,00,00,
576790,0000015B,false,Rx,0,8,B3,5C,00,03,00,00,00,00,
577000,000000BA,false,Rx,0,8,5E,4B,29,00,00,00,00,23,
577219,18FED007,true,Rx,0,6,00,03,AB,AB,AA,AB,00,00,
577605,18FED008,true,Rx,0,7,7E,AB,0B,80,F6,FE,00,00,
577815,18FED009,true,Rx,0,7,00,00,00,00,00,00,00,00,
578196,18FED00A,true,Rx,0,8,00,00,30,1E,00,41,00,00,
581881,000000BB,false,Rx,0,8,BA,DA,FF,D5,B5,2B,00,06,
586784,0000015B,false,Rx,0,8,F9,5D,00,03,00,00,00,00,
586993,000000BA,false,Rx,0,8,56,4C,29,00,00,00,00,34,
587377,18FED007,true,Rx,0,6,00,03,A0,AB,9F,AB,00,00,
587588,18FED008,true,Rx,0,7,7E,AB,0B,80,F6,FE,00,00,
587798,18FED009,true,Rx,0,7,00,00,00,00,00,00,00,00,
591562,000001B4,false,Rx,0,8,A4,89,A4,48,7A,A4,48,4A,
591772,000001C0,false,Rx,0,8,D4,69,A4,48,8A,A4,46,4A,
591982,000000BB,false,Rx,0,8,D1,DB,FF,D1,95,2B,00,08,
592192,000001B0,false,Rx,0,8,C3,89,A4,49,9A,A4,49,4A,
592404,000001B8,false,Rx,0,8,9E,A9,A4,4A,AA,A4,49,4A,
592620,000001BC,false,Rx,0,8,EE,39,A4,43,4A,A4,44,4A,
592830,000001C4,false,Rx,0,8,D0,99,A4,49,9A,A4,49,4A,
593040,000001C8,false,Rx,0,8,AF,79,A4,46,6A,A4,46,4A,
593428,000001CC,false,Rx,0,8,89,79,A4,48,8A,A4,48,4A,
596553,000001B5,false,Rx,0,8,F2,89,A4,47,8A,A4,48,4A,
596763,000001C1,false,Rx,0,8,FD,79,A4,45,8A,A4,4A,4A,
596973,000000BA,false,Rx,0,8,D0,4D,29,00,00,00,00,25,
597183,0000015B,false,Rx,0,8,2E,5E,00,03,00,00,00,00,
597573,000001B1,false,Rx,0,8,8E,99,A4,48,9A,A4,4B,4A,
597783,000001B2,false,Rx,0,8,4B,C9,A4,4D,CA,A4,4B,4A,
597993,000001B6,false,Rx,0,8,1B,89,A4,48,8A,A4,48,4A,
598203,000001B9,false,Rx,0,8,0D,A9,A4,49,9A,A4,48,4A,
598414,000001BA,false,Rx,0,8,9F,B9,A4,49,9A,A4,49,4A,
598628,000001BD,false,Rx,0,8,BC,49,A4,43,4A,A4,4A,4A,
598838,000001BE,false,Rx,0,8,F8,A9,A4,49,9A,A4,4A,4A,
599048,000001C2,false,Rx,0,8,3C,99,A4,4A,AA,A4,48,4A,
599262,000001C5,false,Rx,0,8,E5,79,A4,48,AA,A4,4C,4A,
599479,000001C6,false,Rx,0,8,B6,C9,A4,4C,CA,A4,4B,4A,
599689,000001C9,false,Rx,0,8,EA,69,A4,46,6A,A4,49,4A,
599899,000001CA,false,Rx,0,8,75,99,A4,49,9A,A4,48,4A,
600108,000001CD,false,Rx,0,8,0A,79,A4,47,9A,A4,49,4A,
600319,000001CE,false,Rx,0,8,48,A9,A4,4A,AA,A4,4A,4A,
600709,18FED007,true,Rx,0,6,00,03,AB,AB,AA,AB,00,00,
600919,18FED008,true,Rx,0,7,7E,AB,0B,80,F6,FE,00,00,
601135,18FED009,true,Rx,0,7,00,00,00,00,00,00,00,00,
601534,1A55540A,true,Rx,0,8,00,00,00,00,00,00,00,00,
601744,1A55540B,true,Rx,0,8,00,00,00,00,FE,FE,FE,FE,
601955,000000BB,false,Rx,0,8,54,DC,FF,D5,B5,2B,00,0A,
602340,1A55540C,true,Rx,0,8,00,00,00,00,00,00,00,00,
602557,1A55540D,true,Rx,0,8,00,00,00,00,FE,FE,FE,FE,
602940,1A555410,true,Rx,0,8,00,00,00,00,00,00,00,00,
603150,1A555411,true,Rx,0,8,00,00,00,00,FE,FE,FE,FE,
603541,1A555412,true,Rx,0,8,00,00,00,00,00,00,00,00,
603751,1A555413,true,Rx,0,8,00,00,00,00,FE,FE,FE,FE,
604133,1A555414,true,Rx,0,8,00,00,00,00,00,00,00,00,
604345,1A555415,true,Rx,0,8,00,00,00,00,FE,FE,FE,FE,
604734,1A555416,true,Rx,0,8,00,00,00,00,00,00,00,00,
604943,1A555417,true,Rx,0,8,00,00,00,00,FE,FE,FE,FE,
605328,1A555418,true,Rx,0,8,00,00,00,00,00,00,00,00,
605545,1A555419,true,Rx,0,8,00,00,00,00,FE,FE,FE,FE,
605927,1A55541A,true,Rx,0,8,FE,FE,FE,FE,FE,FE,FE,FE,
606138,1A55541B,true,Rx,0,8,FE,FE,FE,FE,FE,FE,FE,FE,
606530,1A55541E,true,Rx,0,8,00,00,00,00,00,00,00,00,
606753,1A55541F,true,Rx,0,8,00,00,00,00,FE,FE,FE,FE,
607136,0000015B,false,Rx,0,8,45,5F,00,03,00,00,00,00,
607348,18FED007,true,Rx,0,6,00,03,A0,AB,9F,AB,00,00,
607564,18FED008,true,Rx,0,7,7E,AB,00,80,F6,FE,00,00,
607774,18FED009,true,Rx,0,7,00,00,00,00,00,00,00,00,
607983,1BFFDA19,true,Rx,0,2,00,00,00,00,00,00,00,00,
608193,000000BA,false,Rx,0,8,8B,4E,29,00,00,00,00,26,
608404,1BFFDA1A,true,Rx,0,2,00,08,00,00,00,00,00,00,
611866,000000BB,false,Rx,0,8,93,DD,FF,D1,95,2B,00,0C,
616052,18FED002,true,Rx,0,3,C0,00,10,00,00,00,00,00,
616797,0000015B,false,Rx,0,8,BA,50,00,03,00,00,00,00,
617007,000000BA,false,Rx,0,8,E3,4F,29,00,00,00,00,30,
617390,18FED007,true,Rx,0,6,00,03,A0,AB,9F,AB,00,00,
617606,18FED008,true,Rx,0,7,7E,AB,00,80,F6,FE,00,00,
617816,18FED009,true,Rx,0,7,00,00,00,00,00,00,00,00,
621865,000000BB,false,Rx,0,8,30,DE,FF,D1,95,2B,00,00,
623814,000001C0,false,Rx,0,8,53,3A,A4,45,6A,A4,43,0A,
624197,000001B0,false,Rx,0,8,9E,2A,A4,43,2A,A4,42,0A,
624408,000001B4,false,Rx,0,8,A5,6A,A4,46,6A,A4,47,0A,
624624,000001BC,false,Rx,0,8,70,2A,A4,43,3A,A4,43,0A,
624834,000001B8,false,Rx,0,8,3E,5A,A4,43,5A,A4,43,0A,
625043,000001C4,false,Rx,0,8,92,3A,A4,45,5A,A4,43,0A,
625255,000001C8,false,Rx,0,8,8C,6A,A4,46,5A,A4,46,0A,
625477,000001CC,false,Rx,0,8,93,5A,A4,46,6A,A4,46,0A,
626756,0000015B,false,Rx,0,8,14,51,00,03,00,00,00,00,
627138,000000BA,false,Rx,0,8,00,40,29,00,00,00,00,27,
627351,18FED007,true,Rx,0,6,00,03,AB,AB,AA,AB,00,00,
627566,18FED008,true,Rx,0,7,7E,AB,0B,80,F6,FE,00,00,
627776,18FED009,true,Rx,0,7,00,00,00,00,00,00,00,00,
628683,000001C1,false,Rx,0,8,75,5A,A4,41,BA,A3,45,0A,
628892,000001C2,false,Rx,0,8,67,5A,A4,45,5A,A4,3C,0A,
629102,000001B1,false,Rx,0,8,23,2A,A4,42,AA,A3,46,0A,
629313,000001B2,false,Rx,0,8,BB,6A,A4,47,6A,A4,3F,0A,
629529,000001B5,false,Rx,0,8,8C,7A,A4,46,FA,A3,46,0A,
629739,000001B6,false,Rx,0,8,2B,6A,A4,46,5A,A4,40,0A,
629961,000001B9,false,Rx,0,8,E7,5A,A4,42,BA,A3,47,0A,
630190,000001BA,false,Rx,0,8,A1,AA,A4,46,7A,A4,42,0A,
630416,000001BD,false,Rx,0,8,19,5A,A4,43,AA,A3,43,0A,
630632,000001BE,false,Rx,0,8,C7,5A,A4,43,3A,A4,3D,0A,
630842,000001C5,false,Rx,0,8,21,3A,A4,42,CA,A3,45,0A,
631052,000001C6,false,Rx,0,8,B7,5A,A4,45,5A,A4,3D,0A,
631262,000001C9,false,Rx,0,8,7A,3A,A4,43,BA,A3,43,0A,
631645,000001CA,false,Rx,0,8,7E,3A,A4,43,3A,A4,3C,0A,
631854,000001CD,false,Rx,0,8,D8,6A,A4,45,DA,A3,45,0A,
632063,000000BB,false,Rx,0,8,15,DF,FF,D5,B5,2B,00,0E,
632275,000001CE,false,Rx,0,8,EE,6A,A4,45,5A,A4,40,0A,
636853,0000015B,false,Rx,0,8,1A,52,00,03,00,00,00,00,
637076,000000BA,false,Rx,0,8,C7,41,29,00,00,00,00,28,
637307,18FED007,true,Rx,0,6,00,03,AB,AB,AA,AB,00,00,
637523,18FED008,true,Rx,0,7,7E,AB,0B,80,F6,FE,00,00,
637904,18FED009,true,Rx,0,7,00,00,00,00,00,00,00,00,
641834,000000BB,false,Rx,0,8,44,D0,FF,D5,B5,2B,00,10,
645596,18FED005,true,Rx,0,2,00,00,00,00,00,00,00,00,
646853,0000015B,false,Rx,0,8,2B,53,00,03,00,00,00,00,
647063,000000BA,false,Rx,0,8,11,42,29,00,00,00,00,39,
647275,18FED007,true,Rx,0,6,00,03,A0,AB,9F,AB,00,00,
647518,18FED008,true,Rx,0,7,7E,AB,00,80,F6,FE,00,00,
647913,18FED009,true,Rx,0,7,00,00,00,00,00,00,00,00,
651593,000001B4,false,Rx,0,8,CD,8B,A4,48,7A,A4,47,9A,
651809,000001C0,false,Rx,0,8,A8,7B,A4,47,8A,A4,46,9A,
652030,000000BB,false,Rx,0,8,50,D1,FF,D1,95,2B,00,12,
652319,000001B0,false,Rx,0,8,24,8B,A4,49,8A,A4,49,9A,
652535,000001B8,false,Rx,0,8,DC,AB,A4,49,AA,A4,49,9A,
652745,000001BC,false,Rx,0,8,8D,3B,A4,43,4A,A4,45,9A,
652955,000001C4,false,Rx,0,8,46,9B,A4,49,9A,A4,48,9A,
653165,000001C8,false,Rx,0,8,C3,7B,A4,47,6A,A4,46,9A,
653377,000001CC,false,Rx,0,8,63,7B,A4,48,8A,A4,48,9A,
656639,000001B5,false,Rx,0,8,2C,8B,A4,47,8A,A4,49,9A,
656867,000001C1,false,Rx,0,8,21,7B,A4,45,7A,A4,4A,9A,
657089,000000BA,false,Rx,0,8,F4,43,29,00,00,00,00,2A,
657321,0000015B,false,Rx,0,8,8D,54,00,03,00,00,00,00,
657537,000001B1,false,Rx,0,8,6C,9B,A4,48,9A,A4,4B,9A,
657746,000001B2,false,Rx,0,8,A9,CB,A4,4D,CA,A4,4B,9A,
657956,000001B6,false,Rx,0,8,0C,8B,A4,48,8A,A4,48,9A,
658165,000001B9,false,Rx,0,8,73,BB,A4,4A,9A,A4,49,9A,
658377,000001BA,false,Rx,0,8,C2,AB,A4,48,9A,A4,49,9A,
658593,000001BD,false,Rx,0,8,AB,3B,A4,44,4A,A4,4A,9A,
658803,000001BE,false,Rx,0,8,1F,AB,A4,49,9A,A4,4A,9A,
659013,000001C2,false,Rx,0,8,9C,AB,A4,4A,AA,A4,48,9A,
659223,000001C5,false,Rx,0,8,C1,7B,A4,48,AA,A4,4C,9A,
659434,000001C6,false,Rx,0,8,28,BB,A4,4C,BA,A4,4B,9A,
659664,000001C9,false,Rx,0,8,CB,5B,A4,46,6A,A4,49,9A,
659873,000001CA,false,Rx,0,8,D3,9B,A4,49,9A,A4,48,9A,
660260,000001CD,false,Rx,0,8,40,7B,A4,47,9A,A4,49,9A,
660493,000001CE,false,Rx,0,8,4F,AB,A4,4A,AA,A4,4A,9A,
660702,18FED007,true,Rx,0,6,00,03,AB,AB,AA,AB,00,00,
660912,18FED008,true,Rx,0,7,7E,AB,0B,80,F6,FE,00,00,
661121,18FED009,true,Rx,0,7,00,00,00,00,00,00,00,00,
661855,000000BB,false,Rx,0,8,7C,D2,FF,D5,B5,2B,00,14,
666765,0000015B,false,Rx,0,8,04,55,00,03,00,00,00,00,
667147,000000BA,false,Rx,0,8,34,44,29,00,00,00,00,2B,
667359,18FED007,true,Rx,0,6,00,03,AB,AB,AA,AB,00,00,
667574,18FED008,true,Rx,0,7,7E,AB,0B,80,F6,FE,00,00,
667799,18FED009,true,Rx,0,7,00,00,00,00,00,00,00,00,
671922,000000BB,false,Rx,0,8,45,D3,FF,D5,B5,2B,00,16,
676877,0000015B,false,Rx,0,8,54,56,00,03,00,00,00,00,
677095,000000BA,false,Rx,0,8,CB,45,29,00,00,00,00,30,
677307,18FED007,true,Rx,0,6,00,03,A0,AB,9F,AB,00,00,
677523,18FED008,true,Rx,0,7,7E,AB,00,80,F6,FE,00,00,
677905,18FED009,true,Rx,0,7,00,00,00,00,00,00,00,00,
678115,18FED00A,true,Rx,0,8,00,00,30,1E,00,41,00,00,
681846,000000BB,false,Rx,0,8,DA,D4,FF,D1,95,2B,00,00,
683793,000001B4,false,Rx,0,8,BB,6C,A4,46,6A,A4,47,0A,
684002,000001C0,false,Rx,0,8,9E,3C,A4,45,6A,A4,43,0A,
684212,000001B0,false,Rx,0,8,CE,2C,A4,43,2A,A4,42,0A,
684423,000001B8,false,Rx,0,8,3A,5C,A4,43,5A,A4,43,0A,
684639,000001BC,false,Rx,0,8,37,2C,A4,43,3A,A4,43,0A,
684849,000001C4,false,Rx,0,8,10,3C,A4,45,5A,A4,43,0A,
685059,000001C8,false,Rx,0,8,7B,6C,A4,46,5A,A4,46,0A,
685272,000001CC,false,Rx,0,8,0A,5C,A4,46,6A,A4,46,0A,
686900,0000015B,false,Rx,0,8,4F,57,00,03,00,00,00,00,
687110,000000BA,false,Rx,0,8,A9,46,29,00,00,00,00,2C,
687323,18FED007,true,Rx,0,6,00,03,AB,AB,AA,AB,00,00,
687538,18FED008,true,Rx,0,7,7E,AB,17,80,F6,FE,00,00,
687921,18FED009,true,Rx,0,7,00,00,00,00,00,00,00,00,
688482,000001B5,false,Rx,0,8,49,7C,A4,46,FA,A3,46,0A,
688691,000001C1,false,Rx,0,8,71,5C,A4,41,BA,A3,45,0A,
688902,000001B1,false,Rx,0,8,4D,2C,A4,42,AA,A3,46,0A,
689112,000001B2,false,Rx,0,8,C1,6C,A4,47,6A,A4,3F,0A,
689323,000001B6,false,Rx,0,8,11,6C,A4,46,5A,A4,40,0A,
689539,000001B9,false,Rx,0,8,47,5C,A4,42,BA,A3,47,0A,
689921,000001BA,false,Rx,0,8,3F,AC,A4,46,7A,A4,42,0A,
690150,000001BD,false,Rx,0,8,33,5C,A4,43,AA,A3,43,0A,
690375,000001BE,false,Rx,0,8,BB,5C,A4,43,3A,A4,3D,0A,
690612,000001C2,false,Rx,0,8,C9,5C,A4,45,5A,A4,3C,0A,
690651,000001C5,false,Rx,0,8,D6,3C,A4,42,CA,A3,45,0A,
690934,000001C6,false,Rx,0,8,66,5C,A4,45,5A,A4,3D,0A,
691145,000001C9,false,Rx,0,8,70,3C,A4,43,BA,A3,43,0A,
691358,000001CA,false,Rx,0,8,CC,3C,A4,43,3A,A4,3C,0A,
691574,000001CD,false,Rx,0,8,BB,6C,A4,45,DA,A3,45,0A,
691785,000001CE,false,Rx,0,8,82,6C,A4,45,5A,A4,40,0A,
692167,000000BB,false,Rx,0,8,C7,D5,FF,D5,B5,2B,00,18,
696889,0000015B,false,Rx,0,8,65,58,00,03,00,00,00,00,
697099,000000BA,false,Rx,0,8,69,47,29,00,00,00,00,2D,
697310,18FED007,true,Rx,0,6,00,03,AB,AB,AA,AB,00,00,
697527,18FED008,true,Rx,0,7,7E,AB,17,80,F6,FE,00,00,
697910,18FED009,true,Rx,0,7,00,00,00,00,00,00,00,00,
701961,000000BB,false,Rx,0,8,2F,D6,FF,D5,B5,2B,00,1A,
706866,0000015B,false,Rx,0,8,66,59,00,03,00,00,00,00,
707076,000000BA,false,Rx,0,8,B9,48,29,00,00,00,00,3E,
707288,18FED007,true,Rx,0,6,00,03,A0,AB,9F,AB,00,00,
707504,18FED008,true,Rx,0,7,7E,AB,00,80,F6,FE,00,00,
707886,18FED009,true,Rx,0,7,00,00,00,00,00,00,00,00,
711625,000001B4,false,Rx,0,8,C0,7D,A4,48,8A,A4,48,EA,
711920,000001C0,false,Rx,0,8,9B,7D,A4,47,8A,A4,46,EA,
711925,000000BB,false,Rx,0,8,1C,D7,FF,D1,95,2B,00,1C,
712309,000001B0,false,Rx,0,8,8E,8D,A4,49,8A,A4,48,EA,
712524,000001B8,false,Rx,0,8,EE,AD,A4,4A,AA,A4,49,EA,
712734,000001BC,false,Rx,0,8,E1,3D,A4,43,3A,A4,45,EA,
712944,000001C4,false,Rx,0,8,ED,9D,A4,49,9A,A4,49,EA,
713154,000001C8,false,Rx,0,8,BF,7D,A4,47,6A,A4,46,EA,
713365,000001CC,false,Rx,0,8,42,7D,A4,48,8A,A4,48,EA,
716680,000001B5,false,Rx,0,8,0B,8D,A4,47,8A,A4,48,EA,
716889,000001C1,false,Rx,0,8,05,7D,A4,45,7A,A4,4A,EA,
717099,000000BA,false,Rx,0,8,B4,49,29,00,00,00,00,2F,
717310,0000015B,false,Rx,0,8,73,5A,00,03,00,00,00,00,
717525,000001B1,false,Rx,0,8,3F,8D,A4,48,8A,A4,4B,EA,
717735,000001B2,false,Rx,0,8,6B,BD,A4,4D,CA,A4,4B,EA,
717945,000001B6,false,Rx,0,8,F0,8D,A4,49,8A,A4,48,EA,
718155,000001B9,false,Rx,0,8,25,AD,A4,49,9A,A4,48,EA,
718367,000001BA,false,Rx,0,8,7C,AD,A4,48,9A,A4,4A,EA,
718583,000001BD,false,Rx,0,8,F8,3D,A4,43,4A,A4,4A,EA,
718793,000001BE,false,Rx,0,8,ED,AD,A4,49,9A,A4,49,EA,
719175,000001C2,false,Rx,0,8,69,AD,A4,4A,9A,A4,48,EA,
719388,000001C5,false,Rx,0,8,81,8D,A4,48,AA,A4,4C,EA,
719603,000001C6,false,Rx,0,8,02,CD,A4,4C,CA,A4,4C,EA,
719813,000001C9,false,Rx,0,8,73,5D,A4,46,6A,A4,49,EA,
720022,000001CA,false,Rx,0,8,7C,9D,A4,49,9A,A4,49,EA,
720233,000001CD,false,Rx,0,8,3F,7D,A4,46,9A,A4,49,EA,
720449,000001CE,false,Rx,0,8,18,AD,A4,4A,AA,A4,4A,EA,
720659,18FED007,true,Rx,0,6,00,03,AB,AB,AA,AB,00,00,
720869,18FED008,true,Rx,0,7,7E,AB,0B,80,F6,FE,00,00,
721252,18FED009,true,Rx,0,7,00,00,00,00,00,00,00,00,
722003,000000BB,false,Rx,0,8,D8,D8,FF,D5,B5,2B,00,1E,
726769,0000015B,false,Rx,0,8,8C,5B,00,03,00,00,00,00,
727151,000000BA,false,Rx,0,8,85,4A,29,00,00,00,00,21,
727362,18FED007,true,Rx,0,6,00,03,AB,AB,AA,AB,00,00,
727578,18FED008,true,Rx,0,7,7E,AB,0B,80,F6,FE,00,00,
727788,18FED009,true,Rx,0,7,00,00,00,00,00,00,00,00,
731992,000000BB,false,Rx,0,8,30,D9,FF,D5,B5,2B,00,02,
736766,0000015B,false,Rx,0,8,B3,5C,00,03,00,00,00,00,
737149,000000BA,false,Rx,0,8,6F,4B,29,00,00,00,00,30,
737362,18FED007,true,Rx,0,6,00,03,A0,AB,9F,AB,00,00,
737578,18FED008,true,Rx,0,7,7E,AB,00,80,F6,FE,00,00,
737788,18FED009,true,Rx,0,7,00,00,00,00,00,00,00,00,
742008,000000BB,false,Rx,0,8,70,DA,FF,D1,95,2B,00,00,
743697,000001B4,false,Rx,0,8,EA,6E,A4,46,6A,A4,47,0A,
743908,000001C0,false,Rx,0,8,1C,3E,A4,45,6A,A4,43,0A,
744118,000001B0,false,Rx,0,8,F3,2E,A4,43,2A,A4,42,0A,
744329,000001B8,false,Rx,0,8,2A,5E,A4,45,5A,A4,43,0A,
744546,000001BC,false,Rx,0,8,EB,2E,A4,43,3A,A4,43,0A,
744928,000001C4,false,Rx,0,8,27,3E,A4,45,5A,A4,43,0A,
745137,000001C8,false,Rx,0,8,F5,6E,A4,46,5A,A4,46,0A,
745349,000001CC,false,Rx,0,8,26,5E,A4,46,6A,A4,46,0A,
746780,0000015B,false,Rx,0,8,F9,5D,00,03,00,00,00,00,
746989,000000BA,false,Rx,0,8,5B,4C,29,00,00,00,00,22,
747373,18FED007,true,Rx,0,6,00,03,AB,AB,AA,AB,00,00,
747590,18FED008,true,Rx,0,7,7E,AB,0B,80,F6,FE,00,00,
747799,18FED009,true,Rx,0,7,00,00,00,00,00,00,00,00,
748534,000001B5,false,Rx,0,8,E0,7E,A4,46,FA,A3,46,0A,
748744,000001C1,false,Rx,0,8,B6,5E,A4,41,BA,A3,45,0A,
748954,000001B1,false,Rx,0,8,B6,2E,A4,42,AA,A3,46,0A,
749164,000001B2,false,Rx,0,8,54,6E,A4,47,6A,A4,3F,0A,
749377,000001B6,false,Rx,0,8,CF,6E,A4,46,5A,A4,40,0A,
749593,000001B9,false,Rx,0,8,AC,5E,A4,42,BA,A3,47,0A,
749803,000001BA,false,Rx,0,8,01,AE,A4,46,7A,A4,42,0A,
750014,000001BD,false,Rx,0,8,89,5E,A4,43,AA,A3,43,0A,
750224,000001BE,false,Rx,0,8,DC,5E,A4,43,3A,A4,3D,0A,
750435,000001C2,false,Rx,0,8,9D,5E,A4,45,5A,A4,3C,0A,
750652,000001C5,false,Rx,0,8,BF,3E,A4,42,CA,A3,45,0A,
751034,000001C6,false,Rx,0,8,94,5E,A4,45,5A,A4,3D,0A,
751246,000001C9,false,Rx,0,8,85,3E,A4,43,BA,A3,43,0A,
751461,000001CA,false,Rx,0,8,95,3E,A4,43,3A,A4,3C,0A,
751671,000001CD,false,Rx,0,8,F6,6E,A4,45,DA,A3,45,0A,
751881,000001CE,false,Rx,0,8,21,6E,A4,45,5A,A4,40,0A,
752091,000000BB,false,Rx,0,8,63,DB,FF,D5,B5,2B,00,04,
756924,0000015B,false,Rx,0,8,2E,5E,00,03,00,00,00,00,
757133,000000BA,false,Rx,0,8,F8,4D,29,00,00,00,00,23,
757344,18FED007,true,Rx,0,6,00,03,AB,AB,AA,AB,00,00,
757561,18FED008,true,Rx,0,7,7E,AB,0B,80,F6,FE,00,00,
757943,18FED009,true,Rx,0,7,00,00,00,00,00,00,00,00,
761978,000000BB,false,Rx,0,8,04,DC,FF,D5,B5,2B,00,06,
766903,0000015B,false,Rx,0,8,45,5F,00,03,00,00,00,00,
767113,000000BA,false,Rx,0,8,53,4E,29,00,00,00,00,34,
767326,18FED007,true,Rx,0,6,00,03,A0,AB,9F,AB,00,00,
767543,18FED008,true,Rx,0,7,7E,AB,00,80,F6,FE,00,00,
767925,18FED009,true,Rx,0,7,00,00,00,00,00,00,00,00,
771610,000001B4,false,Rx,0,8,02,7F,A4,48,8A,A4,48,4A,
771820,000001C0,false,Rx,0,8,E5,6F,A4,47,8A,A4,46,4A,
772030,000000BB,false,Rx,0,8,46,DD,FF,D1,95,2B,00,08,
772243,000001B0,false,Rx,0,8,24,7F,A4,49,8A,A4,48,4A,
772459,000001B8,false,Rx,0,8,05,AF,A4,4A,AA,A4,49,4A,
772670,000001BC,false,Rx,0,8,40,3F,A4,44,4A,A4,45,4A,
772879,000001C4,false,Rx,0,8,23,9F,A4,49,9A,A4,49,4A,
773089,000001C8,false,Rx,0,8,08,7F,A4,47,6A,A4,47,4A,
773479,000001CC,false,Rx,0,8,9E,7F,A4,48,8A,A4,48,4A,
776638,000001B5,false,Rx,0,8,1A,8F,A4,47,8A,A4,48,4A,
776848,000001C1,false,Rx,0,8,F9,7F,A4,45,7A,A4,4A,4A,
777062,000000BA,false,Rx,0,8,FA,4F,29,00,00,00,00,25,
777279,0000015B,false,Rx,0,8,BA,50,00,03,00,00,00,00,
777495,000001B1,false,Rx,0,8,23,8F,A4,48,8A,A4,4B,4A,
777705,000001B2,false,Rx,0,8,4B,CF,A4,4C,BA,A4,4B,4A,
777915,000001B6,false,Rx,0,8,C3,8F,A4,49,8A,A4,48,4A,
778125,000001B9,false,Rx,0,8,64,AF,A4,4A,9A,A4,49,4A,
778336,000001BA,false,Rx,0,8,29,AF,A4,48,9A,A4,4A,4A,
778553,000001BD,false,Rx,0,8,C5,4F,A4,43,5A,A4,4A,4A,
778935,000001BE,false,Rx,0,8,AA,AF,A4,4A,9A,A4,49,4A,
779145,000001C2,false,Rx,0,8,67,9F,A4,49,9A,A4,47,4A,
779356,000001C5,false,Rx,0,8,48,8F,A4,48,AA,A4,4C,4A,
779572,000001C6,false,Rx,0,8,B2,BF,A4,4C,BA,A4,4C,4A,
779782,000001C9,false,Rx,0,8,3A,5F,A4,46,6A,A4,49,4A,
779991,000001CA,false,Rx,0,8,3D,AF,A4,49,9A,A4,48,4A,
780202,000001CD,false,Rx,0,8,28,7F,A4,47,9A,A4,49,4A,
780416,000001CE,false,Rx,0,8,68,AF,A4,4A,AA,A4,4A,4A,
780651,18FED007,true,Rx,0,6,00,03,AB,AB,AA,AB,00,00,
780861,18FED008,true,Rx,0,7,7E,AB,0B,80,F6,FE,00,00,
781245,18FED009,true,Rx,0,7,00,00,00,00,00,00,00,00,
781461,18FED00A,true,Rx,0,8,00,00,30,1E,00,41,00,00,
782015,000000BB,false,Rx,0,8,AA,DE,FF,D5,B5,2B,00,0A,
786915,0000015B,false,Rx,0,8,14,51,00,03,00,00,00,00,
787124,000000BA,false,Rx,0,8,E9,40,29,00,00,00,00,26,
787336,18FED007,true,Rx,0,6,00,03,AB,AB,AA,AB,00,00,
787553,18FED008,true,Rx,0,7,7E,AB,17,80,F6,FE,00,00,
787935,18FED009,true,Rx,0,7,00,00,00,00,00,00,00,00,
791963,000000BB,false,Rx,0,8,E8,DF,FF,D5,B5,2B,00,0C,
796883,0000015B,false,Rx,0,8,1A,52,00,03,00,00,00,00,
797093,000000BA,false,Rx,0,8,67,41,29,00,00,00,00,30,
797308,18FED007,true,Rx,0,6,00,03,A0,AB,9F,AB,00,00,
797523,18FED008,true,Rx,0,7,7E,AB,0B,80,F6,FE,00,00,
797905,18FED009,true,Rx,0,7,00,00,00,00,00,00,00,00,
801935,000000BB,false,Rx,0,8,83,D0,FF,D1,95,2B,00,00,
803710,000001B4,false,Rx,0,8,68,60,A4,46,6A,A4,47,0A,
803920,000001C0,false,Rx,0,8,F4,30,A4,45,6A,A4,43,0A,
804128,000001B0,false,Rx,0,8,54,20,A4,43,2A,A4,42,0A,
804341,000001B8,false,Rx,0,8,18,50,A4,45,5A,A4,43,0A,
804556,000001BC,false,Rx,0,8,31,20,A4,43,3A,A4,43,0A,
804938,000001C4,false,Rx,0,8,8A,30,A4,45,5A,A4,43,0A,
805148,000001C8,false,Rx,0,8,C8,60,A4,46,5A,A4,46,0A,
805360,000001CC,false,Rx,0,8,8B,50,A4,46,6A,A4,46,0A,
806788,0000015B,false,Rx,0,8,2B,53,00,03,00,00,00,00,
806997,000000BA,false,Rx,0,8,99,42,29,00,00,00,00,27,
807382,18FED007,true,Rx,0,6,00,03,AB,AB,AA,AB,00,00,
807597,18FED008,true,Rx,0,7,7E,AB,17,80,F6,FE,00,00,
807807,18FED009,true,Rx,0,7,00,00,00,00,00,00,00,00,
808541,000001B5,false,Rx,0,8,52,70,A4,46,FA,A3,46,0A,
808751,000001C1,false,Rx,0,8,F1,50,A4,41,BA,A3,45,0A,
808961,000001B1,false,Rx,0,8,12,20,A4,42,AA,A3,46,0A,
809170,000001B2,false,Rx,0,8,45,60,A4,46,6A,A4,3F,0A,
809382,000001B6,false,Rx,0,8,F5,60,A4,46,5A,A4,40,0A,
809598,000001B9,false,Rx,0,8,54,50,A4,42,BA,A3,47,0A,
809809,000001BA,false,Rx,0,8,66,A0,A4,46,7A,A4,42,0A,
810023,000001BD,false,Rx,0,8,9A,50,A4,43,AA,A3,43,0A,
810241,000001BE,false,Rx,0,8,8E,50,A4,43,3A,A4,3D,0A,
810457,000001C2,false,Rx,0,8,19,50,A4,45,5A,A4,3C,0A,
810667,000001C5,false,Rx,0,8,66,30,A4,42,CA,A3,45,0A,
811049,000001C6,false,Rx,0,8,99,50,A4,45,5A,A4,3D,0A,
811262,000001C9,false,Rx,0,8,4D,30,A4,43,BA,A3,43,0A,
811478,000001CA,false,Rx,0,8,79,30,A4,43,3A,A4,3C,0A,
811688,000001CD,false,Rx,0,8,4E,60,A4,45,DA,A3,45,0A,
811898,000001CE,false,Rx,0,8,46,60,A4,45,5A,A4,40,0A,
812108,000000BB,false,Rx,0,8,C7,D1,FF,D5,B5,2B,00,0E,
816777,0000015B,false,Rx,0,8,8D,54,00,03,00,00,00,00,
817162,000000BA,false,Rx,0,8,09,43,29,00,00,00,00,28,
817385,18FED007,true,Rx,0,6,00,03,AB,AB,AA,AB,00,00,
817601,18FED008,true,Rx,0,7,7E,AB,0B,80,F6,FE,00,00,
817827,18FED009,true,Rx,0,7,00,00,00,00,00,00,00,00,
821928,000000BB,false,Rx,0,8,A9,D2,FF,D5,B5,2B,00,10,
826831,0000015B,false,Rx,0,8,04,55,00,03,00,00,00,00,
827041,000000BA,false,Rx,0,8,EC,44,29,00,00,00,00,39,
827252,18FED007,true,Rx,0,6,00,03,A0,AB,9F,AB,00,00,
827641,18FED008,true,Rx,0,7,7E,AB,00,80,F6,FE,00,00,
827851,18FED009,true,Rx,0,7,00,00,00,00,00,00,00,00,
831540,000001B4,false,Rx,0,8,AD,71,A4,48,7A,A4,48,9A,
831750,000001C0,false,Rx,0,8,52,71,A4,48,8A,A4,46,9A,
831961,000000BB,false,Rx,0,8,72,D3,FF,D1,95,2B,00,12,
832170,000001B0,false,Rx,0,8,1E,81,A4,48,9A,A4,48,9A,
832383,000001B8,false,Rx,0,8,3D,A1,A4,49,AA,A4,49,9A,
832771,000001BC,false,Rx,0,8,53,31,A4,44,4A,A4,45,9A,
832981,000001C4,false,Rx,0,8,67,91,A4,49,9A,A4,48,9A,
833191,000001C8,false,Rx,0,8,78,71,A4,47,6A,A4,47,9A,
833403,000001CC,false,Rx,0,8,36,71,A4,48,7A,A4,47,9A,
836847,000001B5,false,Rx,0,8,1D,81,A4,47,8A,A4,49,9A,
836852,000001C1,false,Rx,0,8,FC,71,A4,45,7A,A4,4A,9A,
837073,000000BA,false,Rx,0,8,96,45,29,00,00,00,00,2A,
837283,0000015B,false,Rx,0,8,54,56,00,03,00,00,00,00,
837499,000001B1,false,Rx,0,8,FB,81,A4,48,9A,A4,4B,9A,
837709,000001B2,false,Rx,0,8,1C,B1,A4,4C,BA,A4,4B,9A,
837918,000001B6,false,Rx,0,8,51,81,A4,48,8A,A4,48,9A,
838129,000001B9,false,Rx,0,8,A9,A1,A4,49,8A,A4,48,9A,
838341,000001BA,false,Rx,0,8,63,B1,A4,48,9A,A4,49,9A,
838557,000001BD,false,Rx,0,8,A5,41,A4,43,4A,A4,4A,9A,
838767,000001BE,false,Rx,0,8,08,A1,A4,49,9A,A4,49,9A,
839150,000001C2,false,Rx,0,8,AE,91,A4,49,AA,A4,48,9A,
839366,000001C5,false,Rx,0,8,84,81,A4,48,AA,A4,4C,9A,
839599,000001C6,false,Rx,0,8,BF,C1,A4,4C,BA,A4,4B,9A,
839809,000001C9,false,Rx,0,8,29,51,A4,45,6A,A4,49,9A,
840019,000001CA,false,Rx,0,8,39,91,A4,49,9A,A4,48,9A,
840228,000001CD,false,Rx,0,8,51,71,A4,47,9A,A4,49,9A,
840438,000001CE,false,Rx,0,8,44,A1,A4,4A,AA,A4,4A,9A,
840654,18FED007,true,Rx,0,6,00,03,AB,AB,AA,AB,00,00,
840864,18FED008,true,Rx,0,7,7E,AB,0B,80,F6,FE,00,00,
841247,18FED009,true,Rx,0,7,00,00,00,00,00,00,00,00,
841998,000000BB,false,Rx,0,8,C8,D4,FF,D5,B5,2B,00,14,
846922,0000015B,false,Rx,0,8,4F,57,00,03,00,00,00,00,
847132,000000BA,false,Rx,0,8,68,46,29,00,00,00,00,2B,
847343,18FED007,true,Rx,0,6,00,03,AB,AB,AA,AB,00,00,
847559,18FED008,true,Rx,0,7,7E,AB,0B,80,F6,FE,00,00,
847941,18FED009,true,Rx,0,7,00,00,00,00,00,00,00,00,
851973,000000BB,false,Rx,0,8,6A,D5,FF,D5,B5,2B,00,16,
857048,16A95419,true,Rx,0,8,AA,9A,8A,20,00,00,A0,80,
857053,18FED006,true,Rx,0,3,02,00,00,00,00,00,00,00,
857057,0000015B,false,Rx,0,8,65,58,00,03,00,00,00,00,
857062,000000BA,false,Rx,0,8,F5,47,29,00,00,00,00,30,
857288,18FED007,true,Rx,0,6,00,03,A0,AB,9F,AB,00,00,
857677,18FED008,true,Rx,0,7,7E,AB,00,80,F6,FE,00,00,
857887,18FED009,true,Rx,0,7,00,00,00,00,00,00,00,00,
861925,000000BB,false,Rx,0,8,90,D6,FF,D1,95,2B,00,00,
863717,000001B4,false,Rx,0,8,FF,62,A4,46,6A,A4,47,0A,
863927,000001C0,false,Rx,0,8,29,32,A4,45,6A,A4,43,0A,
864138,000001B0,false,Rx,0,8,EC,22,A4,43,2A,A4,42,0A,
864349,000001B8,false,Rx,0,8,33,52,A4,45,5A,A4,43,0A,
864565,000001BC,false,Rx,0,8,52,22,A4,43,3A,A4,43,0A,
864775,000001C4,false,Rx,0,8,14,32,A4,45,5A,A4,43,0A,
865157,000001C8,false,Rx,0,8,19,62,A4,46,5A,A4,46,0A,
865368,000001CC,false,Rx,0,8,C7,52,A4,46,6A,A4,46,0A,
866798,0000015B,false,Rx,0,8,66,59,00,03,00,00,00,00,
867008,000000BA,false,Rx,0,8,61,48,29,00,00,00,00,2C,
867389,18FED007,true,Rx,0,6,00,03,AB,AB,AA,AB,00,00,
867605,18FED008,true,Rx,0,7,7E,AB,0B,80,F6,FE,00,00,
867815,18FED009,true,Rx,0,7,00,00,00,00,00,00,00,00,
868549,000001B5,false,Rx,0,8,5B,72,A4,46,FA,A3,46,0A,
868759,000001C1,false,Rx,0,8,4E,52,A4,41,BA,A3,45,0A,
868969,000001B1,false,Rx,0,8,76,22,A4,42,AA,A3,46,0A,
869179,000001B2,false,Rx,0,8,B2,62,A4,46,6A,A4,3F,0A,
869392,000001B6,false,Rx,0,8,A3,62,A4,46,5A,A4,40,0A,
869608,000001B9,false,Rx,0,8,67,52,A4,42,BA,A3,47,0A,
869818,000001BA,false,Rx,0,8,06,A2,A4,46,7A,A4,42,0A,
870028,000001BD,false,Rx,0,8,D7,52,A4,43,AA,A3,43,0A,
870240,000001BE,false,Rx,0,8,D3,52,A4,43,3A,A4,3D,0A,
870456,000001C2,false,Rx,0,8,99,52,A4,45,5A,A4,3C,0A,
870666,000001C5,false,Rx,0,8,52,32,A4,42,CA,A3,45,0A,
870876,000001C6,false,Rx,0,8,12,52,A4,45,6A,A4,3D,0A,
871274,000001C9,false,Rx,0,8,BB,32,A4,43,BA,A3,43,0A,
871542,000001CA,false,Rx,0,8,31,32,A4,43,3A,A4,3C,0A,
871547,000001CD,false,Rx,0,8,BD,62,A4,45,DA,A3,45,0A,
871799,000001CE,false,Rx,0,8,14,62,A4,45,5A,A4,40,0A,
872008,000000BB,false,Rx,0,8,2B,D7,FF,D5,B5,2B,00,18,
877270,0000015B,false,Rx,0,8,73,5A,00,03,00,00,00,00,
877275,000000BA,false,Rx,0,8,49,49,29,00,00,00,00,2D,
877280,18FED007,true,Rx,0,6,00,03,A0,AB,9F,AB,00,00,
877680,18FED008,true,Rx,0,7,7E,AB,00,80,F6,FE,00,00,
877890,18FED009,true,Rx,0,7,00,00,00,00,00,00,00,00,
878100,18FED00A,true,Rx,0,8,00,00,30,1E,00,41,00,00,
881962,000000BB,false,Rx,0,8,EF,D8,FF,D1,95,2B,00,1A,
886896,0000015B,false,Rx,0,8,8C,5B,00,03,00,00,00,00,
887106,000000BA,false,Rx,0,8,E4,4A,29,00,00,00,00,3E,
887322,18FED007,true,Rx,0,6,00,03,A0,AB,9F,AB,00,00,
887537,18FED008,true,Rx,0,7,7E,AB,00,80,F6,FE,00,00,
887920,18FED009,true,Rx,0,7,00,00,00,00,00,00,00,00,
891608,000001B4,false,Rx,0,8,64,73,A4,48,8A,A4,48,EA,
891818,000001C0,false,Rx,0,8,34,63,A4,48,7A,A4,46,EA,
892028,000000BB,false,Rx,0,8,5A,D9,FF,D1,95,2B,00,1C,
892240,000001B0,false,Rx,0,8,C3,73,A4,48,9A,A4,48,EA,
892456,000001B8,false,Rx,0,8,D4,A3,A4,49,AA,A4,49,EA,
892665,000001BC,false,Rx,0,8,02,33,A4,44,4A,A4,44,EA,
892876,000001C4,false,Rx,0,8,FF,83,A4,49,9A,A4,48,EA,
893085,000001C8,false,Rx,0,8,D3,73,A4,46,6A,A4,46,EA,
893297,000001CC,false,Rx,0,8,04,73,A4,48,8A,A4,48,EA,
897130,000001B5,false,Rx,0,8,C6,83,A4,47,8A,A4,48,EA,
897135,000001C1,false,Rx,0,8,3B,73,A4,45,7A,A4,4A,EA,
897140,000000BA,false,Rx,0,8,0E,4B,29,00,00,00,00,2F,
897361,0000015B,false,Rx,0,8,B3,5C,00,03,00,00,00,00,
897578,000001B1,false,Rx,0,8,BE,83,A4,48,9A,A4,4B,EA,
897786,000001B2,false,Rx,0,8,06,B3,A4,4D,BA,A4,4B,EA,
897996,000001B6,false,Rx,0,8,36,83,A4,48,8A,A4,47,EA,
898206,000001B9,false,Rx,0,8,3E,A3,A4,4A,9A,A4,48,EA,
898417,000001BA,false,Rx,0,8,BF,A3,A4,48,9A,A4,49,EA,
898633,000001BD,false,Rx,0,8,7F,33,A4,43,5A,A4,4A,EA,
898843,000001BE,false,Rx,0,8,81,A3,A4,49,9A,A4,49,EA,
899069,000001C2,false,Rx,0,8,89,A3,A4,4A,AA,A4,48,EA,
899280,000001C5,false,Rx,0,8,BA,73,A4,49,AA,A4,4C,EA,
899496,000001C6,false,Rx,0,8,40,C3,A4,4C,CA,A4,4B,EA,
899705,000001C9,false,Rx,0,8,01,53,A4,45,6A,A4,49,EA,
899915,000001CA,false,Rx,0,8,38,93,A4,49,9A,A4,49,EA,
900124,000001CD,false,Rx,0,8,B8,73,A4,47,8A,A4,49,EA,
900514,000001CE,false,Rx,0,8,7E,A3,A4,4A,AA,A4,4A,EA,
900724,18FED007,true,Rx,0,6,00,03,AB,AB,AA,AB,00,00,
900934,18FED008,true,Rx,0,7,7E,AB,0B,80,F6,FE,00,00,
901144,18FED009,true,Rx,0,7,00,00,00,00,00,00,00,00,
901880,000000BB,false,Rx,0,8,1A,DA,FF,D5,B5,2B,00,1E,
906786,0000015B,false,Rx,0,8,F9,5D,00,03,00,00,00,00,
907169,000000BA,false,Rx,0,8,4F,4C,29,00,00,00,00,21,
907379,18FED007,true,Rx,0,6,00,03,AB,AB,AA,AB,00,00,
907596,18FED008,true,Rx,0,7,7E,AB,0B,80,F6,FE,00,00,
907805,18FED009,true,Rx,0,7,00,00,00,00,00,00,00,00,
912012,000000BB,false,Rx,0,8,4B,DB,FF,D5,B5,2B,00,02,
913092,1A555405,true,Rx,0,8,65,40,00,00,FE,FE,FE,FE,
913304,1A555401,true,Rx,0,8,67,40,00,00,FE,FE,FE,FE,
913693,1A555404,true,Rx,0,8,64,40,00,00,FE,FE,FE,FE,
913903,1A555402,true,Rx,0,8,64,40,00,00,FE,FE,FE,FE,
914287,16A9541E,true,Rx,0,8,80,A0,80,AA,A0,A0,AA,AA,
914504,16A9541A,true,Rx,0,8,80,A0,80,AA,A0,A0,AA,AA,
914714,16A9541D,true,Rx,0,8,80,A0,80,AA,A0,A0,AA,AA,
915097,16A9541B,true,Rx,0,8,80,A0,80,AA,A0,A0,AA,AA,
915308,16A9541C,true,Rx,0,8,80,A0,80,AA,A0,A0,AA,AA,
915524,16A9541F,true,Rx,0,8,80,A0,80,AA,A0,A0,AA,AA,
915906,16A95420,true,Rx,0,8,80,A0,80,AA,A0,A0,AA,AA,
917397,16A95421,true,Rx,0,8,80,A0,80,AA,A0,A0,AA,AA,
917402,1A555403,true,Rx,0,8,64,40,00,00,FE,FE,FE,FE,
917407,1A555406,true,Rx,0,8,62,40,00,00,FE,FE,FE,FE,
917412,000000BA,false,Rx,0,8,C9,4D,29,00,00,00,00,30,
917417,0000015B,false,Rx,0,8,2E,5E,00,03,00,00,00,00,
917422,18FED007,true,Rx,0,6,00,03,A0,AB,9F,AB,00,00,
917649,18FED008,true,Rx,0,7,7E,AB,00,80,F6,FE,00,00,
918044,18FED009,true,Rx,0,7,00,00,00,00,00,00,00,00,
918256,1A555407,true,Rx,0,8,65,40,00,00,FE,FE,FE,FE,
918472,1A555408,true,Rx,0,8,64,40,00,00,FE,FE,FE,FE,
922003,000000BB,false,Rx,0,8,CE,DC,FF,D1,95,2B,00,00,
923780,000001C0,false,Rx,0,8,1F,34,A4,45,6A,A4,43,0A,
924162,000001BC,false,Rx,0,8,6D,24,A4,43,3A,A4,43,0A,
924373,000001B0,false,Rx,0,8,27,24,A4,43,2A,A4,42,0A,
924589,000001B4,false,Rx,0,8,3A,64,A4,46,6A,A4,47,0A,
924798,000001B8,false,Rx,0,8,24,54,A4,45,5A,A4,43,0A,
925007,000001C4,false,Rx,0,8,6E,34,A4,45,5A,A4,43,0A,
925217,000001C8,false,Rx,0,8,AE,64,A4,46,5A,A4,46,0A,
925429,000001CC,false,Rx,0,8,99,54,A4,46,6A,A4,46,0A,
926903,0000015B,false,Rx,0,8,45,5F,00,03,00,00,00,00,
927112,000000BA,false,Rx,0,8,5E,4E,29,00,00,00,00,22,
927325,18FED007,true,Rx,0,6,00,03,AB,AB,AA,AB,00,00,
927542,18FED008,true,Rx,0,7,7E,AB,0B,80,F6,FE,00,00,
927925,18FED009,true,Rx,0,7,00,00,00,00,00,00,00,00,
928661,000001C1,false,Rx,0,8,7C,54,A4,41,BA,A3,45,0A,
928871,000001BD,false,Rx,0,8,8E,54,A4,43,AA,A3,43,0A,
929081,000001B1,false,Rx,0,8,BD,24,A4,42,AA,A3,46,0A,
929292,000001B2,false,Rx,0,8,88,64,A4,46,6A,A4,3F,0A,
929509,000001B5,false,Rx,0,8,7D,74,A4,46,FA,A3,46,0A,
929725,000001B6,false,Rx,0,8,14,64,A4,46,5A,A4,40,0A,
929950,000001B9,false,Rx,0,8,4C,54,A4,42,BA,A3,47,0A,
930193,000001BA,false,Rx,0,8,DA,A4,A4,46,7A,A4,42,0A,
930404,000001BE,false,Rx,0,8,C0,54,A4,43,3A,A4,3D,0A,
930621,000001C2,false,Rx,0,8,2C,54,A4,45,5A,A4,3C,0A,
930831,000001C5,false,Rx,0,8,F9,34,A4,42,CA,A3,45,0A,
931041,000001C6,false,Rx,0,8,DF,54,A4,45,5A,A4,3D,0A,
931252,000001C9,false,Rx,0,8,2C,34,A4,45,BA,A3,43,0A,
931460,000001CA,false,Rx,0,8,12,34,A4,43,3A,A4,3C,0A,
931849,000001CD,false,Rx,0,8,C7,64,A4,45,DA,A3,45,0A,
932059,000000BB,false,Rx,0,8,F4,DD,FF,D5,B5,2B,00,04,
932271,000001CE,false,Rx,0,8,7E,64,A4,45,5A,A4,40,0A,
937892,0000015B,false,Rx,0,8,BA,50,00,03,00,00,00,00,
937897,000000BA,false,Rx,0,8,D2,4F,29,00,00,00,00,23,
937902,18FED007,true,Rx,0,6,00,03,AB,AB,AA,AB,00,00,
937907,18FED008,true,Rx,0,7,7E,AB,0B,80,F6,FE,00,00,
937912,18FED009,true,Rx,0,7,00,00,00,00,00,00,00,00,
941974,000000BB,false,Rx,0,8,FA,DE,FF,D5,B5,2B,00,06,
946788,0000015B,false,Rx,0,8,14,51,00,03,00,00,00,00,
947170,000000BA,false,Rx,0,8,31,40,29,00,00,00,00,34,
947383,18FED007,true,Rx,0,6,00,03,A0,AB,9F,AB,00,00,
947599,18FED008,true,Rx,0,7,7E,AB,00,80,F6,FE,00,00,
947809,18FED009,true,Rx,0,7,00,00,00,00,00,00,00,00,
951488,000001B4,false,Rx,0,8,5B,85,A4,48,8A,A4,47,4A,
951705,000001C0,false,Rx,0,8,A1,75,A4,47,8A,A4,46,4A,
952087,000000BB,false,Rx,0,8,DF,DF,FF,D1,95,2B,00,08,
952298,000001B0,false,Rx,0,8,8F,75,A4,48,9A,A4,48,4A,
952513,000001B8,false,Rx,0,8,51,A5,A4,49,AA,A4,49,4A,
952722,000001BC,false,Rx,0,8,DA,35,A4,43,3A,A4,44,4A,
952932,000001C4,false,Rx,0,8,18,95,A4,49,9A,A4,48,4A,
953142,000001C8,false,Rx,0,8,A4,75,A4,46,6A,A4,46,4A,
953354,000001CC,false,Rx,0,8,41,75,A4,48,8A,A4,48,4A,
957736,000001B5,false,Rx,0,8,32,85,A4,48,8A,A4,48,4A,
957741,000001C1,false,Rx,0,8,61,75,A4,45,7A,A4,4A,4A,
957746,000000BA,false,Rx,0,8,7E,41,29,00,00,00,00,25,
957751,0000015B,false,Rx,0,8,1A,52,00,03,00,00,00,00,
957756,000001B1,false,Rx,0,8,26,85,A4,48,9A,A4,4B,4A,
957761,000001B2,false,Rx,0,8,C9,B5,A4,4C,BA,A4,4B,4A,
957980,000001B6,false,Rx,0,8,10,85,A4,49,8A,A4,48,4A,
958190,000001B9,false,Rx,0,8,A2,B5,A4,4A,9A,A4,48,4A,
958402,000001BA,false,Rx,0,8,2A,B5,A4,48,8A,A4,4A,4A,
958618,000001BD,false,Rx,0,8,D7,35,A4,43,4A,A4,49,4A,
958828,000001BE,false,Rx,0,8,67,A5,A4,49,9A,A4,4A,4A,
959038,000001C2,false,Rx,0,8,D4,A5,A4,49,9A,A4,48,4A,
959250,000001C5,false,Rx,0,8,F0,85,A4,48,AA,A4,4C,4A,
959467,000001C6,false,Rx,0,8,51,B5,A4,4C,CA,A4,4B,4A,
959694,000001C9,false,Rx,0,8,86,55,A4,46,6A,A4,49,4A,
959903,000001CA,false,Rx,0,8,3A,95,A4,49,9A,A4,48,4A,
960113,000001CD,false,Rx,0,8,13,75,A4,47,9A,A4,49,4A,
960323,000001CE,false,Rx,0,8,B7,A5,A4,4A,AA,A4,4A,4A,
960711,18FED007,true,Rx,0,6,00,03,AB,AB,AA,AB,00,00,
960921,18FED008,true,Rx,0,7,7E,AB,0B,80,F6,FE,00,00,
961130,18FED009,true,Rx,0,7,00,00,00,00,00,00,00,00,
961865,000000BB,false,Rx,0,8,19,D0,FF,D5,B5,2B,00,0A,
966803,000000BA,false,Rx,0,8,70,42,29,00,00,00,00,26,
967185,0000015B,false,Rx,0,8,2B,53,00,03,00,00,00,00,
967397,18FED007,true,Rx,0,6,00,03,AB,AB,AA,AB,00,00,
967613,18FED008,true,Rx,0,7,7E,AB,0B,80,F6,FE,00,00,
967822,18FED009,true,Rx,0,7,00,00,00,00,00,00,00,00,
972032,000000BB,false,Rx,0,8,3A,D1,FF,D5,B5,2B,00,0C,
977906,000000BA,false,Rx,0,8,A9,43,29,00,00,00,00,30,
977911,0000015B,false,Rx,0,8,8D,54,00,03,00,00,00,00,
977916,18FED007,true,Rx,0,6,00,03,A0,AB,9F,AB,00,00,
977921,18FED008,true,Rx,0,7,7E,AB,00,80,F6,FE,00,00,
977926,18FED009,true,Rx,0,7,00,00,00,00,00,00,00,00,
978147,18FED00A,true,Rx,0,8,00,00,30,1E,00,41,00,00,
982032,000000BB,false,Rx,0,8,6E,D2,FF,D1,95,2B,00,00,
983464,000001BC,false,Rx,0,8,F4,26,A4,43,3A,A4,43,0A,
983673,000001B4,false,Rx,0,8,D9,66,A4,46,6A,A4,47,0A,
984055,000001C0,false,Rx,0,8,DE,36,A4,45,6A,A4,43,0A,
984268,000001B0,false,Rx,0,8,C2,26,A4,43,2A,A4,42,0A,
984483,000001B8,false,Rx,0,8,79,56,A4,45,5A,A4,43,0A,
984693,000001C4,false,Rx,0,8,FA,36,A4,45,5A,A4,43,0A,
984903,000001C8,false,Rx,0,8,30,66,A4,46,5A,A4,46,0A,
985112,000001CC,false,Rx,0,8,6E,56,A4,46,6A,A4,46,0A,
986889,000000BA,false,Rx,0,8,64,44,29,00,00,00,00,27,
987099,0000015B,false,Rx,0,8,04,55,00,03,00,00,00,00,
987312,18FED007,true,Rx,0,6,00,03,AB,AB,AA,AB,00,00,
987528,18FED008,true,Rx,0,7,7E,AB,17,80,F6,FE,00,00,
987910,18FED009,true,Rx,0,7,00,00,00,00,00,00,00,00,
988297,000001BD,false,Rx,0,8,07,56,A4,43,AA,A3,43,0A,
988529,000001B5,false,Rx,0,8,B8,76,A4,46,FA,A3,46,0A,
988763,000001B6,false,Rx,0,8,BE,66,A4,46,5A,A4,40,0A,
989223,000001B1,false,Rx,0,8,41,26,A4,42,AA,A3,46,0A,
989228,000001B2,false,Rx,0,8,80,66,A4,46,6A,A4,3F,0A,
989451,000001B9,false,Rx,0,8,FA,56,A4,42,BA,A3,47,0A,
989661,000001BA,false,Rx,0,8,62,A6,A4,46,7A,A4,42,0A,
989871,000001BE,false,Rx,0,8,83,56,A4,43,3A,A4,3D,0A,
990081,000001C1,false,Rx,0,8,09,56,A4,41,BA,A3,45,0A,
990297,000001C2,false,Rx,0,8,78,56,A4,45,5A,A4,3C,0A,
990508,000001C5,false,Rx,0,8,D3,36,A4,42,CA,A3,45,0A,
990718,000001C6,false,Rx,0,8,EF,56,A4,45,5A,A4,3D,0A,
990928,000001C9,false,Rx,0,8,11,36,A4,45,BA,A3,43,0A,
991312,000001CA,false,Rx,0,8,7B,36,A4,42,3A,A4,3C,0A,
991529,000001CD,false,Rx,0,8,57,66,A4,45,DA,A3,45,0A,
991738,000001CE,false,Rx,0,8,66,66,A4,45,5A,A4,40,0A,
991948,000000BB,false,Rx,0,8,E5,D3,FF,D5,B5,2B,00,0E,
998064,0000015B,false,Rx,0,8,54,56,00,03,00,00,00,00,
998069,000000BA,false,Rx,0,8,6B,45,29,00,00,00,00,28,
998075,18FED007,true,Rx,0,6,00,03,AB,AB,AA,AB,00,00,
998079,18FED008,true,Rx,0,7,7E,AB,0B,80,F6,FE,00,00,
998084,18FED009,true,Rx,0,7,00,00,00,00,00,00,00,00,
1001986,000000BB,false,Rx,0,8,1D,D4,FF,D5,B5,2B,00,10,
1006891,000000BA,false,Rx,0,8,B0,46,29,00,00,00,00,39,
1007101,0000015B,false,Rx,0,8,4F,57,00,03,00,00,00,00,
1007314,18FED007,true,Rx,0,6,00,03,A0,AB,9F,AB,00,00,
1007530,18FED008,true,Rx,0,7,7E,AB,00,80,F6,FE,00,00,
1007912,18FED009,true,Rx,0,7,00,00,00,00,00,00,00,00,
1011423,000001BC,false,Rx,0,8,93,37,A4,43,4A,A4,44,9A,
1011640,000001B4,false,Rx,0,8,C5,77,A4,48,8A,A4,48,9A,
1011850,000001C0,false,Rx,0,8,F2,77,A4,48,8A,A4,46,9A,
1012060,000000BB,false,Rx,0,8,5D,D5,FF,D1,95,2B,00,12,
1012271,000001B0,false,Rx,0,8,D6,87,A4,48,8A,A4,49,9A,
1012487,000001B8,false,Rx,0,8,EF,A7,A4,4A,AA,A4,49,9A,
1012695,000001C4,false,Rx,0,8,F1,87,A4,49,9A,A4,48,9A,
1012906,000001C8,false,Rx,0,8,0E,77,A4,47,6A,A4,47,9A,
1013116,000001CC,false,Rx,0,8,5D,77,A4,48,8A,A4,48,9A,
1016460,000001BD,false,Rx,0,8,AA,37,A4,44,4A,A4,4A,9A,
1017992,000001B5,false,Rx,0,8,5C,87,A4,47,8A,A4,48,9A,
1017998,000001B6,false,Rx,0,8,46,87,A4,49,8A,A4,48,9A,
1018003,000000BA,false,Rx,0,8,A8,47,29,00,00,00,00,2A,
1018008,0000015B,false,Rx,0,8,65,58,00,03,00,00,00,00,
1018013,000001B1,false,Rx,0,8,CD,87,A4,48,9A,A4,4C,9A,
1018018,000001B2,false,Rx,0,8,26,C7,A4,4D,CA,A4,4B,9A,
1018023,000001B9,false,Rx,0,8,91,A7,A4,49,9A,A4,48,9A,
1018245,000001BA,false,Rx,0,8,6F,A7,A4,48,9A,A4,49,9A,
1018462,000001BE,false,Rx,0,8,9C,A7,A4,49,9A,A4,4A,9A,
1018675,000001C1,false,Rx,0,8,6B,77,A4,45,7A,A4,4A,9A,
1018898,000001C2,false,Rx,0,8,A8,A7,A4,49,AA,A4,48,9A,
1019108,000001C5,false,Rx,0,8,1A,87,A4,48,AA,A4,4C,9A,
1019319,000001C6,false,Rx,0,8,12,C7,A4,4C,BA,A4,4C,9A,
1019535,000001C9,false,Rx,0,8,D8,57,A4,46,6A,A4,49,9A,
1019745,000001CA,false,Rx,0,8,66,97,A4,49,9A,A4,48,9A,
1019956,000001CD,false,Rx,0,8,5B,77,A4,47,9A,A4,49,9A,
1020166,000001CE,false,Rx,0,8,F9,A7,A4,4A,AA,A4,4A,9A,
1020377,18FED007,true,Rx,0,6,00,03,AB,AB,AA,AB,00,00,
1020766,18FED008,true,Rx,0,7,7E,AB,0B,80,F6,FE,00,00,
1020976,18FED009,true,Rx,0,7,00,00,00,00,00,00,00,00,
1021883,000000BB,false,Rx,0,8,3F,B6,FF,D5,B5,2B,00,14,
1026785,000000BA,false,Rx,0,8,A0,48,29,00,00,00,00,2B,
1027167,0000015B,false,Rx,0,8,66,59,00,03,00,00,00,00,
1027380,18FED007,true,Rx,0,6,00,03,AB,AB,AA,AB,00,00,
1027596,18FED008,true,Rx,0,7,7E,AB,0B,80,F6,FE,00,00,
1027806,18FED009,true,Rx,0,7,00,00,00,00,00,00,00,00,
1032024,000000BB,false,Rx,0,8,86,D7,FF,D5,B5,2B,00,16,
1038279,000000BA,false,Rx,0,8,D5,49,29,00,00,00,00,30,
1038284,0000015B,false,Rx,0,8,73,5A,00,03,00,00,00,00,
1038289,18FED007,true,Rx,0,6,00,03,A0,AB,9F,AB,00,00,
1038293,18FED008,true,Rx,0,7,7E,AB,0B,80,F6,FE,00,00,
1038298,18FED009,true,Rx,0,7,00,00,00,00,00,00,00,00,
1042013,000000BB,false,Rx,0,8,B2,D8,FF,D1,95,2B,00,00,
1043537,000001BC,false,Rx,0,8,1F,28,A4,43,3A,A4,43,0A,
1043746,000001B4,false,Rx,0,8,49,68,A4,46,6A,A4,47,0A,
1043956,000001C0,false,Rx,0,8,C6,38,A4,45,6A,A4,43,0A,
1044166,000001B0,false,Rx,0,8,5D,28,A4,43,2A,A4,42,0A,
1044378,000001B8,false,Rx,0,8,E8,58,A4,45,5A,A4,43,0A,
1044593,000001C4,false,Rx,0,8,D0,38,A4,45,5A,A4,43,0A,
1044803,000001C8,false,Rx,0,8,B4,68,A4,46,5A,A4,46,0A,
1045185,000001CC,false,Rx,0,8,90,58,A4,46,6A,A4,46,0A,
1046788,000000BA,false,Rx,0,8,3C,4A,29,00,00,00,00,2C,
1047169,0000015B,false,Rx,0,8,8C,5B,00,03,00,00,00,00,
1047380,18FED007,true,Rx,0,6,00,03,AB,AB,AA,AB,00,00,
1047596,18FED008,true,Rx,0,7,7E,AB,0B,80,F6,FE,00,00,
1047806,18FED009,true,Rx,0,7,00,00,00,00,00,00,00,00,
1048362,000001BD,false,Rx,0,8,AD,58,A4,43,AA,A3,43,0A,
1048578,000001B5,false,Rx,0,8,06,78,A4,46,FA,A3,46,0A,
1048788,000001B6,false,Rx,0,8,DF,68,A4,46,5A,A4,40,0A,
1048997,000001B1,false,Rx,0,8,98,28,A4,42,AA,A3,46,0A,
1049206,000001B2,false,Rx,0,8,16,68,A4,46,6A,A4,3F,0A,
1049417,000001B9,false,Rx,0,8,ED,58,A4,42,BA,A3,47,0A,
1049633,000001BA,false,Rx,0,8,B0,A8,A4,46,7A,A4,42,0A,
1049844,000001BE,false,Rx,0,8,B6,58,A4,43,3A,A4,3D,0A,
1050054,000001C1,false,Rx,0,8,DD,58,A4,41,BA,A3,45,0A,
1050265,000001C2,false,Rx,0,8,E9,58,A4,45,5A,A4,3C,0A,
1050481,000001C5,false,Rx,0,8,8F,38,A4,42,CA,A3,45,0A,
1050691,000001C6,false,Rx,0,8,35,58,A4,45,5A,A4,3D,0A,
1051073,000001C9,false,Rx,0,8,6B,38,A4,45,BA,A3,43,0A,
1051283,000001CA,false,Rx,0,8,3A,38,A4,42,3A,A4,3C,0A,
1051500,000001CD,false,Rx,0,8,BA,68,A4,45,DA,A3,45,0A,
1051710,000001CE,false,Rx,0,8,F9,68,A4,45,5A,A4,40,0A,
1051920,000000BB,false,Rx,0,8,6D,D9,FF,D5,B5,2B,00,18,
1058268,000000BA,false,Rx,0,8,F3,4B,29,00,00,00,00,2D,
1058274,0000015B,false,Rx,0,8,B3,5C,00,03,00,00,00,00,
1058279,18FED007,true,Rx,0,6,00,03,AB,AB,AA,AB,00,00,
1058284,18FED008,true,Rx,0,7,7E,AB,0B,80,F6,FE,00,00,
1058289,18FED009,true,Rx,0,7,00,00,00,00,00,00,00,00,
1061987,000000BB,false,Rx,0,8,CF,DA,FF,D5,B5,2B,00,1A,
1066920,000000BA,false,Rx,0,8,2E,4C,29,00,00,00,00,3E,
1067129,0000015B,false,Rx,0,8,F9,5D,00,03,00,00,00,00,
1067341,18FED007,true,Rx,0,6,00,03,A0,AB,9F,AB,00,00,
1067557,18FED008,true,Rx,0,7,7E,AB,00,80,F6,FE,00,00,
1067939,18FED009,true,Rx,0,7,00,00,00,00,00,00,00,00,
1071277,000001BC,false,Rx,0,8,2E,39,A4,44,4A,A4,45,EA,
1071493,000001B4,false,Rx,0,8,21,79,A4,49,7A,A4,48,EA,
1071875,000001C0,false,Rx,0,8,46,79,A4,47,8A,A4,46,EA,
1072084,000000BB,false,Rx,0,8,21,DB,FF,D1,95,2B,00,1C,
1072296,000001B0,false,Rx,0,8,0D,89,A4,48,8A,A4,48,EA,
1072513,000001B8,false,Rx,0,8,2F,A9,A4,49,AA,A4,49,EA,
1072723,000001C4,false,Rx,0,8,31,89,A4,49,9A,A4,48,EA,
1072931,000001C8,false,Rx,0,8,B8,79,A4,47,6A,A4,47,EA,
1073141,000001CC,false,Rx,0,8,C4,79,A4,48,8A,A4,48,EA,
1076303,000001BD,false,Rx,0,8,EE,39,A4,43,4A,A4,4A,EA,
1076519,000001B5,false,Rx,0,8,66,89,A4,47,9A,A4,48,EA,
1076728,000001B6,false,Rx,0,8,56,89,A4,48,8A,A4,48,EA,
1078270,000000BA,false,Rx,0,8,A8,4D,29,00,00,00,00,2F,
1078275,0000015B,false,Rx,0,8,2E,5E,00,03,00,00,00,00,
1078280,000001B1,false,Rx,0,8,4B,89,A4,48,9A,A4,4C,EA,
1078285,000001B2,false,Rx,0,8,19,B9,A4,4D,CA,A4,4B,EA,
1078290,000001B9,false,Rx,0,8,4E,A9,A4,49,9A,A4,49,EA,
1078327,000001BA,false,Rx,0,8,24,A9,A4,48,9A,A4,49,EA,
1078332,000001BE,false,Rx,0,8,B5,A9,A4,49,9A,A4,4A,EA,
1078558,000001C1,false,Rx,0,8,CB,79,A4,45,7A,A4,4A,EA,
1078940,000001C2,false,Rx,0,8,00,A9,A4,49,9A,A4,48,EA,
1079149,000001C5,false,Rx,0,8,34,89,A4,48,AA,A4,4C,EA,
1079362,000001C6,false,Rx,0,8,D1,C9,A4,4C,CA,A4,4C,EA,
1079577,000001C9,false,Rx,0,8,6E,59,A4,46,6A,A4,49,EA,
1079787,000001CA,false,Rx,0,8,38,99,A4,49,9A,A4,48,EA,
1079996,000001CD,false,Rx,0,8,47,79,A4,47,9A,A4,49,EA,
1080206,000001CE,false,Rx,0,8,05,A9,A4,4A,AA,A4,4A,EA,
1080418,18FED007,true,Rx,0,6,00,03,AB,AB,9F,AB,00,00,
1080634,18FED008,true,Rx,0,7,7E,AB,0B,80,F6,FE,00,00,
1081021,18FED009,true,Rx,0,7,00,00,00,00,00,00,00,00,
1081247,18FED00A,true,Rx,0,8,00,00,30,1E,00,41,00,00,
1081980,000000BB,false,Rx,0,8,39,DC,FF,D5,95,2B,00,1E,
1086891,000000BA,false,Rx,0,8,4A,4E,29,00,00,00,00,21,
1087101,0000015B,false,Rx,0,8,45,5F,00,03,00,00,00,00,
1087315,18FED007,true,Rx,0,6,00,03,AB,AB,AA,AB,00,00,
1087531,18FED008,true,Rx,0,7,7E,AB,0B,80,F6,FE,00,00,
1087913,18FED009,true,Rx,0,7,00,00,00,00,00,00,00,00,
1091922,000000BB,false,Rx,0,8,DC,DD,FF,D5,B5,2B,00,02,
1096828,000000BA,false,Rx,0,8,E3,4F,29,00,00,00,00,30,
1098474,0000015B,false,Rx,0,8,BA,50,00,03,00,00,00,00,
1098479,18FED007,true,Rx,0,6,00,03,A0,AB,9F,AB,00,00,
1098484,18FED008,true,Rx,0,7,7E,AB,00,80,F6,FE,00,00,
1098489,18FED009,true,Rx,0,7,00,00,00,00,00,00,00,00,
1102006,000000BB,false,Rx,0,8,30,DE,FF,D1,95,2B,00,00,
1103608,000001BC,false,Rx,0,8,70,2A,A4,43,3A,A4,43,0A,
1103818,000001B4,false,Rx,0,8,A5,6A,A4,46,6A,A4,47,0A,
1104028,000001C0,false,Rx,0,8,53,3A,A4,45,6A,A4,43,0A,
1104240,000001B0,false,Rx,0,8,9E,2A,A4,43,2A,A4,42,0A,
1104457,000001B8,false,Rx,0,8,E9,5A,A4,45,5A,A4,43,0A,
1104668,000001C4,false,Rx,0,8,92,3A,A4,45,5A,A4,43,0A,
1104881,000001C8,false,Rx,0,8,8C,6A,A4,46,5A,A4,46,0A,
1105107,000001CC,false,Rx,0,8,93,5A,A4,46,6A,A4,46,0A,
1106884,000000BA,false,Rx,0,8,3C,40,29,00,00,00,00,22,
1107094,0000015B,false,Rx,0,8,14,51,00,03,00,00,00,00,
1107305,18FED007,true,Rx,0,6,00,03,AB,AB,AA,AB,00,00,
1107693,18FED008,true,Rx,0,7,7E,AB,0B,80,F6,FE,00,00,
1107903,18FED009,true,Rx,0,7,00,00,00,00,00,00,00,00,
1108287,000001BD,false,Rx,0,8,3D,5A,A4,43,AA,A3,45,0A,
1108504,000001B5,false,Rx,0,8,8C,7A,A4,46,FA,A3,46,0A,
1108714,000001B6,false,Rx,0,8,6F,6A,A4,46,6A,A4,40,0A,
1108924,000001B1,false,Rx,0,8,23,2A,A4,42,AA,A3,46,0A,
1109134,000001B2,false,Rx,0,8,EF,6A,A4,46,6A,A4,3F,0A,
1109344,000001B9,false,Rx,0,8,E7,5A,A4,42,BA,A3,47,0A,
1109730,000001BA,false,Rx,0,8,A1,AA,A4,46,7A,A4,42,0A,
1109940,000001BE,false,Rx,0,8,C7,5A,A4,43,3A,A4,3D,0A,
1110150,000001C1,false,Rx,0,8,75,5A,A4,41,BA,A3,45,0A,
1110361,000001C2,false,Rx,0,8,67,5A,A4,45,5A,A4,3C,0A,
1110572,000001C5,false,Rx,0,8,21,3A,A4,42,CA,A3,45,0A,
1110782,000001C6,false,Rx,0,8,B7,5A,A4,45,5A,A4,3D,0A,
1110991,000001C9,false,Rx,0,8,AD,3A,A4,45,BA,A3,43,0A,
1111202,000001CA,false,Rx,0,8,7E,3A,A4,43,3A,A4,3C,0A,
1111414,000001CD,false,Rx,0,8,D8,6A,A4,45,DA,A3,45,0A,
1111628,000001CE,false,Rx,0,8,EE,6A,A4,45,5A,A4,40,0A,
1112010,000000BB,false,Rx,0,8,6D,DF,FF,D5,B5,2B,00,04,
1116915,000000BA,false,Rx,0,8,56,41,29,00,00,00,00,23,
1118440,0000015B,false,Rx,0,8,1A,52,00,03,00,00,00,00,
1118452,18FED007,true,Rx,0,6,00,03,AB,AB,AA,AB,00,00,
1118456,18FED008,true,Rx,0,7,7E,AB,0B,80,F6,FE,00,00,
1118461,18FED009,true,Rx,0,7,00,00,00,00,00,00,00,00,
1121998,000000BB,false,Rx,0,8,49,D0,FF,D5,B5,2B,00,06,
1126900,000000BA,false,Rx,0,8,A8,42,29,00,00,00,00,34,
1127109,0000015B,false,Rx,0,8,2B,53,00,03,00,00,00,00,
1127323,18FED007,true,Rx,0,6,00,03,A0,AB,9F,AB,00,00,
1127539,18FED008,true,Rx,0,7,7E,AB,00,80,F6,FE,00,00,
1127921,18FED009,true,Rx,0,7,00,00,00,00,00,00,00,00,
1131292,000001BC,false,Rx,0,8,6A,3B,A4,43,3A,A4,45,4A,
1131507,000001B4,false,Rx,0,8,9C,7B,A4,48,8A,A4,47,4A,
1131889,000001C0,false,Rx,0,8,1E,7B,A4,47,8A,A4,46,4A,
1132098,000000BB,false,Rx,0,8,0D,D1,FF,D1,95,2B,00,08,
1132310,000001B0,false,Rx,0,8,9C,8B,A4,49,8A,A4,48,4A,
1132525,000001B8,false,Rx,0,8,96,AB,A4,4A,AA,A4,49,4A,
1132734,000001C4,false,Rx,0,8,F0,9B,A4,49,9A,A4,48,4A,
1132944,000001C8,false,Rx,0,8,7B,7B,A4,47,6A,A4,47,4A,
1133154,000001CC,false,Rx,0,8,AE,7B,A4,48,7A,A4,48,4A,
1136318,000001BD,false,Rx,0,8,9E,3B,A4,43,4A,A4,4A,4A,
1136534,000001B5,false,Rx,0,8,9A,8B,A4,47,8A,A4,49,4A,
1136754,000001B6,false,Rx,0,8,63,8B,A4,48,9A,A4,48,4A,
1136964,000000BA,false,Rx,0,8,B0,43,29,00,00,00,00,25,
1145433,0000015B,false,Rx,0,8,8D,54,00,03,00,00,00,00,
1145438,000001B1,false,Rx,0,8,78,8B,A4,48,9A,A4,4B,4A,
1145450,000001B2,false,Rx,0,8,00,BB,A4,4D,CA,A4,4B,4A,
1145455,000001B9,false,Rx,0,8,4C,AB,A4,49,8A,A4,48,4A,
1145460,000001BA,false,Rx,0,8,20,AB,A4,49,9A,A4,49,4A,
1145465,000001BE,false,Rx,0,8,BB,AB,A4,49,9A,A4,49,4A,
1145470,000001C1,false,Rx,0,8,97,7B,A4,45,7A,A4,4A,4A,
1145475,000001C2,false,Rx,0,8,D6,AB,A4,49,AA,A4,48,4A,
1145480,000001C5,false,Rx,0,8,95,8B,A4,49,AA,A4,4B,4A,
1145485,000001C6,false,Rx,0,8,9E,BB,A4,4C,BA,A4,4B,4A,
1145490,000001C9,false,Rx,0,8,6F,5B,A4,46,6A,A4,4A,4A,
1145495,000001CA,false,Rx,0,8,65,9B,A4,49,9A,A4,48,4A,
1145500,000001CD,false,Rx,0,8,F6,7B,A4,47,9A,A4,49,4A,
1145505,000001CE,false,Rx,0,8,F9,AB,A4,4A,AA,A4,4A,4A,
1145510,18FED007,true,Rx,0,6,00,03,AB,AB,AA,AB,00,00,
1145515,18FED008,true,Rx,0,7,7E,AB,0B,80,F6,FE,00,00,
1145520,18FED009,true,Rx,0,7,00,00,00,00,00,00,00,00,
1145525,000000BB,false,Rx,0,8,F4,D2,FF,D5,B5,2B,00,0A,
1146792,000000BA,false,Rx,0,8,8D,44,29,00,00,00,00,26,
1147194,0000015B,false,Rx,0,8,04,55,00,03,00,00,00,00,
1147406,18FED007,true,Rx,0,6,00,03,AB,AB,AA,AB,00,00,
1147622,18FED008,true,Rx,0,7,7E,AB,0B,80,F6,FE,00,00,
1147833,18FED009,true,Rx,0,7,00,00,00,00,00,00,00,00,
1152040,000000BB,false,Rx,0,8,18,D3,FF,D5,B5,2B,00,0C,
1156818,000000BA,false,Rx,0,8,CB,45,29,00,00,00,00,30,
1157028,0000015B,false,Rx,0,8,54,56,00,03,00,00,00,00,
1158538,18FED007,true,Rx,0,6,00,03,A0,AB,9F,AB,00,00,
1158543,18FED008,true,Rx,0,7,7E,AB,0B,80,F6,FE,00,00,
1158548,18FED009,true,Rx,0,7,00,00,00,00,00,00,00,00,
1161986,000000BB,false,Rx,0,8,DA,D4,FF,D1,95,2B,00,00,
1163597,000001BC,false,Rx,0,8,37,2C,A4,43,3A,A4,43,0A,
1163806,000001B4,false,Rx,0,8,BB,6C,A4,46,6A,A4,47,0A,
1164016,000001C0,false,Rx,0,8,9E,3C,A4,45,6A,A4,43,0A,
1164226,000001B0,false,Rx,0,8,CE,2C,A4,43,2A,A4,42,0A,
1164437,000001B8,false,Rx,0,8,ED,5C,A4,45,5A,A4,43,0A,
1164653,000001C4,false,Rx,0,8,10,3C,A4,45,5A,A4,43,0A,
1164863,000001C8,false,Rx,0,8,7B,6C,A4,46,5A,A4,46,0A,
1165073,000001CC,false,Rx,0,8,0A,5C,A4,46,6A,A4,46,0A,
1166849,000000BA,false,Rx,0,8,38,46,29,00,00,00,00,27,
1167059,0000015B,false,Rx,0,8,4F,57,00,03,00,00,00,00,
1167275,18FED007,true,Rx,0,6,00,03,AB,AB,AA,AB,00,00,
1167662,18FED008,true,Rx,0,7,7E,AB,0B,80,F6,FE,00,00,
1167872,18FED009,true,Rx,0,7,00,00,00,00,00,00,00,00,
1168256,000001BD,false,Rx,0,8,17,5C,A4,43,AA,A3,45,0A,
1168472,000001B5,false,Rx,0,8,49,7C,A4,46,FA,A3,46,0A,
1168682,000001B6,false,Rx,0,8,A9,6C,A4,45,6A,A4,40,0A,
1168892,000001B1,false,Rx,0,8,4D,2C,A4,42,AA,A3,46,0A,
1169277,000001B2,false,Rx,0,8,95,6C,A4,46,6A,A4,3F,0A,
1169493,000001B9,false,Rx,0,8,47,5C,A4,42,BA,A3,47,0A,
1169703,000001BA,false,Rx,0,8,3F,AC,A4,46,7A,A4,42,0A,
1169912,000001BE,false,Rx,0,8,BB,5C,A4,43,3A,A4,3D,0A,
1170122,000001C1,false,Rx,0,8,8D,5C,A4,42,BA,A3,45,0A,
1170332,000001C2,false,Rx,0,8,C9,5C,A4,45,5A,A4,3C,0A,
1170547,000001C5,false,Rx,0,8,D6,3C,A4,42,CA,A3,45,0A,
1170756,000001C6,false,Rx,0,8,66,5C,A4,45,5A,A4,3D,0A,
1170967,000001C9,false,Rx,0,8,A7,3C,A4,45,BA,A3,43,0A,
1171177,000001CA,false,Rx,0,8,CC,3C,A4,43,3A,A4,3C,0A,
1171389,000001CD,false,Rx,0,8,BB,6C,A4,45,DA,A3,45,0A,
1171604,000001CE,false,Rx,0,8,C6,6C,A4,45,6A,A4,40,0A,
1171987,000000BB,false,Rx,0,8,CA,D5,FF,D5,B5,2B,00,0E,
1176906,000000BA,false,Rx,0,8,55,47,29,00,00,00,00,28,
1177129,0000015B,false,Rx,0,8,65,58,00,03,00,00,00,00,
1178695,18FED007,true,Rx,0,6,00,03,AB,AB,AA,AB,00,00,
1178700,18FED008,true,Rx,0,7,7E,AB,0B,80,F6,FE,00,00,
1178705,18FED009,true,Rx,0,7,00,00,00,00,00,00,00,00,
1178710,18FED00A,true,Rx,0,8,00,00,30,1E,00,41,00,00,
1181903,000000BB,false,Rx,0,8,57,D6,FF,D5,B5,2B,00,10,
1186827,000000BA,false,Rx,0,8,78,48,29,00,00,00,00,39,
1187080,0000015B,false,Rx,0,8,66,59,00,03,00,00,00,00,
1187298,18FED007,true,Rx,0,6,00,03,A0,AB,9F,AB,00,00,
1187543,18FED008,true,Rx,0,7,7E,AB,00,80,F6,FE,00,00,
1187929,18FED009,true,Rx,0,7,00,00,00,00,00,00,00,00,
1191311,000001BC,false,Rx,0,8,4B,3D,A4,43,4A,A4,45,9A,
1191526,000001B4,false,Rx,0,8,61,7D,A4,48,8A,A4,47,9A,
1191736,000001C0,false,Rx,0,8,1D,7D,A4,48,8A,A4,46,9A,
1192119,000000BB,false,Rx,0,8,B1,D7,FF,D1,95,2B,00,12,
1192331,000001B0,false,Rx,0,8,F8,8D,A4,48,9A,A4,48,9A,
1192546,000001B8,false,Rx,0,8,15,AD,A4,4A,AA,A4,49,9A,
1192755,000001C4,false,Rx,0,8,18,9D,A4,49,9A,A4,48,9A,
1192965,000001C8,false,Rx,0,8,8C,8D,A4,46,6A,A4,46,9A,
1193176,000001CC,false,Rx,0,8,B9,7D,A4,48,8A,A4,48,9A,
1196358,000001BD,false,Rx,0,8,9F,4D,A4,44,4A,A4,4A,9A,
1196575,000001B5,false,Rx,0,8,D1,8D,A4,46,7A,A4,49,9A,
1196785,000001B6,false,Rx,0,8,0B,8D,A4,49,8A,A4,48,9A,
1196995,000000BA,false,Rx,0,8,88,49,29,00,00,00,00,2A,
1198843,0000015B,false,Rx,0,8,73,5A,00,03,00,00,00,00,
1198848,000001B1,false,Rx,0,8,C4,8D,A4,48,8A,A4,4B,9A,
1198853,000001B2,false,Rx,0,8,90,BD,A4,4D,CA,A4,4B,9A,
1198858,000001B9,false,Rx,0,8,DE,AD,A4,49,9A,A4,48,9A,
1198863,000001BA,false,Rx,0,8,95,AD,A4,48,9A,A4,49,9A,
1198868,000001BE,false,Rx,0,8,A6,BD,A4,49,9A,A4,4A,9A,
1198873,000001C1,false,Rx,0,8,02,7D,A4,46,7A,A4,4A,9A,
1198878,000001C2,false,Rx,0,8,D6,AD,A4,4A,AA,A4,48,9A,
1199099,000001C5,false,Rx,0,8,7A,8D,A4,48,AA,A4,4C,9A,
1199310,000001C6,false,Rx,0,8,E6,BD,A4,4C,CA,A4,4C,9A,
1199525,000001C9,false,Rx,0,8,41,6D,A4,46,6A,A4,49,9A,
1199735,000001CA,false,Rx,0,8,89,9D,A4,49,9A,A4,48,9A,
1199945,000001CD,false,Rx,0,8,90,7D,A4,47,9A,A4,49,9A,
1200155,000001CE,false,Rx,0,8,E3,AD,A4,4A,AA,A4,4A,9A,
1200367,18FED007,true,Rx,0,6,00,03,AB,AB,AA,AB,00,00,
1200756,18FED008,true,Rx,0,7,7E,AB,0B,80,F6,FE,00,00,
1200967,18FED009,true,Rx,0,7,00,00,00,00,00,00,00,00,
1201887,000000BB,false,Rx,0,8,A0,D8,FF,D5,B5,2B,00,14,
1206791,000000BA,false,Rx,0,8,FD,4A,29,00,00,00,00,2B,
1207173,0000015B,false,Rx,0,8,8C,5B,00,03,00,00,00,00,
1207389,18FED007,true,Rx,0,6,00,03,AB,AB,AA,AB,00,00,
1207605,18FED008,true,Rx,0,7,7E,AB,0B,80,F6,FE,00,00,
1207816,18FED009,true,Rx,0,7,00,00,00,00,00,00,00,00,
1212021,000000BB,false,Rx,0,8,C0,D9,FF,D5,B5,2B,00,16,
1216849,000000BA,false,Rx,0,8,6F,4B,29,00,00,00,00,30,
1217059,0000015B,false,Rx,0,8,B3,5C,00,03,00,00,00,00,
1217272,18FED007,true,Rx,0,6,00,03,A0,AB,9F,AB,00,00,
1218850,18FED008,true,Rx,0,7,7E,AB,00,80,F6,FE,00,00,
1218855,18FED009,true,Rx,0,7,00,00,00,00,00,00,00,00,
1222032,000000BB,false,Rx,0,8,70,DA,FF,D1,95,2B,00,00,
1223846,000001C0,false,Rx,0,8,1C,3E,A4,45,6A,A4,43,0A,
1224056,000001BC,false,Rx,0,8,EB,2E,A4,43,3A,A4,43,0A,
1224268,000001B0,false,Rx,0,8,F3,2E,A4,43,2A,A4,42,0A,
1224476,000001B4,false,Rx,0,8,EA,6E,A4,46,6A,A4,47,0A,
1224693,000001B8,false,Rx,0,8,2A,5E,A4,45,5A,A4,43,0A,
1225076,000001C4,false,Rx,0,8,27,3E,A4,45,5A,A4,43,0A,
1225287,000001C8,false,Rx,0,8,F5,6E,A4,46,5A,A4,46,0A,
1225503,000001CC,false,Rx,0,8,26,5E,A4,46,6A,A4,46,0A,
1226949,000000BA,false,Rx,0,8,F6,4C,29,00,00,00,00,2C,
1227159,0000015B,false,Rx,0,8,F9,5D,00,03,00,00,00,00,
1227375,18FED007,true,Rx,0,6,00,03,AB,AB,AA,AB,00,00,
1227591,18FED008,true,Rx,0,7,7E,AB,0B,80,F6,FE,00,00,
1227801,18FED009,true,Rx,0,7,00,00,00,00,00,00,00,00,
1228538,000001C9,false,Rx,0,8,52,3E,A4,45,BA,A3,43,0A,
1228748,000001BD,false,Rx,0,8,AD,5E,A4,43,AA,A3,45,0A,
1229129,000001B1,false,Rx,0,8,B6,2E,A4,42,AA,A3,46,0A,
1229341,000001B2,false,Rx,0,8,00,6E,A4,46,6A,A4,3F,0A,
1229559,000001B5,false,Rx,0,8,E0,7E,A4,46,FA,A3,46,0A,
1229769,000001B6,false,Rx,0,8,77,6E,A4,45,6A,A4,40,0A,
1229989,000001B9,false,Rx,0,8,AC,5E,A4,42,BA,A3,47,0A,
1230199,000001BA,false,Rx,0,8,01,AE,A4,46,7A,A4,42,0A,
1230411,000001BE,false,Rx,0,8,DC,5E,A4,43,3A,A4,3D,0A,
1230628,000001C1,false,Rx,0,8,B6,5E,A4,41,BA,A3,45,0A,
1230838,000001C2,false,Rx,0,8,9D,5E,A4,45,5A,A4,3C,0A,
1231048,000001C5,false,Rx,0,8,BF,3E,A4,42,CA,A3,45,0A,
1231260,000001C6,false,Rx,0,8,94,5E,A4,45,5A,A4,3D,0A,
1231468,000001CA,false,Rx,0,8,95,3E,A4,43,3A,A4,3C,0A,
1231857,000001CD,false,Rx,0,8,F6,6E,A4,45,DA,A3,45,0A,
1232067,000000BB,false,Rx,0,8,16,DB,FF,D5,B5,2B,00,18,
1232278,000001CE,false,Rx,0,8,65,6E,A4,45,6A,A4,40,0A,
1236865,000000BA,false,Rx,0,8,55,4D,29,00,00,00,00,2D,
1237074,0000015B,false,Rx,0,8,2E,5E,00,03,00,00,00,00,
1237288,18FED007,true,Rx,0,6,00,03,AB,AB,AA,AB,00,00,
1238695,18FED008,true,Rx,0,7,7E,AB,0B,80,F6,FE,00,00,
1238700,18FED009,true,Rx,0,7,00,00,00,00,00,00,00,00,
1241921,000000BB,false,Rx,0,8,71,DC,FF,D5,B5,2B,00,1A,
1246918,000000BA,false,Rx,0,8,2B,4E,29,00,00,00,00,3E,
1247127,0000015B,false,Rx,0,8,45,5F,00,03,00,00,00,00,
1247339,18FED007,true,Rx,0,6,00,03,A0,AB,9F,AB,00,00,
1247555,18FED008,true,Rx,0,7,7E,AB,00,80,F6,FE,00,00,
1247937,18FED009,true,Rx,0,7,00,00,00,00,00,00,00,00,
1251277,000001BC,false,Rx,0,8,03,3F,A4,44,4A,A4,44,EA,
1251665,000001B4,false,Rx,0,8,34,7F,A4,48,7A,A4,48,EA,
1251875,000001C0,false,Rx,0,8,0A,7F,A4,47,8A,A4,46,EA,
1252085,000000BB,false,Rx,0,8,B6,DD,FF,D1,95,2B,00,1C,
1252296,000001B0,false,Rx,0,8,E4,7F,A4,48,9A,A4,48,EA,
1252513,000001B8,false,Rx,0,8,B4,AF,A4,49,AA,A4,49,EA,
1252723,000001C4,false,Rx,0,8,60,9F,A4,49,9A,A4,48,EA,
1252934,000001C8,false,Rx,0,8,1F,7F,A4,46,6A,A4,46,EA,
1253148,000001CC,false,Rx,0,8,D3,7F,A4,48,8A,A4,48,EA,
1256321,000001BD,false,Rx,0,8,4E,3F,A4,43,4A,A4,4A,EA,
1256537,000001B5,false,Rx,0,8,CB,7F,A4,47,8A,A4,48,EA,
1256748,000001B6,false,Rx,0,8,8E,8F,A4,49,8A,A4,48,EA,
1257130,000000BA,false,Rx,0,8,82,4F,29,00,00,00,00,2F,
1257341,0000015B,false,Rx,0,8,BA,50,00,03,00,00,00,00,
1258870,000001B1,false,Rx,0,8,6E,8F,A4,48,8A,A4,4B,EA,
1258875,000001B2,false,Rx,0,8,0D,CF,A4,4D,CA,A4,4A,EA,
1258880,000001B9,false,Rx,0,8,DB,AF,A4,49,9A,A4,48,EA,
1258885,000001BA,false,Rx,0,8,22,AF,A4,49,9A,A4,49,EA,
1258890,000001BE,false,Rx,0,8,D0,AF,A4,49,8A,A4,4A,EA,
1258895,000001C1,false,Rx,0,8,B4,7F,A4,45,7A,A4,4A,EA,
1258900,000001C2,false,Rx,0,8,70,9F,A4,49,9A,A4,48,EA,
1259120,000001C5,false,Rx,0,8,05,8F,A4,48,AA,A4,4C,EA,
1259339,000001C6,false,Rx,0,8,FF,BF,A4,4C,BA,A4,4C,EA,
1259550,000001C9,false,Rx,0,8,BE,6F,A4,46,6A,A4,49,EA,
1259761,000001CA,false,Rx,0,8,6E,9F,A4,49,8A,A4,49,EA,
1259972,000001CD,false,Rx,0,8,E8,7F,A4,46,8A,A4,49,EA,
1260180,000001CE,false,Rx,0,8,87,BF,A4,4A,AA,A4,4A,EA,
1260392,18FED007,true,Rx,0,6,00,03,AB,AB,AA,AB,00,00,
1260780,18FED008,true,Rx,0,7,7E,AB,0B,80,F6,FE,00,00,
1260995,18FED009,true,Rx,0,7,00,00,00,00,00,00,00,00,
1261929,000000BB,false,Rx,0,8,5A,DE,FF,D5,B5,2B,00,1E,
1266846,000000BA,false,Rx,0,8,28,40,29,00,00,00,00,21,
1267055,0000015B,false,Rx,0,8,14,51,00,03,00,00,00,00,
1267267,18FED007,true,Rx,0,6,00,03,AB,AB,AA,AB,00,00,
1267655,18FED008,true,Rx,0,7,7E,AB,0B,80,F6,FE,00,00,
1267865,18FED009,true,Rx,0,7,00,00,00,00,00,00,00,00,
1272009,000000BB,false,Rx,0,8,45,DF,FF,D5,B5,2B,00,02,
1276807,000000BA,false,Rx,0,8,67,41,29,00,00,00,00,30,
1277204,0000015B,false,Rx,0,8,1A,52,00,03,00,00,00,00,
1277416,18FED007,true,Rx,0,6,00,03,A0,AB,9F,AB,00,00,
1279036,18FED008,true,Rx,0,7,7E,AB,0B,80,F6,FE,00,00,
1279041,18FED009,true,Rx,0,7,00,00,00,00,00,00,00,00,
1279046,18FED00A,true,Rx,0,8,00,00,30,1E,00,41,00,00,
1282059,000000BB,false,Rx,0,8,83,D0,FF,D1,95,2B,00,00,
1283490,000001BC,false,Rx,0,8,31,20,A4,43,3A,A4,43,0A,
1283700,000001B4,false,Rx,0,8,68,60,A4,46,6A,A4,47,0A,
1283910,000001C0,false,Rx,0,8,F4,30,A4,45,6A,A4,43,0A,
1284294,000001B0,false,Rx,0,8,54,20,A4,43,2A,A4,42,0A,
1284509,000001B8,false,Rx,0,8,18,50,A4,45,5A,A4,43,0A,
1284719,000001C4,false,Rx,0,8,8A,30,A4,45,5A,A4,43,0A,
1284929,000001C8,false,Rx,0,8,C8,60,A4,46,5A,A4,46,0A,
1285139,000001CC,false,Rx,0,8,8B,50,A4,46,6A,A4,46,0A,
1286939,000000BA,false,Rx,0,8,A5,42,29,00,00,00,00,22,
1287149,0000015B,false,Rx,0,8,2B,53,00,03,00,00,00,00,
1287365,18FED007,true,Rx,0,6,00,03,AB,AB,AA,AB,00,00,
1287581,18FED008,true,Rx,0,7,7E,AB,0B,80,F6,FE,00,00,
1287791,18FED009,true,Rx,0,7,00,00,00,00,00,00,00,00,
1288348,000001BD,false,Rx,0,8,BE,50,A4,43,AA,A3,45,0A,
1288564,000001B1,false,Rx,0,8,12,20,A4,42,AA,A3,46,0A,
1288774,000001B2,false,Rx,0,8,45,60,A4,46,6A,A4,3F,0A,
1288983,000001B5,false,Rx,0,8,52,70,A4,46,FA,A3,46,0A,
1289193,000001B6,false,Rx,0,8,4D,60,A4,45,6A,A4,40,0A,
1289405,000001B9,false,Rx,0,8,54,50,A4,42,BA,A3,47,0A,
1289621,000001BA,false,Rx,0,8,66,A0,A4,46,7A,A4,42,0A,
1289831,000001BE,false,Rx,0,8,8E,50,A4,43,3A,A4,3D,0A,
1290041,000001C1,false,Rx,0,8,F1,50,A4,41,BA,A3,45,0A,
1290252,000001C2,false,Rx,0,8,19,50,A4,45,5A,A4,3C,0A,
1290641,000001C5,false,Rx,0,8,66,30,A4,42,CA,A3,45,0A,
1290860,000001C6,false,Rx,0,8,99,50,A4,45,5A,A4,3D,0A,
1291075,000001C9,false,Rx,0,8,27,50,A4,45,BA,A3,43,0A,
1291286,000001CA,false,Rx,0,8,79,30,A4,43,3A,A4,3C,0A,
1291503,000001CD,false,Rx,0,8,4E,60,A4,45,DA,A3,45,0A,
1291712,000001CE,false,Rx,0,8,02,60,A4,45,6A,A4,40,0A,
1291922,000000BB,false,Rx,0,8,BF,D1,FF,D5,B5,2B,00,04,
1296828,000000BA,false,Rx,0,8,98,43,29,00,00,00,00,23,
1297038,0000015B,false,Rx,0,8,8D,54,00,03,00,00,00,00,
1297421,18FED007,true,Rx,0,6,00,03,AB,AB,AA,AB,00,00,
1298891,18FED008,true,Rx,0,7,7E,AB,0B,80,F6,FE,00,00,
1298896,18FED009,true,Rx,0,7,00,00,00,00,00,00,00,00,
1301918,000000BB,false,Rx,0,8,A4,D2,FF,D5,B5,2B,00,06,
1306824,000000BA,false,Rx,0,8,55,44,29,00,00,00,00,34,
1307034,0000015B,false,Rx,0,8,04,55,00,03,00,00,00,00,
1307417,18FED007,true,Rx,0,6,00,03,A0,AB,9F,AB,00,00,
1307633,18FED008,true,Rx,0,7,7E,AB,00,80,F6,FE,00,00,
1307842,18FED009,true,Rx,0,7,00,00,00,00,00,00,00,00,
1311352,000001BC,false,Rx,0,8,EB,31,A4,44,4A,A4,44,4A,
1311568,000001B4,false,Rx,0,8,87,81,A4,48,7A,A4,48,4A,
1311784,000001C0,false,Rx,0,8,E4,71,A4,48,8A,A4,46,4A,
1312006,000000BB,false,Rx,0,8,2F,D3,FF,D1,95,2B,00,08,
1312253,000001B0,false,Rx,0,8,FC,81,A4,49,9A,A4,48,4A,
1312510,000001B8,false,Rx,0,8,77,A1,A4,4A,AA,A4,49,4A,
1312719,000001C4,false,Rx,0,8,DF,91,A4,49,9A,A4,49,4A,
1312929,000001C8,false,Rx,0,8,94,71,A4,46,6A,A4,46,4A,
1313139,000001CC,false,Rx,0,8,FB,71,A4,48,8A,A4,47,4A,
1316482,000001BD,false,Rx,0,8,0C,31,A4,43,4A,A4,4A,4A,
1316691,000001B5,false,Rx,0,8,A5,81,A4,47,8A,A4,48,4A,
1316901,000001B6,false,Rx,0,8,C8,91,A4,49,9A,A4,48,4A,
1317110,000000BA,false,Rx,0,8,D2,45,29,00,00,00,00,25,
1317323,0000015B,false,Rx,0,8,54,56,00,03,00,00,00,00,
1317531,000001B1,false,Rx,0,8,4D,81,A4,48,9A,A4,4B,4A,
1319186,000001B2,false,Rx,0,8,E4,C1,A4,4C,CA,A4,4B,4A,
1319191,000001B9,false,Rx,0,8,C6,A1,A4,49,9A,A4,48,4A,
1319196,000001BA,false,Rx,0,8,D5,B1,A4,48,9A,A4,49,4A,
1319201,000001BE,false,Rx,0,8,42,A1,A4,4A,9A,A4,49,4A,
1319206,000001C1,false,Rx,0,8,4A,71,A4,45,7A,A4,4A,4A,
1319211,000001C2,false,Rx,0,8,18,91,A4,49,AA,A4,48,4A,
1319252,000001C5,false,Rx,0,8,32,81,A4,48,AA,A4,4C,4A,
1319257,000001C6,false,Rx,0,8,47,B1,A4,4C,CA,A4,4B,4A,
1319479,000001C9,false,Rx,0,8,9F,51,A4,45,6A,A4,49,4A,
1319861,000001CA,false,Rx,0,8,58,91,A4,49,8A,A4,49,4A,
1320071,000001CD,false,Rx,0,8,B3,71,A4,46,9A,A4,49,4A,
1320282,000001CE,false,Rx,0,8,2B,A1,A4,4A,BA,A4,4A,4A,
1320499,18FED007,true,Rx,0,6,00,03,AB,AB,AA,AB,00,00,
1320710,18FED008,true,Rx,0,7,7E,AB,0B,80,F6,FE,00,00,
1321092,18FED009,true,Rx,0,7,00,00,00,00,00,00,00,00,
1321999,000000BB,false,Rx,0,8,40,D4,FF,D5,B5,2B,00,0A,
1326778,000000BA,false,Rx,0,8,D1,46,29,00,00,00,00,26,
1327160,0000015B,false,Rx,0,8,4F,57,00,03,00,00,00,00,
1327376,18FED007,true,Rx,0,6,00,03,AB,AB,AA,AB,00,00,
1327593,18FED008,true,Rx,0,7,7E,AB,0B,80,F6,FE,00,00,
1327803,18FED009,true,Rx,0,7,00,00,00,00,00,00,00,00,
1332005,000000BB,false,Rx,0,8,37,D5,FF,D5,B5,2B,00,0C,
1336906,000000BA,false,Rx,0,8,F5,47,29,00,00,00,00,30,
1337116,0000015B,false,Rx,0,8,65,58,00,03,00,00,00,00,
1337338,18FED007,true,Rx,0,6,00,03,A0,AB,9F,AB,00,00,
1337562,18FED008,true,Rx,0,7,7E,AB,00,80,F6,FE,00,00,
1339403,18FED009,true,Rx,0,7,00,00,00,00,00,00,00,00,
1341913,000000BB,false,Rx,0,8,90,D6,FF,D1,95,2B,00,00,
1343531,000001BC,false,Rx,0,8,52,22,A4,43,3A,A4,43,0A,
1343742,000001B4,false,Rx,0,8,FF,62,A4,46,6A,A4,47,0A,
1343957,000001C0,false,Rx,0,8,29,32,A4,45,6A,A4,43,0A,
1344178,000001B0,false,Rx,0,8,EC,22,A4,43,2A,A4,42,0A,
1344390,000001B8,false,Rx,0,8,33,52,A4,45,5A,A4,43,0A,
1344606,000001C4,false,Rx,0,8,14,32,A4,45,5A,A4,43,0A,
1344815,000001C8,false,Rx,0,8,19,62,A4,46,5A,A4,46,0A,
1345195,000001CC,false,Rx,0,8,C7,52,A4,46,6A,A4,46,0A,
1346799,000000BA,false,Rx,0,8,F0,48,29,00,00,00,00,27,
1347181,0000015B,false,Rx,0,8,66,59,00,03,00,00,00,00,
1347392,18FED007,true,Rx,0,6,00,03,AB,AB,AA,AB,00,00,
1347608,18FED008,true,Rx,0,7,7E,AB,0B,80,F6,FE,00,00,
1347818,18FED009,true,Rx,0,7,00,00,00,00,00,00,00,00,
1348200,000001BD,false,Rx,0,8,4E,32,A4,43,AA,A3,45,0A,
1348589,000001B5,false,Rx,0,8,5B,72,A4,46,FA,A3,46,0A,
1348799,000001BE,false,Rx,0,8,D3,52,A4,43,3A,A4,3D,0A,
1349009,000001B1,false,Rx,0,8,76,22,A4,42,AA,A3,46,0A,
1349218,000001B2,false,Rx,0,8,B2,62,A4,46,6A,A4,3F,0A,
1349430,000001B6,false,Rx,0,8,1B,62,A4,45,6A,A4,40,0A,
1349645,000001B9,false,Rx,0,8,67,52,A4,42,BA,A3,47,0A,
1349853,000001BA,false,Rx,0,8,06,A2,A4,46,7A,A4,42,0A,
1350062,000001C1,false,Rx,0,8,4E,52,A4,41,BA,A3,45,0A,
1350275,000001C2,false,Rx,0,8,99,52,A4,45,5A,A4,3C,0A,
1350496,000001C5,false,Rx,0,8,06,32,A4,43,CA,A3,45,0A,
1350713,000001C6,false,Rx,0,8,56,52,A4,45,5A,A4,3D,0A,
1350953,000001C9,false,Rx,0,8,D1,52,A4,45,BA,A3,43,0A,
1351207,000001CA,false,Rx,0,8,31,32,A4,43,3A,A4,3C,0A,
1351420,000001CD,false,Rx,0,8,BD,62,A4,45,DA,A3,45,0A,
1351637,000001CE,false,Rx,0,8,50,62,A4,45,6A,A4,40,0A,
1352019,000000BB,false,Rx,0,8,26,D7,FF,D5,B5,2B,00,0E,
1355645,16A95419,true,Rx,0,8,AA,9A,8A,20,00,00,A0,80,
1356897,000000BA,false,Rx,0,8,75,49,29,00,00,00,00,28,
1357107,0000015B,false,Rx,0,8,73,5A,00,03,00,00,00,00,
1357319,18FED007,true,Rx,0,6,00,03,AB,AB,AA,AB,00,00,
1357535,18FED008,true,Rx,0,7,7E,AB,0B,80,F6,FE,00,00,
1357917,18FED009,true,Rx,0,7,00,00,00,00,00,00,00,00,
1361929,000000BB,false,Rx,0,8,75,D8,FF,D5,B5,2B,00,10,
1366870,000000BA,false,Rx,0,8,25,4A,29,00,00,00,00,39,
1367080,0000015B,false,Rx,0,8,8C,5B,00,03,00,00,00,00,
1367291,18FED007,true,Rx,0,6,00,03,A0,AB,9F,AB,00,00,
1367680,18FED008,true,Rx,0,7,7E,AB,00,80,F6,FE,00,00,
1367890,18FED009,true,Rx,0,7,00,00,00,00,00,00,00,00,
1371402,000001BC,false,Rx,0,8,7A,33,A4,43,4A,A4,44,9A,
1371618,000001B4,false,Rx,0,8,C5,73,A4,48,8A,A4,47,9A,
1371828,000001C0,false,Rx,0,8,16,73,A4,48,8A,A4,46,9A,
1372038,000000BB,false,Rx,0,8,F7,D9,FF,D1,95,2B,00,12,
