Time Stamp,ID,Extended,Dir,Bus,LEN,D1,D2,D3,D4,D5,D6,D7,D8
118107009,1A555401,true,Rx,0,8,FB,00,00,00,FB,FB,FB,FB,
118107221,1A555405,true,Rx,0,8,FB,00,00,00,FB,FB,FB,FB,
118107431,1A555402,true,Rx,0,8,FB,00,00,00,FB,FB,FB,FB,
118107641,18FED102,true,Rx,0,5,00,50,00,00,00,00,00,00,
118108028,18FED502,true,Rx,0,5,00,50,00,00,00,00,00,00,
118108237,18FED202,true,Rx,0,5,00,50,00,00,00,00,00,00,
118108447,18FED302,true,Rx,0,5,00,50,00,00,00,00,00,00,
118108658,18FED402,true,Rx,0,5,00,50,00,00,00,00,00,00,
118108872,16A9541A,true,Rx,0,8,A8,AA,A2,AA,AA,AA,AA,AA,
118109255,16A9541B,true,Rx,0,8,A8,AA,A2,AA,AA,AA,AA,AA,
118109465,16A9541C,true,Rx,0,8,A8,AA,A2,AA,AA,AA,AA,AA,
118109678,16A9541D,true,Rx,0,8,A8,AA,A2,AA,AA,AA,AA,AA,
118110066,16A9541E,true,Rx,0,8,A8,AA,A2,AA,AA,AA,AA,AA,
118110277,16A9541F,true,Rx,0,8,A8,AA,A2,AA,AA,AA,AA,AA,
118110487,16A95420,true,Rx,0,8,A8,AA,A2,AA,AA,AA,AA,AA,
118110699,16A95421,true,Rx,0,8,A8,AA,A2,AA,AA,AA,AA,AA,
118111088,18FED602,true,Rx,0,5,00,50,00,00,00,00,00,00,
118111297,18FED702,true,Rx,0,5,00,50,00,00,00,00,00,00,
118111507,18FED802,true,Rx,0,5,00,50,00,00,00,00,00,00,
118111718,1A555403,true,Rx,0,8,FB,00,00,00,FB,FB,FB,FB,
118112106,1A555404,true,Rx,0,8,FB,00,00,00,FB,FB,FB,FB,
118112316,1A555406,true,Rx,0,8,FB,00,00,00,FB,FB,FB,FB,
118112701,1A555407,true,Rx,0,8,FB,00,00,00,FB,FB,FB,FB,
118112918,1A555408,true,Rx,0,8,FB,00,00,00,FB,FB,FB,FB,
118113128,1A555460,true,Rx,0,8,00,30,30,30,30,00,00,00,
118113510,1A555461,true,Rx,0,8,00,30,30,30,30,00,00,00,
118113722,1A555462,true,Rx,0,8,00,30,30,30,30,00,00,00,
118114111,1A555463,true,Rx,0,8,00,30,30,30,30,00,00,00,
118114322,1A555464,true,Rx,0,8,00,30,30,30,30,00,00,00,
118114532,1A555465,true,Rx,0,8,00,30,30,30,30,00,00,00,
118114923,1A555466,true,Rx,0,8,00,30,30,30,30,00,00,00,
118115133,1A555467,true,Rx,0,8,00,30,30,30,30,00,00,00,
118134822,18FED102,true,Rx,0,5,00,00,00,00,00,00,00,00,
118135038,18FED502,true,Rx,0,5,00,10,00,00,00,00,00,00,
118135420,18FED202,true,Rx,0,5,00,00,00,00,00,00,00,00,
118135632,18FED302,true,Rx,0,5,00,00,00,00,00,00,00,00,
118135849,18FED402,true,Rx,0,5,00,00,00,00,00,00,00,00,
118136057,18FED602,true,Rx,0,5,00,10,00,00,00,00,00,00,
118136267,18FED702,true,Rx,0,5,00,00,00,00,00,00,00,00,
118136477,18FED802,true,Rx,0,5,00,10,00,00,00,00,00,00,
118157313,16A9541A,true,Rx,0,8,A8,AA,A0,AA,AA,AA,AA,AA,
118157699,16A9541E,true,Rx,0,8,A8,AA,A0,AA,AA,AA,AA,AA,
118157915,16A9541B,true,Rx,0,8,A8,AA,A0,AA,AA,AA,AA,AA,
118158125,16A9541C,true,Rx,0,8,A8,AA,A0,AA,AA,AA,AA,AA,
118159772,16A9541D,true,Rx,0,8,A8,AA,A0,AA,AA,AA,AA,AA,
118159778,16A9541F,true,Rx,0,8,A8,AA,A0,AA,AA,AA,AA,AA,
118159783,16A95420,true,Rx,0,8,A8,AA,A0,AA,AA,AA,AA,AA,
118159788,16A95421,true,Rx,0,8,A8,AA,A0,AA,AA,AA,AA,AA,
118164793,18FED102,true,Rx,0,5,0C,00,00,00,00,00,00,00,
118165009,18FED502,true,Rx,0,5,0C,00,00,00,00,00,00,00,
118165219,18FED202,true,Rx,0,5,0C,00,00,00,00,00,00,00,
118165600,18FED302,true,Rx,0,5,0C,00,00,00,00,00,00,00,
118165812,18FED402,true,Rx,0,5,0C,00,00,00,00,00,00,00,
118166025,18FED602,true,Rx,0,5,0C,00,00,00,00,00,00,00,
118166235,18FED702,true,Rx,0,5,0C,00,00,00,00,00,00,00,
118166444,18FED802,true,Rx,0,5,0C,00,00,00,00,00,00,00,
118207134,1A555401,true,Rx,0,8,61,00,00,00,FE,FE,FE,FE,
118207346,1A555405,true,Rx,0,8,62,00,00,00,FE,FE,FE,FE,
118207556,1A555402,true,Rx,0,8,61,00,00,00,FE,FE,FE,FE,
118207948,1A555403,true,Rx,0,8,60,00,00,00,FE,FE,FE,FE,
118208157,1A555404,true,Rx,0,8,61,00,00,00,FE,FE,FE,FE,
118208540,1A555406,true,Rx,0,8,61,00,00,00,FE,FE,FE,FE,
118208752,1A555407,true,Rx,0,8,61,00,00,00,FE,FE,FE,FE,
118208967,1A555408,true,Rx,0,8,61,00,00,00,FE,FE,FE,FE,
118215602,16A9541A,true,Rx,0,8,A8,AA,A0,AA,AA,A0,AA,AA,
118215814,16A9541E,true,Rx,0,8,A8,AA,A0,AA,AA,A0,AA,AA,
118216201,16A9541B,true,Rx,0,8,A8,AA,A0,AA,AA,A0,AA,AA,
118216412,16A9541C,true,Rx,0,8,A8,AA,A0,AA,AA,A0,AA,AA,
118216622,16A9541D,true,Rx,0,8,A8,AA,A0,AA,AA,A0,AA,AA,
118217006,16A9541F,true,Rx,0,8,A8,AA,A0,AA,AA,A0,AA,AA,
118217216,16A95420,true,Rx,0,8,A8,AA,A0,AA,AA,A0,AA,AA,
118217427,16A95421,true,Rx,0,8,A8,AA,A0,AA,AA,A0,AA,AA,
118262778,18FED005,true,Rx,0,2,08,00,00,00,00,00,00,00,
118263340,16A95419,true,Rx,0,8,80,AA,02,AA,AA,AA,A4,80,
118263549,18FED002,true,Rx,0,3,00,00,00,00,00,00,00,00,
118263760,18FED003,true,Rx,0,6,00,00,00,00,00,00,00,00,
118263975,18FED004,true,Rx,0,3,00,00,00,00,00,00,00,00,
118264184,18FED006,true,Rx,0,3,00,00,00,00,00,00,00,00,
118264395,1A55545F,true,Rx,0,8,00,20,20,20,20,00,00,00,
118265130,0000015B,false,Rx,0,8,9A,00,00,02,00,00,00,00,
118265340,18FED007,true,Rx,0,6,00,00,FE,FF,FE,FF,00,00,
118265550,18FED008,true,Rx,0,7,FE,FF,FE,FF,F6,FE,00,00,
118265942,18FED009,true,Rx,0,7,00,00,00,00,00,00,00,00,
118266152,18FED00A,true,Rx,0,8,00,00,02,00,10,41,00,00,
118267059,18FED102,true,Rx,0,5,0C,20,00,00,00,00,00,00,
118267269,18FED502,true,Rx,0,5,0C,20,00,00,00,00,00,00,
118267652,18FED202,true,Rx,0,5,0C,20,00,00,00,00,00,00,
118267867,18FED302,true,Rx,0,5,0C,20,00,00,00,00,00,00,
118268077,18FED402,true,Rx,0,5,0C,20,00,00,00,00,00,00,
118268286,18FED602,true,Rx,0,5,0C,20,00,00,00,00,00,00,
118268496,18FED702,true,Rx,0,5,0C,20,00,00,00,00,00,00,
118268711,18FED802,true,Rx,0,5,0C,20,00,00,00,00,00,00,
118275051,0000015B,false,Rx,0,8,34,01,00,02,00,00,00,00,
118275433,18FED007,true,Rx,0,6,00,00,FE,FF,FE,FF,00,00,
118275645,18FED008,true,Rx,0,7,FE,FF,FE,FF,F6,FE,00,00,
118275860,18FED009,true,Rx,0,7,00,00,00,00,00,00,00,00,
118283106,18FED002,true,Rx,0,3,00,00,10,00,00,00,00,00,
118285056,0000015B,false,Rx,0,8,3A,02,00,02,00,00,00,00,
118285454,18FED007,true,Rx,0,6,00,00,FE,FF,FE,FF,00,00,
118285670,18FED008,true,Rx,0,7,FE,FF,FE,FF,F6,FE,00,00,
118285899,18FED009,true,Rx,0,7,00,00,00,00,00,00,00,00,
118291700,000000BA,false,Rx,0,8,83,A1,2A,00,00,00,00,31,
118292090,1A55540A,true,Rx,0,8,FE,FE,FE,FE,FE,FE,FE,FE,
118292300,1A55540B,true,Rx,0,8,FE,FE,FE,FE,FE,FE,FE,FE,
118292690,1A55540C,true,Rx,0,8,FE,FE,FE,FE,FE,FE,FE,FE,
118292920,1A55540D,true,Rx,0,8,FE,FE,FE,FE,FE,FE,FE,FE,
118293139,1A555410,true,Rx,0,8,FE,FE,FE,FE,FE,FE,FE,FE,
118293557,1A555411,true,Rx,0,8,FE,FE,FE,FE,FE,FE,FE,FE,
118293770,1A555412,true,Rx,0,8,FE,FE,FE,FE,FE,FE,FE,FE,
118293986,16A95419,true,Rx,0,8,80,AA,02,AA,AA,AA,A0,80,
118294368,1A555413,true,Rx,0,8,FE,FE,FE,FE,FE,FE,FE,FE,
118294578,1A555414,true,Rx,0,8,FE,FE,FE,FE,FE,FE,FE,FE,
118294968,1A555415,true,Rx,0,8,FE,FE,FE,FE,FE,FE,FE,FE,
118295178,000000BB,false,Rx,0,8,78,E0,FF,D7,55,00,00,02,
118295388,0000015B,false,Rx,0,8,0B,03,00,02,00,00,00,00,
118295598,18FED007,true,Rx,0,6,00,00,AB,AB,0B,80,00,00,
118295981,18FED008,true,Rx,0,7,49,80,AF,83,F6,FE,00,00,
118296198,000001B4,false,Rx,0,8,A2,80,A4,48,8A,A4,48,1A,
118296408,18FED009,true,Rx,0,7,00,00,00,00,00,00,00,00,
118296619,000001B8,false,Rx,0,8,D9,A0,A4,4A,AA,A4,4A,1A,
118296835,000001B0,false,Rx,0,8,1A,80,A4,49,8A,A4,49,1A,
118297046,000001BC,false,Rx,0,8,40,30,A4,44,4A,A4,45,1A,
118297428,000001CC,false,Rx,0,8,E2,60,A4,48,8A,A4,47,1A,
118297638,000001C0,false,Rx,0,8,9F,70,A4,48,9A,A4,46,1A,
118297853,000001C4,false,Rx,0,8,2D,90,A4,4A,AA,A4,49,1A,
118298062,000001C8,false,Rx,0,8,58,A0,A4,48,7A,A4,48,1A,
118298273,1A555416,true,Rx,0,8,FE,FE,FE,FE,FE,FE,FE,FE,
118298657,1A555417,true,Rx,0,8,FE,FE,FE,FE,FE,FE,FE,FE,
118298872,1A555418,true,Rx,0,8,FE,FE,FE,FE,FE,FE,FE,FE,
118300568,1A555419,true,Rx,0,8,FE,FE,FE,FE,FE,FE,FE,FE,
118300573,1A55541A,true,Rx,0,8,FE,FE,FE,FE,FE,FE,FE,FE,
118300578,1A55541B,true,Rx,0,8,FE,FE,FE,FE,FE,FE,FE,FE,
118300583,1A55541E,true,Rx,0,8,FE,FE,FE,FE,FE,FE,FE,FE,
118300588,1A55541F,true,Rx,0,8,FE,FE,FE,FE,FE,FE,FE,FE,
118300593,1BFFDA19,true,Rx,0,2,00,08,00,00,00,00,00,00,
118300815,1BFFDA1A,true,Rx,0,2,00,18,00,00,00,00,00,00,
118301221,000001B5,false,Rx,0,8,64,80,A4,48,9A,A4,48,1A,
118301431,000001B6,false,Rx,0,8,A7,90,A4,49,8A,A4,48,1A,
118301642,000001B9,false,Rx,0,8,46,B0,A4,4A,AA,A4,49,1A,
118301858,000000BA,false,Rx,0,8,A8,A2,2A,00,00,00,00,22,
118302068,000001B1,false,Rx,0,8,DB,80,A4,48,9A,A4,4C,1A,
118302278,000001B2,false,Rx,0,8,D1,C0,A4,4D,CA,A4,4C,1A,
118302663,000001BA,false,Rx,0,8,4E,B0,A4,49,9A,A4,4A,1A,
118302892,000001BD,false,Rx,0,8,38,40,A4,44,4A,A4,4A,1A,
118303137,000001BE,false,Rx,0,8,02,A0,A4,49,9A,A4,4A,1A,
118303375,000001C1,false,Rx,0,8,C4,80,A4,46,8A,A4,4A,1A,
118303600,000001C2,false,Rx,0,8,60,A0,A4,4A,AA,A4,48,1A,
118303812,000001C5,false,Rx,0,8,89,80,A4,49,AA,A4,4D,1A,
118304024,000001C6,false,Rx,0,8,E3,C0,A4,4C,DA,A4,4D,1A,
118304234,000001C9,false,Rx,0,8,FA,70,A4,47,7A,A4,4A,1A,
118304444,000001CA,false,Rx,0,8,85,B0,A4,4A,BA,A4,4A,1A,
118304654,000001CD,false,Rx,0,8,B0,60,A4,46,9A,A4,49,1A,
118304870,000001CE,false,Rx,0,8,5C,A0,A4,4A,AA,A4,4A,1A,
118305080,16A9541A,true,Rx,0,8,A8,A8,80,AA,A0,A0,AA,AA,
118305291,000000BB,false,Rx,0,8,22,E1,FF,D7,B5,3F,00,04,
118305674,0000015B,false,Rx,0,8,AD,04,00,02,00,00,00,00,
118305891,16A9541B,true,Rx,0,8,A8,A8,80,AA,A0,A0,AA,AA,
118306101,16A9541C,true,Rx,0,8,A8,A8,80,AA,A0,A0,AA,AA,
118306483,16A9541D,true,Rx,0,8,A8,A8,80,AA,A0,A0,AA,AA,
118306695,16A9541E,true,Rx,0,8,A8,A8,80,AA,A0,A0,AA,AA,
118306910,16A9541F,true,Rx,0,8,A8,A8,80,AA,A0,A0,AA,AA,
118307292,16A95420,true,Rx,0,8,A8,A8,80,AA,A0,A0,AA,AA,
118307502,16A95421,true,Rx,0,8,A8,A8,80,AA,A0,A0,AA,AA,
118307712,18FED002,true,Rx,0,3,00,00,10,00,00,00,00,00,
118307927,18FED007,true,Rx,0,6,00,00,AB,AB,0B,80,00,00,
118308137,18FED008,true,Rx,0,7,76,C6,AF,83,F6,FE,00,00,
118308519,18FED009,true,Rx,0,7,00,00,00,00,00,00,00,00,
118309599,1A555401,true,Rx,0,8,61,00,00,00,FE,FE,FE,FE,
118309984,1A555402,true,Rx,0,8,61,00,00,00,FE,FE,FE,FE,
118310201,1A555403,true,Rx,0,8,61,00,00,00,FE,FE,FE,FE,
118310411,1A555404,true,Rx,0,8,61,00,00,00,FE,FE,FE,FE,
118310795,1A555405,true,Rx,0,8,62,00,00,00,FE,FE,FE,FE,
118311011,1A555406,true,Rx,0,8,61,00,00,00,FE,FE,FE,FE,
118311393,1A555407,true,Rx,0,8,61,00,00,00,FE,FE,FE,FE,
118311603,1A555408,true,Rx,0,8,61,00,00,00,FE,FE,FE,FE,
118311815,000000BA,false,Rx,0,8,95,A3,2A,00,00,00,00,23,
118312204,18FED000,true,Rx,0,8,03,00,00,00,00,00,00,00,
118315196,000000BB,false,Rx,0,8,3F,E2,FF,D3,55,00,00,06,
118315406,0000015B,false,Rx,0,8,24,05,00,02,00,00,00,00,
118315617,18FED007,true,Rx,0,6,00,00,A0,AB,00,80,00,00,
118315828,18FED008,true,Rx,0,7,49,80,A4,83,F6,FE,00,00,
118316215,18FED009,true,Rx,0,7,00,00,00,00,00,00,00,00,
118318511,18FED102,true,Rx,0,5,0C,00,00,80,00,00,00,00,
118318722,18FED202,true,Rx,0,5,0C,00,00,80,00,00,00,00,
118318938,18FED302,true,Rx,0,5,0C,00,00,80,00,00,00,00,
118320590,18FED402,true,Rx,0,5,0C,00,00,80,00,00,00,00,
118320595,18FED502,true,Rx,0,5,0C,00,00,80,00,00,00,00,
118320600,18FED602,true,Rx,0,5,0C,00,00,80,00,00,00,00,
118320604,18FED702,true,Rx,0,5,0C,00,00,80,00,00,00,00,
118320609,18FED802,true,Rx,0,5,0C,00,00,80,00,00,00,00,
118321704,000000BA,false,Rx,0,8,58,A4,2A,00,00,00,00,34,
118325063,000000BB,false,Rx,0,8,48,D3,FF,D5,55,00,00,08,
118325445,0000015B,false,Rx,0,8,74,06,00,02,00,00,00,00,
118325657,18FED007,true,Rx,0,6,00,00,AB,AB,0B,80,00,00,
118325872,18FED008,true,Rx,0,7,49,80,AF,83,F6,FE,00,00,
118326082,18FED009,true,Rx,0,7,00,00,00,00,00,00,00,00,
118326292,000001C8,false,Rx,0,8,7B,91,A4,48,8A,A4,49,4A,
118326677,000001B0,false,Rx,0,8,F2,81,A4,49,9A,A4,49,4A,
118326910,000001B4,false,Rx,0,8,34,71,A4,49,8A,A4,48,4A,
118327158,000001B8,false,Rx,0,8,65,A1,A4,4A,AA,A4,4A,4A,
118327381,000001BC,false,Rx,0,8,EB,31,A4,44,4A,A4,44,4A,
118327599,000001C0,false,Rx,0,8,A1,81,A4,48,9A,A4,46,4A,
118327812,000001C4,false,Rx,0,8,9B,91,A4,49,AA,A4,49,4A,
118328029,000001CC,false,Rx,0,8,80,71,A4,48,7A,A4,47,4A,
118330323,18FED001,true,Rx,0,8,03,01,35,51,30,39,31,35,
118331403,000001C9,false,Rx,0,8,EA,71,A4,48,7A,A4,4A,4A,
118331788,000001CA,false,Rx,0,8,99,B1,A4,4A,BA,A4,4A,4A,
118331999,000000BA,false,Rx,0,8,DF,A5,2A,00,00,00,00,25,
118332209,000001B1,false,Rx,0,8,C5,91,A4,48,9A,A4,4C,4A,
118332418,000001B2,false,Rx,0,8,9A,C1,A4,4D,CA,A4,4C,4A,
118332630,000001B5,false,Rx,0,8,7C,81,A4,47,9A,A4,48,4A,
118332846,000001B6,false,Rx,0,8,BD,81,A4,49,8A,A4,49,4A,
118333055,000001B9,false,Rx,0,8,96,B1,A4,4A,9A,A4,49,4A,
118333266,000001BA,false,Rx,0,8,93,B1,A4,49,9A,A4,4A,4A,
118333476,000001BD,false,Rx,0,8,13,41,A4,43,4A,A4,4A,4A,
118333687,000001BE,false,Rx,0,8,50,A1,A4,4A,9A,A4,4A,4A,
118333903,000001C1,false,Rx,0,8,51,81,A4,46,8A,A4,4A,4A,
118334285,000001C2,false,Rx,0,8,23,A1,A4,4A,AA,A4,49,4A,
118334495,000001C5,false,Rx,0,8,68,81,A4,49,AA,A4,4D,4A,
118334706,000001C6,false,Rx,0,8,FF,C1,A4,4D,DA,A4,4C,4A,
118334922,000001CD,false,Rx,0,8,C8,61,A4,46,8A,A4,49,4A,
118335132,000001CE,false,Rx,0,8,F2,A1,A4,4A,AA,A4,4A,4A,
118335342,000000BB,false,Rx,0,8,C5,D4,FF,D5,55,00,00,0A,
118335552,0000015B,false,Rx,0,8,6F,07,00,02,00,00,00,00,
118335975,16A95419,true,Rx,0,8,80,AA,02,20,80,08,A0,80,
118335980,18FED002,true,Rx,0,3,00,00,00,00,00,00,00,00,
118336190,18FED005,true,Rx,0,2,00,00,00,00,00,00,00,00,
118336400,18FED007,true,Rx,0,6,00,03,AB,AB,9E,81,00,00,
118336784,18FED008,true,Rx,0,7,49,80,03,83,F6,FE,00,00,
118337000,18FED009,true,Rx,0,7,00,00,00,00,00,00,00,00,
118341736,000000BA,false,Rx,0,8,DC,A6,2A,00,00,00,00,26,
118345157,000000BB,false,Rx,0,8,CD,D5,FF,D1,55,00,00,0C,
118345367,0000015B,false,Rx,0,8,45,08,00,02,00,00,00,00,
118345577,18FED007,true,Rx,0,6,00,03,A0,AB,B5,81,00,00,
118345968,18FED008,true,Rx,0,7,49,80,F7,82,F6,FE,00,00,
118346177,18FED009,true,Rx,0,7,00,00,00,00,00,00,00,00,
118351792,000000BA,false,Rx,0,8,F8,A7,2A,00,00,00,00,30,
118355133,000000BB,false,Rx,0,8,3E,E6,FF,D5,55,00,00,00,
118355343,0000015B,false,Rx,0,8,46,09,00,02,00,00,00,00,
118355553,18FED007,true,Rx,0,6,00,03,AB,AB,C1,81,00,00,
118355943,18FED008,true,Rx,0,7,49,80,03,83,F6,FE,00,00,
118356153,18FED009,true,Rx,0,7,00,00,00,00,00,00,00,00,
118358448,000001B4,false,Rx,0,8,F1,62,A4,47,6A,A4,48,0A,
118358660,000001B8,false,Rx,0,8,8B,52,A4,46,6A,A4,43,0A,
118358877,000001BC,false,Rx,0,8,8B,32,A4,45,5A,A4,45,0A,
118359087,000001CC,false,Rx,0,8,C7,52,A4,46,6A,A4,46,0A,
118360752,000001B0,false,Rx,0,8,4E,32,A4,45,3A,A4,43,0A,
118360757,000001C0,false,Rx,0,8,68,52,A4,46,6A,A4,43,0A,
118360762,000001C4,false,Rx,0,8,C9,52,A4,45,6A,A4,45,0A,
118360767,000001C8,false,Rx,0,8,E0,82,A4,47,7A,A4,47,0A,
118361686,000000BA,false,Rx,0,8,FD,A8,2A,00,00,00,00,27,
118362592,18FED202,true,Rx,0,5,0C,20,00,00,02,00,00,00,
118362803,18FED302,true,Rx,0,5,0C,20,00,00,02,00,00,00,
118363018,18FED402,true,Rx,0,5,0C,20,00,00,02,00,00,00,
118363227,18FED802,true,Rx,0,5,0C,20,00,00,02,00,00,00,
118363975,000001B1,false,Rx,0,8,33,52,A4,43,AA,A3,47,0A,
118364185,000001B5,false,Rx,0,8,00,72,A4,47,0A,A4,47,0A,
118364395,000001B2,false,Rx,0,8,44,72,A4,48,7A,A4,40,0A,
118364605,000001B6,false,Rx,0,8,4B,72,A4,46,6A,A4,41,0A,
118364816,000001B9,false,Rx,0,8,F1,62,A4,43,CA,A3,48,0A,
118365032,000001BA,false,Rx,0,8,FE,B2,A4,47,7A,A4,43,0A,
118365242,000000BB,false,Rx,0,8,C8,F7,FF,D5,55,00,00,0E,
118365452,0000015B,false,Rx,0,8,53,0A,00,02,00,00,00,00,
118365849,000001BD,false,Rx,0,8,34,62,A4,45,BA,A3,45,0A,
118366072,000001BE,false,Rx,0,8,FD,62,A4,45,5A,A4,40,0A,
118366312,000001C1,false,Rx,0,8,F1,52,A4,42,CA,A3,46,0A,
118366591,000001C2,false,Rx,0,8,06,62,A4,45,6A,A4,3F,0A,
118366596,000001C5,false,Rx,0,8,CD,32,A4,43,DA,A3,46,0A,
118366985,000001C6,false,Rx,0,8,3B,62,A4,46,6A,A4,3F,0A,
118367195,000001C9,false,Rx,0,8,4A,52,A4,46,CA,A3,46,0A,
118367405,000001CA,false,Rx,0,8,CB,72,A4,46,7A,A4,3F,0A,
118367615,000001CD,false,Rx,0,8,DC,62,A4,46,FA,A3,45,0A,
118367827,000001CE,false,Rx,0,8,F2,72,A4,45,6A,A4,40,0A,
118368044,16A9541A,true,Rx,0,8,A8,A0,80,AA,A0,A0,AA,AA,
118368427,16A9541B,true,Rx,0,8,A8,A0,80,AA,A0,A0,AA,AA,
118368639,16A9541C,true,Rx,0,8,A8,A0,80,AA,A0,A0,AA,AA,
118368855,16A9541D,true,Rx,0,8,A8,A0,80,AA,A0,A0,AA,AA,
118369237,16A9541E,true,Rx,0,8,A8,A0,80,AA,A0,A0,AA,AA,
118369447,16A9541F,true,Rx,0,8,A8,A0,80,AA,A0,A0,AA,AA,
118369657,16A95420,true,Rx,0,8,A8,A0,80,AA,A0,A0,AA,AA,
118370046,16A95421,true,Rx,0,8,A8,A0,80,AA,A0,A0,AA,AA,
118370256,18FED007,true,Rx,0,6,00,03,AB,AB,C1,81,00,00,
118370466,18FED008,true,Rx,0,7,49,80,F7,82,F6,FE,00,00,
118370856,18FED009,true,Rx,0,7,00,00,00,00,00,00,00,00,
118371066,18FED00A,true,Rx,0,8,00,00,27,00,00,41,00,00,
118371795,000000BA,false,Rx,0,8,78,A9,2A,00,00,00,00,28,
118372918,18FED102,true,Rx,0,5,0C,20,00,00,00,00,00,00,
118373128,18FED502,true,Rx,0,5,0C,20,00,00,00,00,00,00,
118373338,18FED602,true,Rx,0,5,0C,20,00,00,00,00,00,00,
118373547,18FED702,true,Rx,0,5,0C,20,00,00,00,00,00,00,
118375152,000000BB,false,Rx,0,8,E4,F8,FF,D1,55,00,00,10,
118375362,0000015B,false,Rx,0,8,AC,0B,00,02,00,00,00,00,
118375572,18FED007,true,Rx,0,6,00,03,A0,AB,B5,81,00,00,
118375961,18FED008,true,Rx,0,7,49,80,F7,82,F6,FE,00,00,
118376171,18FED009,true,Rx,0,7,00,00,00,00,00,00,00,00,
118381720,000000BA,false,Rx,0,8,28,AA,2A,00,00,00,00,39,
118383677,18FED002,true,Rx,0,3,00,00,10,00,00,00,00,00,
118385147,000000BB,false,Rx,0,8,59,E9,FF,D5,55,00,00,12,
118385357,0000015B,false,Rx,0,8,93,0C,00,02,00,00,00,00,
118385568,18FED007,true,Rx,0,6,00,03,AB,AB,C1,81,00,00,
118385958,18FED008,true,Rx,0,7,49,80,F7,82,F6,FE,00,00,
118386168,18FED009,true,Rx,0,7,00,00,00,00,00,00,00,00,
118386565,000001C8,false,Rx,0,8,E8,93,A4,49,7A,A4,49,9A,
118386960,000001B0,false,Rx,0,8,FE,83,A4,49,9A,A4,49,9A,
118387185,000001B4,false,Rx,0,8,57,83,A4,49,8A,A4,48,9A,
118387395,000001B8,false,Rx,0,8,0A,A3,A4,4A,BA,A4,49,9A,
118387611,000001BC,false,Rx,0,8,74,33,A4,43,4A,A4,45,9A,
118387843,000001C0,false,Rx,0,8,CF,73,A4,48,9A,A4,46,9A,
118388091,000001C4,false,Rx,0,8,10,93,A4,4A,AA,A4,49,9A,
118388339,000001CC,false,Rx,0,8,01,63,A4,47,7A,A4,47,9A,
118391675,000001C9,false,Rx,0,8,8F,73,A4,48,7A,A4,4A,9A,
118391891,000000BA,false,Rx,0,8,3F,AB,2A,00,00,00,00,2A,
118392101,000001CA,false,Rx,0,8,84,B3,A4,4A,CA,A4,4B,9A,
118392311,000001B1,false,Rx,0,8,99,93,A4,49,9A,A4,4C,9A,
118392521,000001B2,false,Rx,0,8,C8,C3,A4,4D,BA,A4,4C,9A,
118392734,000001B5,false,Rx,0,8,97,83,A4,48,9A,A4,49,9A,
118392950,000001B6,false,Rx,0,8,CD,83,A4,49,8A,A4,49,9A,
118393160,000001B9,false,Rx,0,8,D1,B3,A4,49,AA,A4,49,9A,
118393370,000001BA,false,Rx,0,8,E4,B3,A4,49,AA,A4,4A,9A,
118393580,000001BD,false,Rx,0,8,C1,43,A4,44,4A,A4,4A,9A,
118393792,000001BE,false,Rx,0,8,8E,B3,A4,49,AA,A4,4A,9A,
118394008,000001C1,false,Rx,0,8,49,73,A4,46,8A,A4,4B,9A,
118394390,000001C2,false,Rx,0,8,7C,A3,A4,4A,AA,A4,49,9A,
118394600,000001C5,false,Rx,0,8,0A,83,A4,49,BA,A4,4D,9A,
118394812,000001C6,false,Rx,0,8,9F,C3,A4,4C,CA,A4,4D,9A,
118395026,000001CD,false,Rx,0,8,17,73,A4,46,8A,A4,49,9A,
118395235,000000BB,false,Rx,0,8,2E,EA,FF,D5,55,00,00,14,
118395445,0000015B,false,Rx,0,8,D9,0D,00,02,00,00,00,00,
118395660,000001CE,false,Rx,0,8,85,A3,A4,4A,AA,A4,4A,9A,
118395877,18FED007,true,Rx,0,6,00,03,AB,AB,C1,81,00,00,
118396267,18FED008,true,Rx,0,7,49,80,F7,82,F6,FE,00,00,
118396476,18FED009,true,Rx,0,7,00,00,00,00,00,00,00,00,
118401774,000000BA,false,Rx,0,8,3A,AC,2A,00,00,00,00,2B,
118403752,18FED002,true,Rx,0,3,00,00,00,00,00,00,00,00,
118405080,000000BB,false,Rx,0,8,A5,EB,FF,C9,55,00,00,16,
118405462,0000015B,false,Rx,0,8,0E,0E,00,02,00,00,00,00,
118405674,18FED007,true,Rx,0,6,00,03,94,AB,B5,81,00,00,
118405890,18FED008,true,Rx,0,7,49,80,EC,82,F6,FE,00,00,
118406101,18FED009,true,Rx,0,7,00,00,00,00,00,00,00,00,
118411177,1A555401,true,Rx,0,8,61,00,00,00,FE,FE,FE,FE,
118411558,1A555402,true,Rx,0,8,61,00,00,00,FE,FE,FE,FE,
118411770,1A555403,true,Rx,0,8,61,00,00,00,FE,FE,FE,FE,
118411986,000000BA,false,Rx,0,8,C4,AD,2A,00,00,00,00,30,
118412368,1A555404,true,Rx,0,8,61,00,00,00,FE,FE,FE,FE,
118412578,1A555405,true,Rx,0,8,62,00,00,00,FE,FE,FE,FE,
118412790,1A555406,true,Rx,0,8,61,00,00,00,FE,FE,FE,FE,
118413178,1A555407,true,Rx,0,8,61,00,00,00,FE,FE,FE,FE,
118413389,1A555408,true,Rx,0,8,61,00,00,00,FE,FE,FE,FE,
118415166,000000BB,false,Rx,0,8,1F,EC,FF,D1,55,00,00,00,
118415376,0000015B,false,Rx,0,8,65,0F,00,02,00,00,00,00,
118415586,18FED007,true,Rx,0,6,00,03,A0,AB,C1,81,00,00,
118415977,18FED008,true,Rx,0,7,49,80,F7,82,F6,FE,00,00,
118416187,18FED009,true,Rx,0,7,00,00,00,00,00,00,00,00,
118418310,000001B0,false,Rx,0,8,85,34,A4,45,3A,A4,43,0A,
118418520,000001B4,false,Rx,0,8,34,64,A4,47,6A,A4,48,0A,
118418732,000001B8,false,Rx,0,8,D8,54,A4,46,5A,A4,43,0A,
118418948,000001BC,false,Rx,0,8,B4,34,A4,45,5A,A4,45,0A,
118419158,000001C0,false,Rx,0,8,5E,54,A4,46,6A,A4,43,0A,
118420964,000001C4,false,Rx,0,8,B3,54,A4,45,6A,A4,45,0A,
118420969,000001C8,false,Rx,0,8,57,84,A4,47,7A,A4,47,0A,
118420974,000001CC,false,Rx,0,8,99,54,A4,46,6A,A4,46,0A,
118421731,000000BA,false,Rx,0,8,FE,AE,2A,00,00,00,00,2C,
118421947,1BFFDA1A,true,Rx,0,2,00,08,00,00,00,00,00,00,
118422676,000001B1,false,Rx,0,8,45,34,A4,43,AA,A3,47,0A,
118422891,000001B5,false,Rx,0,8,72,74,A4,46,0A,A4,47,0A,
118423101,000001B2,false,Rx,0,8,A7,74,A4,48,6A,A4,40,0A,
118423507,000001B6,false,Rx,0,8,FC,74,A4,46,6A,A4,41,0A,
118423729,000001B9,false,Rx,0,8,13,54,A4,43,CA,A3,48,0A,
118424032,000001BA,false,Rx,0,8,80,A4,A4,47,7A,A4,43,0A,
118424037,000001BD,false,Rx,0,8,6D,64,A4,45,BA,A3,45,0A,
118424247,000001BE,false,Rx,0,8,66,64,A4,45,3A,A4,40,0A,
118424630,000001C1,false,Rx,0,8,C3,54,A4,42,CA,A3,46,0A,
118424846,000001C2,false,Rx,0,8,B3,64,A4,45,6A,A4,3F,0A,
118425056,000001C5,false,Rx,0,8,66,34,A4,43,DA,A3,46,0A,
118425265,000000BB,false,Rx,0,8,CD,ED,FF,D5,55,00,00,18,
118425475,0000015B,false,Rx,0,8,9A,00,00,02,00,00,00,00,
118425686,000001C6,false,Rx,0,8,B2,64,A4,46,6A,A4,3F,0A,
118425897,000001C9,false,Rx,0,8,0A,54,A4,46,CA,A3,46,0A,
118426106,000001CA,false,Rx,0,8,E8,74,A4,46,7A,A4,3F,0A,
118426316,000001CD,false,Rx,0,8,A6,64,A4,46,FA,A3,45,0A,
118426526,000001CE,false,Rx,0,8,DC,74,A4,45,5A,A4,40,0A,
118426915,18FED007,true,Rx,0,6,00,03,AB,AB,C1,81,00,00,
118427125,18FED008,true,Rx,0,7,49,80,F7,82,F6,FE,00,00,
118427335,18FED009,true,Rx,0,7,00,00,00,00,00,00,00,00,
118430327,18FED001,true,Rx,0,8,03,00,32,35,30,42,20,00,
118431753,000000BA,false,Rx,0,8,72,AF,2A,00,00,00,00,2D,
118435095,000000BB,false,Rx,0,8,BC,EE,FF,D1,55,00,00,1A,
118435305,0000015B,false,Rx,0,8,34,01,00,02,00,00,00,00,
118435689,18FED007,true,Rx,0,6,00,03,A0,AB,AA,81,00,00,
118435905,18FED008,true,Rx,0,7,49,80,EC,82,F6,FE,00,00,
118436114,18FED009,true,Rx,0,7,00,00,00,00,00,00,00,00,
118441702,000000BA,false,Rx,0,8,44,A0,2A,00,00,00,00,3E,
118445152,000000BB,false,Rx,0,8,81,EF,FF,D5,55,00,00,1C,
118445362,0000015B,false,Rx,0,8,3A,02,00,02,00,00,00,00,
118445572,18FED007,true,Rx,0,6,00,03,AB,AB,C1,81,00,00,
118445962,18FED008,true,Rx,0,7,49,80,F7,82,F6,FE,00,00,
118446172,18FED009,true,Rx,0,7,00,00,00,00,00,00,00,00,
118446554,000001B0,false,Rx,0,8,0A,85,A4,49,9A,A4,48,EA,
118446766,000001B4,false,Rx,0,8,4C,85,A4,48,8A,A4,48,EA,
118446981,000001B8,false,Rx,0,8,39,A5,A4,4A,BA,A4,49,EA,
118447364,000001BC,false,Rx,0,8,4B,35,A4,44,4A,A4,45,EA,
118447573,000001C0,false,Rx,0,8,46,75,A4,48,9A,A4,47,EA,
118447784,000001C4,false,Rx,0,8,E3,95,A4,4A,AA,A4,49,EA,
118448000,000001C8,false,Rx,0,8,06,95,A4,48,8A,A4,49,EA,
118448210,000001CC,false,Rx,0,8,77,75,A4,48,7A,A4,48,EA,
118451722,000000BA,false,Rx,0,8,0B,A1,2A,00,00,00,00,2F,
118451939,000001B1,false,Rx,0,8,E3,95,A4,48,9A,A4,4C,EA,
118452148,000001B2,false,Rx,0,8,E5,C5,A4,4D,BA,A4,4C,EA,
118452358,000001B5,false,Rx,0,8,A8,85,A4,48,9A,A4,49,EA,
118452568,000001B6,false,Rx,0,8,DE,85,A4,48,9A,A4,49,EA,
118452779,000001B9,false,Rx,0,8,A5,B5,A4,4A,AA,A4,49,EA,
118453167,000001BA,false,Rx,0,8,0C,A5,A4,49,AA,A4,4A,EA,
118453376,000001BD,false,Rx,0,8,0B,35,A4,44,4A,A4,4A,EA,
118453586,000001BE,false,Rx,0,8,D6,A5,A4,4A,9A,A4,4A,EA,
118453798,000001C1,false,Rx,0,8,37,85,A4,46,8A,A4,4A,EA,
118454014,000001C2,false,Rx,0,8,2F,A5,A4,4A,AA,A4,49,EA,
118454224,000001C5,false,Rx,0,8,E7,85,A4,49,AA,A4,4D,EA,
118454434,000001C6,false,Rx,0,8,AA,C5,A4,4D,DA,A4,4D,EA,
118454645,000001C9,false,Rx,0,8,42,75,A4,48,7A,A4,4A,EA,
118454862,000001CA,false,Rx,0,8,30,B5,A4,4A,CA,A4,4A,EA,
118455072,000001CD,false,Rx,0,8,D3,75,A4,46,8A,A4,49,EA,
118455282,000000BB,false,Rx,0,8,A5,E0,FF,D5,55,00,00,1E,
118455666,0000015B,false,Rx,0,8,0B,03,00,02,00,00,00,00,
118455883,000001CE,false,Rx,0,8,FA,A5,A4,4A,AA,A4,4A,EA,
118456093,18FED002,true,Rx,0,3,00,00,10,00,00,00,00,00,
118456302,18FED007,true,Rx,0,6,00,03,AB,AB,C1,81,00,00,
118456512,18FED008,true,Rx,0,7,49,80,F7,82,F6,FE,00,00,
118456724,18FED009,true,Rx,0,7,00,00,00,00,00,00,00,00,
118461797,000000BA,false,Rx,0,8,BC,A2,2A,00,00,00,00,21,
118465073,000000BB,false,Rx,0,8,89,E1,FF,C9,55,00,00,02,
118465455,0000015B,false,Rx,0,8,AD,04,00,02,00,00,00,00,
118465666,18FED007,true,Rx,0,6,00,03,94,AB,B5,81,00,00,
118465883,18FED008,true,Rx,0,7,49,80,EC,82,F6,FE,00,00,
118466092,18FED009,true,Rx,0,7,00,00,00,00,00,00,00,00,
118466474,18FED00A,true,Rx,0,8,00,00,31,20,00,41,00,00,
118469813,000000BA,false,Rx,0,8,A4,A3,2A,00,00,00,00,30,
118475065,000000BB,false,Rx,0,8,62,F2,FF,D5,55,00,00,00,
118475448,0000015B,false,Rx,0,8,24,05,00,02,00,00,00,00,
118475660,18FED007,true,Rx,0,6,00,03,AB,AB,C1,81,00,00,
118475877,18FED008,true,Rx,0,7,49,80,F7,82,F6,FE,00,00,
118476086,18FED009,true,Rx,0,7,00,00,00,00,00,00,00,00,
118476468,000001C8,false,Rx,0,8,C9,86,A4,47,7A,A4,47,0A,
118476854,000001B0,false,Rx,0,8,C2,26,A4,45,3A,A4,43,0A,
118477237,000001B4,false,Rx,0,8,D7,66,A4,47,6A,A4,48,0A,
118477447,000001B8,false,Rx,0,8,5D,56,A4,45,5A,A4,45,0A,
118477658,000001BC,false,Rx,0,8,2D,36,A4,45,5A,A4,45,0A,
118477874,000001C0,false,Rx,0,8,9F,56,A4,46,6A,A4,43,0A,
118478083,000001C4,false,Rx,0,8,27,56,A4,45,6A,A4,45,0A,
118478292,000001CC,false,Rx,0,8,6E,56,A4,46,6A,A4,46,0A,
118481107,000000BA,false,Rx,0,8,55,A4,2A,00,00,00,00,22,
118481112,000001C9,false,Rx,0,8,25,56,A4,46,CA,A3,45,0A,
118481519,000001CA,false,Rx,0,8,0C,76,A4,46,6A,A4,3F,0A,
118481745,000001B1,false,Rx,0,8,B9,36,A4,43,AA,A3,47,0A,
118481962,000001B5,false,Rx,0,8,B7,76,A4,46,0A,A4,47,0A,
118482172,000001B2,false,Rx,0,8,AF,76,A4,48,6A,A4,40,0A,
118482382,000001B6,false,Rx,0,8,56,76,A4,46,6A,A4,41,0A,
118482592,000001B9,false,Rx,0,8,A5,56,A4,43,CA,A3,48,0A,
118482803,000001BA,false,Rx,0,8,38,A6,A4,47,7A,A4,43,0A,
118483018,000001BD,false,Rx,0,8,E4,66,A4,45,BA,A3,45,0A,
118483228,000001BE,false,Rx,0,8,25,66,A4,45,3A,A4,40,0A,
118483438,000001C1,false,Rx,0,8,B6,56,A4,42,CA,A3,46,0A,
118483651,000001C2,false,Rx,0,8,FB,66,A4,45,6A,A4,3D,0A,
118483881,000001C5,false,Rx,0,8,4C,36,A4,43,DA,A3,46,0A,
118484106,000001C6,false,Rx,0,8,82,66,A4,46,6A,A4,3F,0A,
118484332,000001CD,false,Rx,0,8,36,66,A4,46,FA,A3,45,0A,
118484721,000001CE,false,Rx,0,8,C4,76,A4,45,5A,A4,40,0A,
118485111,000000BB,false,Rx,0,8,0C,F3,FF,D1,55,00,00,04,
118485320,0000015B,false,Rx,0,8,74,06,00,02,00,00,00,00,
118485702,18FED007,true,Rx,0,6,00,03,A0,AB,C1,81,00,00,
118485919,18FED008,true,Rx,0,7,49,80,F7,82,F6,FE,00,00,
118486128,18FED009,true,Rx,0,7,00,00,00,00,00,00,00,00,
118489668,000000BA,false,Rx,0,8,F7,A5,2A,00,00,00,00,23,
118495234,000000BB,false,Rx,0,8,81,F4,FF,D1,55,00,00,06,
118495444,0000015B,false,Rx,0,8,6F,07,00,02,00,00,00,00,
118495656,18FED007,true,Rx,0,6,00,03,A0,AB,B5,81,00,00,
118495872,18FED008,true,Rx,0,7,49,80,EC,82,F6,FE,00,00,
118496254,18FED009,true,Rx,0,7,00,00,00,00,00,00,00,00,
118501099,000000BA,false,Rx,0,8,04,A6,2A,00,00,00,00,34,
118503651,18FED002,true,Rx,0,3,00,00,00,00,00,00,00,00,
118504750,000001B0,false,Rx,0,8,25,77,A4,48,9A,A4,49,4A,
118504967,000001B4,false,Rx,0,8,27,77,A4,49,8A,A4,48,4A,
118505177,000000BB,false,Rx,0,8,73,F5,FF,D1,55,00,00,08,
118505387,0000015B,false,Rx,0,8,45,08,00,02,00,00,00,00,
118505771,000001B8,false,Rx,0,8,59,A7,A4,4A,AA,A4,49,4A,
118505985,000001BC,false,Rx,0,8,A8,37,A4,44,4A,A4,45,4A,
118506195,000001C0,false,Rx,0,8,9D,77,A4,48,9A,A4,46,4A,
118506405,000001C4,false,Rx,0,8,53,97,A4,4A,AA,A4,49,4A,
118506615,000001C8,false,Rx,0,8,03,97,A4,48,8A,A4,48,4A,
118506827,000001CC,false,Rx,0,8,4F,67,A4,47,7A,A4,48,4A,
118507044,18FED007,true,Rx,0,6,00,03,A0,AB,C1,81,00,00,
118507254,18FED008,true,Rx,0,7,49,80,F7,82,F6,FE,00,00,
118507639,18FED009,true,Rx,0,7,00,00,00,00,00,00,00,00,
118509759,000000BA,false,Rx,0,8,E1,A7,2A,00,00,00,00,25,
118510148,000001B1,false,Rx,0,8,A2,87,A4,48,8A,A4,4C,4A,
118510356,000001B5,false,Rx,0,8,3D,87,A4,47,9A,A4,49,4A,
118510740,000001B2,false,Rx,0,8,90,C7,A4,4D,CA,A4,4B,4A,
118510956,000001B6,false,Rx,0,8,73,87,A4,48,9A,A4,49,4A,
118511165,000001B9,false,Rx,0,8,29,A7,A4,49,9A,A4,49,4A,
118511375,000001BA,false,Rx,0,8,2D,B7,A4,48,AA,A4,4A,4A,
118511585,000001BD,false,Rx,0,8,DA,47,A4,44,5A,A4,4A,4A,
118511798,000001BE,false,Rx,0,8,2A,A7,A4,49,9A,A4,4A,4A,
118512014,000001C1,false,Rx,0,8,C8,87,A4,46,8A,A4,4B,4A,
118512224,000001C2,false,Rx,0,8,EC,A7,A4,4A,AA,A4,49,4A,
118512434,000001C5,false,Rx,0,8,2F,87,A4,49,BA,A4,4D,4A,
118512646,000001C6,false,Rx,0,8,22,C7,A4,4C,DA,A4,4D,4A,
118512862,000001C9,false,Rx,0,8,9A,77,A4,47,7A,A4,4A,4A,
118513072,000001CA,false,Rx,0,8,97,B7,A4,4A,CA,A4,4A,4A,
118513282,000001CD,false,Rx,0,8,ED,77,A4,47,9A,A4,49,4A,
118513666,000001CE,false,Rx,0,8,4F,A7,A4,4A,AA,A4,4A,4A,
118515097,000000BB,false,Rx,0,8,39,E6,FF,D1,55,00,00,0A,
118515479,0000015B,false,Rx,0,8,46,09,00,02,00,00,00,00,
118515691,18FED007,true,Rx,0,6,00,03,A0,AB,C1,81,00,00,
118515907,18FED008,true,Rx,0,7,49,80,F7,82,F6,FE,00,00,
118516117,18FED009,true,Rx,0,7,00,00,00,00,00,00,00,00,
118518935,1A555401,true,Rx,0,8,61,00,00,00,FE,FE,FE,FE,
118519317,1A555402,true,Rx,0,8,61,00,00,00,FE,FE,FE,FE,
118519528,1A555403,true,Rx,0,8,61,00,00,00,FE,FE,FE,FE,
118519741,000000BA,false,Rx,0,8,14,A8,2A,00,00,00,00,26,
118521362,1A555404,true,Rx,0,8,61,00,00,00,FE,FE,FE,FE,
118521368,1A555405,true,Rx,0,8,62,00,00,00,FE,FE,FE,FE,
118521373,1A555406,true,Rx,0,8,61,00,00,00,FE,FE,FE,FE,
118521378,1A555407,true,Rx,0,8,62,00,00,00,FE,FE,FE,FE,
118521383,1A555408,true,Rx,0,8,61,00,00,00,FE,FE,FE,FE,
118525101,000000BB,false,Rx,0,8,C5,E7,FF,C9,55,00,00,0C,
118525483,0000015B,false,Rx,0,8,53,0A,00,02,00,00,00,00,
118525696,18FED007,true,Rx,0,6,00,03,94,AB,B5,81,00,00,
118525913,18FED008,true,Rx,0,7,49,80,EC,82,F6,FE,00,00,
118526122,18FED009,true,Rx,0,7,00,00,00,00,00,00,00,00,
118529701,000000BA,false,Rx,0,8,D8,A9,2A,00,00,00,00,30,
118535129,000000BB,false,Rx,0,8,AA,D8,FF,D1,55,00,00,00,
118535339,0000015B,false,Rx,0,8,AC,0B,00,02,00,00,00,00,
118535724,18FED007,true,Rx,0,6,00,03,A0,AB,C1,81,00,00,
118535939,18FED008,true,Rx,0,7,49,80,F7,82,F6,FE,00,00,
118536149,18FED009,true,Rx,0,7,00,00,00,00,00,00,00,00,
118536531,000001C0,false,Rx,0,8,87,58,A4,46,6A,A4,43,0A,
118536743,000001B4,false,Rx,0,8,47,68,A4,47,6A,A4,48,0A,
118536955,000001B8,false,Rx,0,8,CC,58,A4,45,5A,A4,45,0A,
118537165,000001BC,false,Rx,0,8,C6,38,A4,45,5A,A4,45,0A,
118537375,000001B0,false,Rx,0,8,5D,28,A4,45,3A,A4,43,0A,
118537585,000001C4,false,Rx,0,8,0D,58,A4,45,6A,A4,45,0A,
118537796,000001C8,false,Rx,0,8,D1,78,A4,47,7A,A4,47,0A,
118538013,000001CC,false,Rx,0,8,D4,58,A4,46,5A,A4,46,0A,
118539784,000000BA,false,Rx,0,8,A0,AA,2A,00,00,00,00,27,
118541369,000001C1,false,Rx,0,8,62,58,A4,42,CA,A3,46,0A,
118541374,000001B5,false,Rx,0,8,09,78,A4,46,0A,A4,47,0A,
118541379,000001B6,false,Rx,0,8,37,78,A4,46,6A,A4,41,0A,
118541601,000001B9,false,Rx,0,8,B2,58,A4,43,CA,A3,48,0A,
118541813,000001B1,false,Rx,0,8,6E,38,A4,43,AA,A3,46,0A,
118542034,000001B2,false,Rx,0,8,39,78,A4,48,6A,A4,40,0A,
118542268,000001BA,false,Rx,0,8,EA,A8,A4,47,7A,A4,43,0A,
118542478,000001BD,false,Rx,0,8,4E,68,A4,45,BA,A3,45,0A,
118542689,000001BE,false,Rx,0,8,B4,68,A4,45,3A,A4,3F,0A,
118543077,000001C2,false,Rx,0,8,6A,68,A4,45,6A,A4,3D,0A,
118543287,000001C5,false,Rx,0,8,10,38,A4,43,DA,A3,46,0A,
118543497,000001C6,false,Rx,0,8,58,68,A4,46,6A,A4,3F,0A,
118543709,000001C9,false,Rx,0,8,96,68,A4,46,CA,A3,45,0A,
118543937,000001CA,false,Rx,0,8,4D,78,A4,46,6A,A4,3F,0A,
118544180,000001CD,false,Rx,0,8,27,68,A4,45,FA,A3,45,0A,
118544401,000001CE,false,Rx,0,8,F9,68,A4,45,5A,A4,40,0A,
118545155,000000BB,false,Rx,0,8,E5,D9,FF,D5,55,00,00,0E,
118545365,0000015B,false,Rx,0,8,93,0C,00,02,00,00,00,00,
118545575,18FED007,true,Rx,0,6,00,03,AB,AB,C1,81,00,00,
118545965,18FED008,true,Rx,0,7,49,80,F7,82,F6,FE,00,00,
118546175,18FED009,true,Rx,0,7,00,00,00,00,00,00,00,00,
118549685,000000BA,false,Rx,0,8,C2,AB,2A,00,00,00,00,28,
118553721,18FED002,true,Rx,0,3,00,00,10,00,00,00,00,00,
118555151,000000BB,false,Rx,0,8,4D,DA,FF,D1,55,00,00,10,
118555362,0000015B,false,Rx,0,8,D9,0D,00,02,00,00,00,00,
118555571,18FED007,true,Rx,0,6,00,03,A0,AB,B5,81,00,00,
118555962,18FED008,true,Rx,0,7,49,80,EC,82,F6,FE,00,00,
118556172,18FED009,true,Rx,0,7,00,00,00,00,00,00,00,00,
118559682,000000BA,false,Rx,0,8,E2,AC,2A,00,00,00,00,39,
118559896,1BFFDA19,true,Rx,0,2,00,00,00,00,00,00,00,00,
118563763,18FED002,true,Rx,0,3,00,00,10,00,00,00,00,00,
118564325,16A95419,true,Rx,0,8,AA,AA,8A,20,80,08,A0,80,
118564887,000001B0,false,Rx,0,8,21,89,A4,48,9A,A4,49,9A,
118565097,000001B4,false,Rx,0,8,69,89,A4,48,8A,A4,48,9A,
118565307,000000BB,false,Rx,0,8,FF,FB,FF,D1,55,00,00,12,
118565691,0000015B,false,Rx,0,8,0E,0E,00,02,00,00,00,00,
118565911,000001B8,false,Rx,0,8,8A,B9,A4,4A,AA,A4,49,9A,
118566132,000001BC,false,Rx,0,8,D5,39,A4,44,4A,A4,45,9A,
118566377,000001C0,false,Rx,0,8,19,79,A4,48,9A,A4,46,9A,
118566665,000001C4,false,Rx,0,8,17,A9,A4,4A,AA,A4,49,9A,
118566670,000001C8,false,Rx,0,8,F8,99,A4,48,8A,A4,48,9A,
118566886,000001CC,false,Rx,0,8,9D,69,A4,48,8A,A4,48,9A,
118567267,18FED007,true,Rx,0,6,00,03,A0,AB,B5,81,00,00,
118567477,18FED008,true,Rx,0,7,49,80,F7,82,F6,FE,00,00,
118567690,18FED009,true,Rx,0,7,00,00,00,00,00,00,00,00,
118568078,18FED00A,true,Rx,0,8,00,00,32,20,00,41,00,00,
118569675,000000BA,false,Rx,0,8,99,AD,2A,00,00,00,00,2A,
118570236,000001B1,false,Rx,0,8,1C,99,A4,48,9A,A4,4D,9A,
118570446,000001B5,false,Rx,0,8,EE,89,A4,48,9A,A4,49,9A,
118570657,000001B2,false,Rx,0,8,2B,C9,A4,4E,CA,A4,4C,9A,
118570872,000001B6,false,Rx,0,8,2E,89,A4,49,9A,A4,49,9A,
118571082,000001B9,false,Rx,0,8,49,A9,A4,4A,9A,A4,49,9A,
118571292,000001BA,false,Rx,0,8,6F,B9,A4,48,9A,A4,4A,9A,
118571502,000001BD,false,Rx,0,8,50,49,A4,44,5A,A4,4A,9A,
118571893,000001BE,false,Rx,0,8,10,B9,A4,4A,9A,A4,4A,9A,
118572102,000001C1,false,Rx,0,8,2B,89,A4,46,8A,A4,4A,9A,
118572312,000001C2,false,Rx,0,8,4D,A9,A4,4A,AA,A4,49,9A,
118572522,000001C5,false,Rx,0,8,95,89,A4,49,AA,A4,4D,9A,
118572734,000001C6,false,Rx,0,8,F3,C9,A4,4C,DA,A4,4C,9A,
118572944,000001C9,false,Rx,0,8,61,79,A4,47,7A,A4,4A,9A,
118573159,000001CA,false,Rx,0,8,DB,B9,A4,4A,BA,A4,4B,9A,
118573368,000001CD,false,Rx,0,8,65,79,A4,47,8A,A4,49,9A,
118573578,000001CE,false,Rx,0,8,FE,A9,A4,4A,AA,A4,4A,9A,
118575183,000000BB,false,Rx,0,8,4D,FC,FF,D1,55,00,00,14,
118575393,0000015B,false,Rx,0,8,65,0F,00,02,00,00,00,00,
118575603,18FED007,true,Rx,0,6,00,03,A0,AB,C1,81,00,00,
118575993,18FED008,true,Rx,0,7,49,80,F7,82,F6,FE,00,00,
118576204,18FED009,true,Rx,0,7,00,00,00,00,00,00,00,00,
118579714,000000BA,false,Rx,0,8,10,0E,28,00,00,00,00,2B,
118585131,000000BB,false,Rx,0,8,32,ED,FF,C9,55,00,00,16,
118585342,0000015B,false,Rx,0,8,9A,00,00,02,00,00,00,00,
118585727,18FED007,true,Rx,0,6,00,03,94,AB,B5,81,00,00,
118585943,18FED008,true,Rx,0,7,49,80,EC,82,F6,FE,00,00,
118586153,18FED009,true,Rx,0,7,00,00,00,00,00,00,00,00,
118589700,000000BA,false,Rx,0,8,C1,0F,28,00,00,00,00,30,
118595127,000000BB,false,Rx,0,8,28,DE,FF,D1,55,00,00,00,
118595337,0000015B,false,Rx,0,8,34,01,00,02,00,00,00,00,
118595724,18FED007,true,Rx,0,6,00,03,A0,AB,C1,81,00,00,
118595949,18FED008,true,Rx,0,7,49,80,F7,82,F6,FE,00,00,
118596158,18FED009,true,Rx,0,7,00,00,00,00,00,00,00,00,
118596541,000001BC,false,Rx,0,8,A9,3A,A4,45,5A,A4,45,0A,
118596751,000001B8,false,Rx,0,8,CD,5A,A4,45,5A,A4,45,0A,
118596968,000001C8,false,Rx,0,8,30,7A,A4,47,6A,A4,47,0A,
118597178,000001B0,false,Rx,0,8,9E,2A,A4,45,3A,A4,43,0A,
118597388,000001B4,false,Rx,0,8,AB,6A,A4,47,6A,A4,48,0A,
118597598,000001C0,false,Rx,0,8,E0,5A,A4,45,6A,A4,42,0A,
118597809,000001C4,false,Rx,0,8,4F,5A,A4,45,6A,A4,45,0A,
118598026,000001CC,false,Rx,0,8,D7,5A,A4,46,5A,A4,46,0A,
118599798,000000BA,false,Rx,0,8,B3,00,28,00,00,00,00,2C,
118601869,000001BD,false,Rx,0,8,33,5A,A4,45,BA,A3,45,0A,
118601874,000001B9,false,Rx,0,8,71,6A,A4,43,CA,A3,48,0A,
118601879,000001BA,false,Rx,0,8,FB,AA,A4,47,7A,A4,43,0A,
118601884,000001BE,false,Rx,0,8,C5,6A,A4,45,3A,A4,3F,0A,
118601889,000001B1,false,Rx,0,8,D5,3A,A4,43,AA,A3,46,0A,
118601894,000001B2,false,Rx,0,8,62,6A,A4,48,6A,A4,40,0A,
118602124,000001B5,false,Rx,0,8,D7,7A,A4,47,0A,A4,47,0A,
118602339,000001B6,false,Rx,0,8,C3,7A,A4,46,6A,A4,41,0A,
118602559,000001C1,false,Rx,0,8,CA,5A,A4,42,CA,A3,46,0A,
118602771,000001C2,false,Rx,0,8,18,6A,A4,46,6A,A4,3D,0A,
118602988,000001C5,false,Rx,0,8,AC,3A,A4,43,DA,A3,45,0A,
118603197,000001C6,false,Rx,0,8,9E,6A,A4,46,5A,A4,3F,0A,
118603580,000001C9,false,Rx,0,8,50,6A,A4,46,CA,A3,45,0A,
118603794,000001CA,false,Rx,0,8,FF,6A,A4,46,6A,A4,3F,0A,
118604009,000001CD,false,Rx,0,8,45,6A,A4,45,FA,A3,45,0A,
118604220,000001CE,false,Rx,0,8,EE,6A,A4,45,5A,A4,40,0A,
118605141,000000BB,false,Rx,0,8,E2,DF,FF,D1,55,00,00,18,
118605394,0000015B,false,Rx,0,8,3A,02,00,02,00,00,00,00,
118605615,18FED007,true,Rx,0,6,00,03,A0,AB,C1,81,00,00,
118605867,18FED008,true,Rx,0,7,49,80,F7,82,F6,FE,00,00,
118606250,18FED009,true,Rx,0,7,00,00,00,00,00,00,00,00,
118609759,000000BA,false,Rx,0,8,D9,01,28,00,00,00,00,2D,
118615185,000000BB,false,Rx,0,8,EB,D0,FF,C9,55,00,00,1A,
118615395,0000015B,false,Rx,0,8,0B,03,00,02,00,00,00,00,
118615605,18FED007,true,Rx,0,6,00,03,94,AB,B5,81,00,00,
118615994,18FED008,true,Rx,0,7,49,80,EC,82,F6,FE,00,00,
118616203,18FED009,true,Rx,0,7,00,00,00,00,00,00,00,00,
118619714,000000BA,false,Rx,0,8,F2,02,28,00,00,00,00,3E,
118623421,1A555401,true,Rx,0,8,61,00,00,00,FE,FE,FE,FE,
118623634,1A555402,true,Rx,0,8,61,00,00,00,FE,FE,FE,FE,
118624024,1A555403,true,Rx,0,8,61,00,00,00,FE,FE,FE,FE,
118624256,1A555404,true,Rx,0,8,61,00,00,00,FE,FE,FE,FE,
118624473,16A9541A,true,Rx,0,8,A8,A0,80,AA,A0,A0,AA,AA,
118624699,16A9541B,true,Rx,0,8,A8,A0,80,AA,A0,A0,AA,AA,
118625088,16A9541C,true,Rx,0,8,A8,A0,80,AA,A0,A0,AA,AA,
118625298,000000BB,false,Rx,0,8,2C,E1,FF,D1,55,00,00,1C,
118625508,0000015B,false,Rx,0,8,AD,04,00,02,00,00,00,00,
118625720,16A9541D,true,Rx,0,8,A8,A0,80,AA,A0,A0,AA,AA,
118625935,000001B0,false,Rx,0,8,52,8B,A4,48,9A,A4,49,EA,
118626317,000001B4,false,Rx,0,8,17,8B,A4,48,8A,A4,48,EA,
118626527,000001B8,false,Rx,0,8,DB,AB,A4,4A,AA,A4,49,EA,
118626740,000001BC,false,Rx,0,8,F5,3B,A4,44,4A,A4,45,EA,
118626956,000001C0,false,Rx,0,8,6B,8B,A4,48,9A,A4,46,EA,
118627166,000001C4,false,Rx,0,8,0B,9B,A4,4A,AA,A4,49,EA,
118627376,000001C8,false,Rx,0,8,8D,9B,A4,48,8A,A4,48,EA,
118627586,000001CC,false,Rx,0,8,BF,7B,A4,47,8A,A4,47,EA,
118627798,16A9541E,true,Rx,0,8,A8,A0,80,AA,A0,A0,AA,AA,
118628187,16A9541F,true,Rx,0,8,A8,A0,80,AA,A0,A0,AA,AA,
118628398,16A95420,true,Rx,0,8,A8,A0,80,AA,A0,A0,AA,AA,
118628608,16A95421,true,Rx,0,8,A8,A0,80,AA,A0,A0,AA,AA,
118628998,18FED007,true,Rx,0,6,00,03,A0,AB,B5,81,00,00,
118629208,18FED008,true,Rx,0,7,49,80,F7,82,F6,FE,00,00,
118629418,18FED009,true,Rx,0,7,00,00,00,00,00,00,00,00,
118629802,1A555405,true,Rx,0,8,62,00,00,00,FE,FE,FE,FE,
118630018,000000BA,false,Rx,0,8,EA,03,28,00,00,00,00,2F,
118630244,1A555406,true,Rx,0,8,61,00,00,00,FE,FE,FE,FE,
118630900,1A555407,true,Rx,0,8,62,00,00,00,FE,FE,FE,FE,
118630905,1A555408,true,Rx,0,8,61,00,00,00,FE,FE,FE,FE,
118631122,000001B1,false,Rx,0,8,1F,8B,A4,48,9A,A4,4C,EA,
118631332,000001B5,false,Rx,0,8,A4,8B,A4,48,8A,A4,48,EA,
118631542,000001B2,false,Rx,0,8,78,CB,A4,4D,CA,A4,4C,EA,
118631753,000001B6,false,Rx,0,8,20,8B,A4,48,9A,A4,49,EA,
118631969,000001B9,false,Rx,0,8,88,BB,A4,4A,9A,A4,49,EA,
118632179,000001BA,false,Rx,0,8,DD,BB,A4,49,9A,A4,4A,EA,
118632389,000001BD,false,Rx,0,8,41,4B,A4,44,4A,A4,4B,EA,
118632599,000001BE,false,Rx,0,8,18,AB,A4,4A,9A,A4,4A,EA,
118632811,000001C1,false,Rx,0,8,28,7B,A4,46,7A,A4,4B,EA,
118633026,000001C2,false,Rx,0,8,69,AB,A4,4A,AA,A4,49,EA,
118633236,000001C5,false,Rx,0,8,25,8B,A4,49,BA,A4,4D,EA,
118633619,000001C6,false,Rx,0,8,34,CB,A4,4D,DA,A4,4D,EA,
118633835,000001C9,false,Rx,0,8,C4,7B,A4,47,7A,A4,4A,EA,
118634046,000001CA,false,Rx,0,8,3E,BB,A4,4A,BA,A4,4A,EA,
118634255,000001CD,false,Rx,0,8,E1,7B,A4,46,9A,A4,48,EA,
118634464,000001CE,false,Rx,0,8,B4,AB,A4,4A,AA,A4,4A,EA,
118635198,000000BB,false,Rx,0,8,37,E2,FF,D1,55,00,00,1E,
118635408,0000015B,false,Rx,0,8,24,05,00,02,00,00,00,00,
118635619,18FED007,true,Rx,0,6,00,03,A0,AB,C1,81,00,00,
118636008,18FED008,true,Rx,0,7,49,80,F7,82,F6,FE,00,00,
118636219,18FED009,true,Rx,0,7,00,00,00,00,00,00,00,00,
118639732,000000BA,false,Rx,0,8,6E,04,28,00,00,00,00,21,
118645239,000000BB,false,Rx,0,8,AB,E3,FF,C9,55,00,00,02,
118645473,0000015B,false,Rx,0,8,74,06,00,02,00,00,00,00,
118645719,18FED007,true,Rx,0,6,00,03,94,AB,B5,81,00,00,
118645935,18FED008,true,Rx,0,7,49,80,EC,82,F6,FE,00,00,
118646146,18FED009,true,Rx,0,7,00,00,00,00,00,00,00,00,
118649827,000000BA,false,Rx,0,8,E9,05,28,00,00,00,00,30,
118655082,000000BB,false,Rx,0,8,A9,F4,FF,D1,55,00,00,00,
118655465,0000015B,false,Rx,0,8,6F,07,00,02,00,00,00,00,
118655676,18FED007,true,Rx,0,6,00,03,A0,AB,B5,81,00,00,
118655892,18FED008,true,Rx,0,7,49,80,F7,82,F6,FE,00,00,
118656274,18FED009,true,Rx,0,7,00,00,00,00,00,00,00,00,
118656837,000001B0,false,Rx,0,8,CE,2C,A4,45,3A,A4,43,0A,
118657047,000001B4,false,Rx,0,8,B5,6C,A4,47,6A,A4,48,0A,
118657257,000001B8,false,Rx,0,8,ED,5C,A4,45,5A,A4,43,0A,
118657466,000001BC,false,Rx,0,8,39,3C,A4,43,5A,A4,45,0A,
118657678,000001C0,false,Rx,0,8,23,5C,A4,45,6A,A4,43,0A,
118657894,000001C4,false,Rx,0,8,CD,5C,A4,45,6A,A4,45,0A,
118658104,000001C8,false,Rx,0,8,C7,7C,A4,47,6A,A4,47,0A,
118658314,000001CC,false,Rx,0,8,4E,5C,A4,46,5A,A4,46,0A,
118659741,000000BA,false,Rx,0,8,26,06,28,00,00,00,00,22,
118661825,000001B1,false,Rx,0,8,BB,3C,A4,43,AA,A3,46,0A,
118661864,000001B5,false,Rx,0,8,12,7C,A4,47,0A,A4,47,0A,
118661869,000001B2,false,Rx,0,8,18,6C,A4,48,6A,A4,40,0A,
118662090,000001B6,false,Rx,0,8,F9,7C,A4,46,6A,A4,41,0A,
118662472,000001B9,false,Rx,0,8,D1,6C,A4,43,CA,A3,48,0A,
118662684,000001BA,false,Rx,0,8,65,AC,A4,47,7A,A4,43,0A,
118662900,000001BD,false,Rx,0,8,19,5C,A4,45,BA,A3,45,0A,
118663109,000001BE,false,Rx,0,8,B9,6C,A4,45,3A,A4,3F,0A,
118663319,000001C1,false,Rx,0,8,CE,5C,A4,42,CA,A3,46,0A,
118663529,000001C2,false,Rx,0,8,B6,6C,A4,46,6A,A4,3D,0A,
118663740,000001C5,false,Rx,0,8,49,3C,A4,43,DA,A3,46,0A,
118663955,000001C6,false,Rx,0,8,4F,6C,A4,46,5A,A4,3F,0A,
118664166,000001C9,false,Rx,0,8,93,5C,A4,46,CA,A3,45,0A,
118664376,000001CA,false,Rx,0,8,4D,6C,A4,46,6A,A4,3F,0A,
118664587,000001CD,false,Rx,0,8,26,6C,A4,45,FA,A3,45,0A,
118664803,000001CE,false,Rx,0,8,82,6C,A4,45,5A,A4,40,0A,
118665206,000000BB,false,Rx,0,8,23,F5,FF,D1,55,00,00,04,
118665416,0000015B,false,Rx,0,8,45,08,00,02,00,00,00,00,
118665630,18FED007,true,Rx,0,6,00,03,A0,AB,C1,81,00,00,
118665845,18FED008,true,Rx,0,7,49,80,F7,82,F6,FE,00,00,
118666228,18FED009,true,Rx,0,7,00,00,00,00,00,00,00,00,
118666451,18FED00A,true,Rx,0,8,00,00,32,20,00,41,00,00,
118669701,000000BA,false,Rx,0,8,E6,07,28,00,00,00,00,23,
118675130,000000BB,false,Rx,0,8,E6,F6,FF,C9,55,00,00,06,
118675341,0000015B,false,Rx,0,8,46,09,00,02,00,00,00,00,
118675724,18FED007,true,Rx,0,6,00,03,94,AB,B5,81,00,00,
118675940,18FED008,true,Rx,0,7,49,80,EC,82,F6,FE,00,00,
118676150,18FED009,true,Rx,0,7,00,00,00,00,00,00,00,00,
118679660,000000BA,false,Rx,0,8,E4,08,28,00,00,00,00,B4,
118683877,000001C0,false,Rx,0,8,72,7D,A4,48,9A,A4,46,4A,
118684088,000001B4,false,Rx,0,8,11,8D,A4,48,8A,A4,48,4A,
118684299,000001B8,false,Rx,0,8,13,BD,A4,4A,AA,A4,4A,4A,
118684513,000001BC,false,Rx,0,8,7E,3D,A4,44,4A,A4,45,4A,
118684734,000001C4,false,Rx,0,8,0A,9D,A4,4A,AA,A4,4A,4A,
118684991,000001C8,false,Rx,0,8,32,9D,A4,48,7A,A4,49,4A,
118685247,000000BB,false,Rx,0,8,F4,D7,FF,D1,55,00,00,08,
118685457,0000015B,false,Rx,0,8,53,0A,00,02,00,00,00,00,
118685670,000001B0,false,Rx,0,8,40,8D,A4,48,9A,A4,49,4A,
118685885,000001CC,false,Rx,0,8,55,7D,A4,48,8A,A4,47,4A,
118686268,18FED007,true,Rx,0,6,00,00,A0,AB,9E,81,00,00,
118686478,18FED008,true,Rx,0,7,49,80,0E,83,F6,FE,00,00,
118686691,18FED009,true,Rx,0,7,00,00,00,00,00,00,00,00,
118688991,000001C1,false,Rx,0,8,C1,7D,A4,46,8A,A4,4B,4A,
118689200,000001B5,false,Rx,0,8,35,8D,A4,48,8A,A4,49,4A,
118689411,000001B6,false,Rx,0,8,64,8D,A4,49,9A,A4,48,4A,
118689622,000001B9,false,Rx,0,8,9A,AD,A4,4A,9A,A4,49,4A,
118689838,000000BA,false,Rx,0,8,E9,09,28,00,00,00,00,A5,
118690048,000001BA,false,Rx,0,8,83,BD,A4,49,AA,A4,4A,4A,
118690430,000001BD,false,Rx,0,8,29,4D,A4,44,4A,A4,4A,4A,
118690641,000001BE,false,Rx,0,8,EC,BD,A4,4A,9A,A4,4A,4A,
118690858,000001C2,false,Rx,0,8,6E,AD,A4,4A,AA,A4,49,4A,
118691068,000001B1,false,Rx,0,8,D5,8D,A4,49,9A,A4,4C,4A,
118691277,000001B2,false,Rx,0,8,EF,CD,A4,4E,CA,A4,4C,4A,
118691497,000001C5,false,Rx,0,8,98,8D,A4,49,AA,A4,4C,4A,
118691717,000001C6,false,Rx,0,8,15,CD,A4,4D,CA,A4,4D,4A,
118691933,000001C9,false,Rx,0,8,1D,6D,A4,47,8A,A4,4B,4A,
118692160,000001CA,false,Rx,0,8,76,BD,A4,4A,CA,A4,4B,4A,
118692370,000001CD,false,Rx,0,8,AB,7D,A4,46,8A,A4,49,4A,
118692580,000001CE,false,Rx,0,8,55,AD,A4,4A,AA,A4,4A,4A,
118695226,000000BB,false,Rx,0,8,D2,D8,FF,D1,55,00,00,0A,
118695436,0000015B,false,Rx,0,8,50,0B,00,01,00,00,00,00,
118695648,18FED007,true,Rx,0,6,00,0C,A0,AB,17,80,00,00,
118695858,18FED008,true,Rx,0,7,49,80,A4,83,F6,FE,00,00,
118696247,18FED009,true,Rx,0,7,00,00,00,00,00,00,00,00,
118699757,000000BA,false,Rx,0,8,61,0A,28,00,00,00,00,A6,
118705098,000000BB,false,Rx,0,8,83,E9,FF,C9,55,00,00,0C,
118705481,0000015B,false,Rx,0,8,6F,0C,00,01,00,00,00,00,
118705693,18FED007,true,Rx,0,6,00,0C,94,AB,00,80,00,00,
118705904,18FED008,true,Rx,0,7,49,80,A4,83,F6,FE,00,00,
118706114,18FED009,true,Rx,0,7,00,00,00,00,00,00,00,00,
118709818,000000BA,false,Rx,0,8,4A,0B,28,00,00,00,00,B0,
118715175,000000BB,false,Rx,0,8,A1,EA,FF,D1,55,00,00,00,
118715386,0000015B,false,Rx,0,8,25,0D,00,01,00,00,00,00,
118715596,18FED007,true,Rx,0,6,00,0C,A0,AB,0B,80,00,00,
118715985,18FED008,true,Rx,0,7,49,80,AF,83,F6,FE,00,00,
118716195,000001B0,false,Rx,0,8,88,3E,A4,45,2A,A4,43,0A,
118716405,000001B4,false,Rx,0,8,E4,6E,A4,47,6A,A4,48,0A,
118716614,000001B8,false,Rx,0,8,6E,5E,A4,45,6A,A4,43,0A,
118716827,000001BC,false,Rx,0,8,E5,3E,A4,43,5A,A4,45,0A,
118717043,000001C0,false,Rx,0,8,A1,5E,A4,45,6A,A4,43,0A,
118717253,000001C4,false,Rx,0,8,BE,5E,A4,45,5A,A4,45,0A,
118717463,000001C8,false,Rx,0,8,49,7E,A4,47,6A,A4,47,0A,
118717676,000001CC,false,Rx,0,8,62,5E,A4,46,5A,A4,46,0A,
118718064,18FED009,true,Rx,0,7,00,00,00,00,00,00,00,00,
118719662,000000BA,false,Rx,0,8,42,0C,28,00,00,00,00,A7,
118720223,000001B1,false,Rx,0,8,40,3E,A4,43,AA,A3,46,0A,
118720433,000001B5,false,Rx,0,8,BB,7E,A4,47,0A,A4,47,0A,
118722313,000001B2,false,Rx,0,8,8D,6E,A4,48,6A,A4,40,0A,
118722319,000001B6,false,Rx,0,8,27,7E,A4,46,6A,A4,41,0A,
118722324,000001B9,false,Rx,0,8,F3,5E,A4,43,CA,A3,48,0A,
118722329,000001BA,false,Rx,0,8,5B,AE,A4,47,7A,A4,43,0A,
118722334,000001BD,false,Rx,0,8,A3,5E,A4,45,BA,A3,45,0A,
118722339,000001BE,false,Rx,0,8,DE,6E,A4,45,3A,A4,3F,0A,
118722344,000001C1,false,Rx,0,8,09,5E,A4,42,CA,A3,46,0A,
118722349,000001C2,false,Rx,0,8,1E,6E,A4,45,6A,A4,3D,0A,
118722570,000001C5,false,Rx,0,8,20,3E,A4,43,DA,A3,46,0A,
118722782,000001C6,false,Rx,0,8,BD,6E,A4,46,5A,A4,3F,0A,
118723014,000001C9,false,Rx,0,8,66,5E,A4,46,CA,A3,45,0A,
118723223,000001CA,false,Rx,0,8,14,6E,A4,46,6A,A4,3F,0A,
118723433,000001CD,false,Rx,0,8,6B,6E,A4,45,FA,A3,45,0A,
118723645,000001CE,false,Rx,0,8,21,6E,A4,45,5A,A4,40,0A,
118725187,000000BB,false,Rx,0,8,28,EB,FF,D1,55,00,00,0E,
118725396,0000015B,false,Rx,0,8,F2,0E,00,01,00,00,00,00,
118725606,18FED007,true,Rx,0,6,00,0C,A0,AB,0B,80,00,00,
118725991,18FED008,true,Rx,0,7,49,80,AF,83,F6,FE,00,00,
118726208,18FED009,true,Rx,0,7,00,00,00,00,00,00,00,00,
118729716,000000BA,false,Rx,0,8,4C,0D,28,00,00,00,00,A8,
118735144,000000BB,false,Rx,0,8,17,EC,FF,C9,55,00,00,10,
118735354,0000015B,false,Rx,0,8,99,0F,00,01,00,00,00,00,
118735738,18FED007,true,Rx,0,6,00,0C,94,AB,00,80,00,00,
118735947,18FED008,true,Rx,0,7,49,80,A4,83,F6,FE,00,00,
118736165,18FED009,true,Rx,0,7,00,00,00,00,00,00,00,00,
118739691,000000BA,false,Rx,0,8,CF,0E,28,00,00,00,00,B9,
118744803,000001B0,false,Rx,0,8,D9,8F,A4,49,9A,A4,49,9A,
118745020,000001B4,false,Rx,0,8,28,8F,A4,48,8A,A4,48,9A,
118745240,000000BB,false,Rx,0,8,68,FD,FF,D1,55,00,00,12,
118745460,0000015B,false,Rx,0,8,66,00,00,01,00,00,00,00,
118745850,000001B8,false,Rx,0,8,A1,AF,A4,4A,AA,A4,4A,9A,
118746060,000001BC,false,Rx,0,8,F8,3F,A4,44,4A,A4,44,9A,
118746269,000001C0,false,Rx,0,8,55,7F,A4,48,9A,A4,46,9A,
118746478,000001C4,false,Rx,0,8,3F,9F,A4,4A,AA,A4,4A,9A,
118746690,000001C8,false,Rx,0,8,B7,AF,A4,48,7A,A4,48,9A,
118746906,000001CC,false,Rx,0,8,8A,6F,A4,48,8A,A4,48,9A,
118747117,18FED007,true,Rx,0,6,00,0C,A0,AB,0B,80,00,00,
118747342,18FED008,true,Rx,0,7,49,80,AF,83,F6,FE,00,00,
118747786,18FED009,true,Rx,0,7,00,00,00,00,00,00,00,00,
118749745,000000BA,false,Rx,0,8,9B,0F,28,00,00,00,00,AA,
118749961,000001B1,false,Rx,0,8,32,8F,A4,49,9A,A4,4C,9A,
118750172,000001B5,false,Rx,0,8,7B,8F,A4,47,9A,A4,49,9A,
118750382,000001B2,false,Rx,0,8,F8,CF,A4,4D,CA,A4,4B,9A,
118750592,000001B6,false,Rx,0,8,F6,8F,A4,48,9A,A4,49,9A,
118750802,000001B9,false,Rx,0,8,2E,AF,A4,49,9A,A4,49,9A,
118751190,000001BA,false,Rx,0,8,69,BF,A4,49,9A,A4,4A,9A,
118751400,000001BD,false,Rx,0,8,29,4F,A4,44,4A,A4,4A,9A,
118751609,000001BE,false,Rx,0,8,50,BF,A4,49,9A,A4,4A,9A,
118751821,000001C1,false,Rx,0,8,BD,7F,A4,46,7A,A4,4B,9A,
118752036,000001C2,false,Rx,0,8,F4,AF,A4,4A,AA,A4,49,9A,
118752246,000001C5,false,Rx,0,8,F0,8F,A4,48,AA,A4,4D,9A,
118752456,000001C6,false,Rx,0,8,C9,CF,A4,4D,DA,A4,4D,9A,
118752667,000001C9,false,Rx,0,8,0B,7F,A4,48,7A,A4,4B,9A,
118752883,000001CA,false,Rx,0,8,54,BF,A4,4A,BA,A4,4A,9A,
118753093,000001CD,false,Rx,0,8,B1,6F,A4,46,8A,A4,49,9A,
118753303,000001CE,false,Rx,0,8,DE,AF,A4,4A,AA,A4,4A,9A,
118755253,000000BB,false,Rx,0,8,B3,FE,FF,D1,55,00,00,14,
118755463,0000015B,false,Rx,0,8,C8,01,00,01,00,00,00,00,
118755674,18FED007,true,Rx,0,6,00,0C,A0,AB,0B,80,00,00,
118755883,18FED008,true,Rx,0,7,49,80,AF,83,F6,FE,00,00,
118756273,18FED009,true,Rx,0,7,00,00,00,00,00,00,00,00,
118759783,000000BA,false,Rx,0,8,75,00,28,00,00,00,00,AB,
118765255,000000BB,false,Rx,0,8,09,FF,FF,C9,55,00,00,16,
118765466,0000015B,false,Rx,0,8,C6,02,00,01,00,00,00,00,
118765677,18FED007,true,Rx,0,6,00,0C,94,AB,00,80,00,00,
118765886,18FED008,true,Rx,0,7,49,80,A4,83,F6,FE,00,00,
118766276,18FED009,true,Rx,0,7,00,00,00,00,00,00,00,00,
118766486,18FED00A,true,Rx,0,8,00,00,32,20,00,41,00,00,
118769698,000000BA,false,Rx,0,8,42,01,28,00,00,00,00,B0,
118775125,000000BB,false,Rx,0,8,52,E0,FF,D1,55,00,00,00,
118775507,0000015B,false,Rx,0,8,F7,03,00,01,00,00,00,00,
118775718,18FED007,true,Rx,0,6,00,0C,A0,AB,0B,80,00,00,
118775927,18FED008,true,Rx,0,7,49,80,AF,83,F6,FE,00,00,
118776143,18FED009,true,Rx,0,7,00,00,00,00,00,00,00,00,
118776699,000001B0,false,Rx,0,8,21,30,A4,45,2A,A4,42,0A,
118776915,000001B4,false,Rx,0,8,66,60,A4,47,6A,A4,48,0A,
118777125,000001B8,false,Rx,0,8,5C,50,A4,45,6A,A4,43,0A,
118777335,000001BC,false,Rx,0,8,B7,30,A4,43,3A,A4,45,0A,
118777546,000001C0,false,Rx,0,8,49,50,A4,45,6A,A4,43,0A,
118777757,000001C4,false,Rx,0,8,EF,50,A4,46,5A,A4,45,0A,
118777974,000001C8,false,Rx,0,8,20,70,A4,46,6A,A4,47,0A,
118778183,000001CC,false,Rx,0,8,CF,50,A4,46,5A,A4,46,0A,
118779784,000000BA,false,Rx,0,8,2D,02,28,00,00,00,00,AC,
118782493,000001B1,false,Rx,0,8,E4,30,A4,43,AA,A3,46,0A,
118782498,000001B5,false,Rx,0,8,09,70,A4,47,0A,A4,47,0A,
118782503,000001B2,false,Rx,0,8,C8,60,A4,48,6A,A4,40,0A,
118782508,000001B6,false,Rx,0,8,49,70,A4,47,6A,A4,41,0A,
118782513,000001B9,false,Rx,0,8,51,50,A4,43,CA,A3,47,0A,
118782518,000001BA,false,Rx,0,8,3C,A0,A4,47,7A,A4,43,0A,
118782523,000001BD,false,Rx,0,8,B0,50,A4,45,BA,A3,45,0A,
118782747,000001BE,false,Rx,0,8,8C,60,A4,45,3A,A4,3F,0A,
118782962,000001C1,false,Rx,0,8,4E,50,A4,42,CA,A3,46,0A,
118783171,000001C2,false,Rx,0,8,9A,60,A4,45,6A,A4,3D,0A,
118783381,000001C5,false,Rx,0,8,F9,30,A4,43,DA,A3,46,0A,
118783593,000001C6,false,Rx,0,8,B0,60,A4,46,5A,A4,3F,0A,
118783813,000001C9,false,Rx,0,8,AE,50,A4,46,CA,A3,45,0A,
118784039,000001CA,false,Rx,0,8,F8,60,A4,46,6A,A4,3F,0A,
118784249,000001CD,false,Rx,0,8,D3,60,A4,45,FA,A3,45,0A,
118784460,000001CE,false,Rx,0,8,46,60,A4,45,5A,A4,40,0A,
118785195,000000BB,false,Rx,0,8,F9,E1,FF,D1,55,00,00,18,
118785405,0000015B,false,Rx,0,8,51,04,00,01,00,00,00,00,
118785615,18FED007,true,Rx,0,6,00,0C,A0,AB,0B,80,00,00,
118786006,18FED008,true,Rx,0,7,49,80,AF,83,F6,FE,00,00,
118786234,18FED009,true,Rx,0,7,00,00,00,00,00,00,00,00,
118789795,000000BA,false,Rx,0,8,10,03,28,00,00,00,00,AD,
118795255,000000BB,false,Rx,0,8,CF,E2,FF,C9,55,00,00,1A,
118795465,0000015B,false,Rx,0,8,D8,05,00,01,00,00,00,00,
118795677,18FED007,true,Rx,0,6,00,0C,94,AB,00,80,00,00,
118795895,18FED008,true,Rx,0,7,49,80,A4,83,F6,FE,00,00,
118796284,18FED009,true,Rx,0,7,00,00,00,00,00,00,00,00,
118799795,000000BA,false,Rx,0,8,08,04,28,00,00,00,00,BE,
118804981,000001B0,false,Rx,0,8,EB,81,A4,48,9A,A4,49,EA,
118805191,000000BB,false,Rx,0,8,0E,E3,FF,D1,55,00,00,1C,
118805402,0000015B,false,Rx,0,8,88,06,00,01,00,00,00,00,
118805612,000001B4,false,Rx,0,8,BF,81,A4,48,8A,A4,49,EA,
118805825,000001B8,false,Rx,0,8,E3,A1,A4,4A,BA,A4,49,EA,
118806040,000001BC,false,Rx,0,8,A8,31,A4,44,4A,A4,45,EA,
118806423,000001C0,false,Rx,0,8,0D,71,A4,47,9A,A4,46,EA,
118806634,000001C4,false,Rx,0,8,2A,91,A4,4A,AA,A4,49,EA,
118806850,000001C8,false,Rx,0,8,30,91,A4,47,7A,A4,49,EA,
118807059,000001CC,false,Rx,0,8,6F,61,A4,48,7A,A4,47,EA,
118807270,18FED007,true,Rx,0,6,00,0C,A0,AB,0B,80,00,00,
118807493,18FED008,true,Rx,0,7,49,80,AF,83,F6,FE,00,00,
118807741,18FED009,true,Rx,0,7,00,00,00,00,00,00,00,00,
118809741,000000BA,false,Rx,0,8,8F,05,28,00,00,00,00,AF,
118810130,000001B1,false,Rx,0,8,2A,81,A4,48,9A,A4,4C,EA,
118810340,000001B5,false,Rx,0,8,3F,81,A4,47,9A,A4,49,EA,
118810548,000001B2,false,Rx,0,8,E2,B1,A4,4D,CA,A4,4B,EA,
118810760,000001B6,false,Rx,0,8,A4,81,A4,48,8A,A4,49,EA,
118810977,000001B9,false,Rx,0,8,63,B1,A4,49,AA,A4,49,EA,
118811187,000001BA,false,Rx,0,8,DE,B1,A4,49,9A,A4,4A,EA,
118811397,000001BD,false,Rx,0,8,04,41,A4,44,5A,A4,4A,EA,
118811607,000001BE,false,Rx,0,8,BF,B1,A4,4A,9A,A4,4A,EA,
118811997,000001C1,false,Rx,0,8,80,71,A4,46,8A,A4,4A,EA,
118812207,000001C2,false,Rx,0,8,6E,A1,A4,4A,AA,A4,49,EA,
118812417,000001C5,false,Rx,0,8,5E,91,A4,49,BA,A4,4D,EA,
118812628,000001C6,false,Rx,0,8,3F,C1,A4,4C,CA,A4,4C,EA,
118812843,000001C9,false,Rx,0,8,0D,61,A4,47,8A,A4,4B,EA,
118813053,000001CA,false,Rx,0,8,DA,B1,A4,4A,BA,A4,4B,EA,
118813263,000001CD,false,Rx,0,8,FE,71,A4,46,9A,A4,49,EA,
118813473,000001CE,false,Rx,0,8,43,A1,A4,49,AA,A4,4A,EA,
118815251,000000BB,false,Rx,0,8,83,E4,FF,D1,55,00,00,1E,
118815461,0000015B,false,Rx,0,8,93,07,00,01,00,00,00,00,
118815672,18FED007,true,Rx,0,6,00,0C,A0,AB,0B,80,00,00,
118815887,18FED008,true,Rx,0,7,49,80,AF,83,F6,FE,00,00,
118816268,18FED009,true,Rx,0,7,00,00,00,00,00,00,00,00,
118819778,000000BA,false,Rx,0,8,35,06,28,00,00,00,00,A1,
118825237,000000BB,false,Rx,0,8,A9,E5,FF,D1,55,00,00,02,
118825448,0000015B,false,Rx,0,8,B9,08,00,01,00,00,00,00,
118825660,18FED007,true,Rx,0,6,00,0C,A0,AB,0B,80,00,00,
118825876,18FED008,true,Rx,0,7,49,80,AF,83,F6,FE,00,00,
118826258,18FED009,true,Rx,0,7,00,00,00,00,00,00,00,00,
118829668,000000BA,false,Rx,0,8,D0,07,28,00,00,00,00,B0,
118835268,000000BB,false,Rx,0,8,41,E6,FF,D1,55,00,00,00,
118835478,0000015B,false,Rx,0,8,BA,09,00,01,00,00,00,00,
118835689,18FED007,true,Rx,0,6,00,0C,A0,AB,0B,80,00,00,
118835905,18FED008,true,Rx,0,7,49,80,AF,83,F6,FE,00,00,
118836288,18FED009,true,Rx,0,7,00,00,00,00,00,00,00,00,
118836498,000001C0,false,Rx,0,8,94,52,A4,45,6A,A4,43,0A,
118836709,000001B4,false,Rx,0,8,AB,62,A4,47,6A,A4,47,0A,
118836920,000001B8,false,Rx,0,8,33,52,A4,45,5A,A4,43,0A,
118837135,000001BC,false,Rx,0,8,D4,32,A4,43,3A,A4,45,0A,
118837346,000001B0,false,Rx,0,8,99,32,A4,45,2A,A4,42,0A,
118837556,000001C4,false,Rx,0,8,8D,52,A4,45,5A,A4,45,0A,
118837768,000001C8,false,Rx,0,8,F1,72,A4,46,6A,A4,47,0A,
118837985,000001CC,false,Rx,0,8,83,52,A4,46,5A,A4,46,0A,
118839755,000000BA,false,Rx,0,8,E9,08,28,00,00,00,00,A2,
118841013,000001C5,false,Rx,0,8,CD,32,A4,43,DA,A3,46,0A,
118842759,000001B5,false,Rx,0,8,00,72,A4,47,0A,A4,47,0A,
118842765,000001B6,false,Rx,0,8,1F,72,A4,47,6A,A4,41,0A,
118842770,000001B9,false,Rx,0,8,38,52,A4,43,CA,A3,48,0A,
118842775,000001B1,false,Rx,0,8,80,32,A4,43,AA,A3,46,0A,
118842780,000001B2,false,Rx,0,8,3F,62,A4,48,6A,A4,40,0A,
118842785,000001BA,false,Rx,0,8,5C,A2,A4,47,7A,A4,43,0A,
118842790,000001BD,false,Rx,0,8,FD,52,A4,45,BA,A3,45,0A,
118842795,000001BE,false,Rx,0,8,D1,62,A4,45,3A,A4,3F,0A,
118843021,000001C1,false,Rx,0,8,F1,52,A4,42,CA,A3,46,0A,
118843231,000001C2,false,Rx,0,8,1A,62,A4,45,6A,A4,3D,0A,
118843440,000001C6,false,Rx,0,8,7F,62,A4,46,5A,A4,3F,0A,
118843652,000001C9,false,Rx,0,8,58,52,A4,46,CA,A3,45,0A,
118843868,000001CA,false,Rx,0,8,B0,62,A4,46,6A,A4,3F,0A,
118844078,000001CD,false,Rx,0,8,BD,62,A4,45,DA,A3,45,0A,
118844288,000001CE,false,Rx,0,8,14,62,A4,45,5A,A4,40,0A,
118845195,000000BB,false,Rx,0,8,6D,E7,FF,D1,55,00,00,04,
118845405,0000015B,false,Rx,0,8,AF,0A,00,01,00,00,00,00,
118845616,18FED007,true,Rx,0,6,00,0C,A0,AB,0B,80,00,00,
118846005,18FED008,true,Rx,0,7,49,80,AF,83,F6,FE,00,00,
118846215,18FED009,true,Rx,0,7,00,00,00,00,00,00,00,00,
118849741,000000BA,false,Rx,0,8,C1,09,28,00,00,00,00,A3,
118855210,000000BB,false,Rx,0,8,66,E8,FF,C9,55,00,00,06,
118855420,0000015B,false,Rx,0,8,50,0B,00,01,00,00,00,00,
118855632,18FED007,true,Rx,0,6,00,0C,94,AB,00,80,00,00,
118856021,18FED008,true,Rx,0,7,49,80,A4,83,F6,FE,00,00,
118856230,18FED009,true,Rx,0,7,00,00,00,00,00,00,00,00,
118859741,000000BA,false,Rx,0,8,B9,0A,28,00,00,00,00,B4,
118864677,000001B0,false,Rx,0,8,8E,73,A4,48,9A,A4,48,4A,
118864907,000001B4,false,Rx,0,8,BB,83,A4,48,8A,A4,49,4A,
118865116,000001B8,false,Rx,0,8,D5,B3,A4,4A,AA,A4,4A,4A,
118865326,000000BB,false,Rx,0,8,7B,E9,FF,D1,55,00,00,08,
118865535,0000015B,false,Rx,0,8,6F,0C,00,01,00,00,00,00,
118865761,000001BC,false,Rx,0,8,98,33,A4,44,5A,A4,45,4A,
118865977,000001C0,false,Rx,0,8,79,73,A4,48,9A,A4,46,4A,
118866202,000001C4,false,Rx,0,8,1E,93,A4,49,9A,A4,49,4A,
118866411,000001C8,false,Rx,0,8,04,93,A4,48,7A,A4,48,4A,
118866623,000001CC,false,Rx,0,8,CA,63,A4,48,7A,A4,47,4A,
118866838,18FED007,true,Rx,0,6,00,0C,A0,AB,0B,80,00,00,
118867221,18FED008,true,Rx,0,7,49,80,AF,83,F6,FE,00,00,
118867431,18FED009,true,Rx,0,7,00,00,00,00,00,00,00,00,
118867815,18FED00A,true,Rx,0,8,00,00,32,20,00,41,00,00,
118869669,000000BA,false,Rx,0,8,53,0B,28,00,00,00,00,A5,
118869886,000001B1,false,Rx,0,8,D9,83,A4,48,9A,A4,4C,4A,
118870268,000001B2,false,Rx,0,8,2F,C3,A4,4D,CA,A4,4C,4A,
118870478,000001B5,false,Rx,0,8,21,83,A4,48,9A,A4,49,4A,
118870689,000001B6,false,Rx,0,8,00,93,A4,49,9A,A4,49,4A,
118870904,000001B9,false,Rx,0,8,39,A3,A4,4A,AA,A4,49,4A,
118871114,000001BA,false,Rx,0,8,52,B3,A4,49,AA,A4,4A,4A,
118871324,000001BD,false,Rx,0,8,77,43,A4,44,4A,A4,4A,4A,
118871534,000001BE,false,Rx,0,8,80,B3,A4,4A,9A,A4,4A,4A,
118871746,000001C1,false,Rx,0,8,FF,73,A4,46,8A,A4,4B,4A,
118871963,000001C2,false,Rx,0,8,CA,A3,A4,4A,AA,A4,49,4A,
118872171,000001C5,false,Rx,0,8,C7,93,A4,49,AA,A4,4D,4A,
118872381,000001C6,false,Rx,0,8,AA,C3,A4,4D,DA,A4,4C,4A,
118872591,000001C9,false,Rx,0,8,4C,73,A4,48,8A,A4,4B,4A,
118872847,000001CA,false,Rx,0,8,39,B3,A4,4B,BA,A4,4A,4A,
118873087,000001CD,false,Rx,0,8,A1,73,A4,46,8A,A4,49,4A,
118873297,000001CE,false,Rx,0,8,91,B3,A4,4A,AA,A4,4A,4A,
118875247,000000BB,false,Rx,0,8,D9,EA,FF,D1,55,00,00,0A,
118875457,0000015B,false,Rx,0,8,25,0D,00,01,00,00,00,00,
118875668,18FED007,true,Rx,0,6,00,0C,A0,AB,0B,80,00,00,
118875883,18FED008,true,Rx,0,7,49,80,AF,83,F6,FE,00,00,
118876266,18FED009,true,Rx,0,7,00,00,00,00,00,00,00,00,
118879776,000000BA,false,Rx,0,8,AB,0C,28,00,00,00,00,A6,
118885142,000000BB,false,Rx,0,8,F8,EB,FF,C9,55,00,00,0C,
118885353,0000015B,false,Rx,0,8,F2,0E,00,01,00,00,00,00,
118885737,18FED007,true,Rx,0,6,00,0C,94,AB,00,80,00,00,
118885952,18FED008,true,Rx,0,7,49,80,A4,83,F6,FE,00,00,
118886162,18FED009,true,Rx,0,7,00,00,00,00,00,00,00,00,
118889719,000000BA,false,Rx,0,8,EC,0D,28,00,00,00,00,B0,
118895237,000000BB,false,Rx,0,8,1F,EC,FF,D1,55,00,00,00,
118895447,0000015B,false,Rx,0,8,99,0F,00,01,00,00,00,00,
118895659,18FED007,true,Rx,0,6,00,04,A0,AB,0B,80,00,00,
118895868,18FED008,true,Rx,0,7,49,80,AF,83,F6,FE,00,00,
118896251,000001B0,false,Rx,0,8,52,34,A4,45,2A,A4,42,0A,
118896461,000001B4,false,Rx,0,8,6E,64,A4,47,6A,A4,47,0A,
118896672,000001B8,false,Rx,0,8,24,54,A4,45,5A,A4,43,0A,
118896889,000001BC,false,Rx,0,8,EB,34,A4,43,3A,A4,45,0A,
118897099,000001C0,false,Rx,0,8,A2,54,A4,45,6A,A4,43,0A,
118897308,000001C4,false,Rx,0,8,F7,54,A4,45,5A,A4,45,0A,
118897518,000001C8,false,Rx,0,8,DA,84,A4,46,6A,A4,47,0A,
118897729,000001CC,false,Rx,0,8,DD,54,A4,46,5A,A4,46,0A,
118897945,18FED009,true,Rx,0,7,00,00,00,00,00,00,00,00,
118899716,000000BA,false,Rx,0,8,47,0E,28,00,00,00,00,A7,
118900277,000001B1,false,Rx,0,8,4B,34,A4,43,AA,A3,46,0A,
118900487,000001B5,false,Rx,0,8,26,74,A4,47,0A,A4,47,0A,
118900877,000001B2,false,Rx,0,8,05,64,A4,48,6A,A4,40,0A,
118901087,000001B6,false,Rx,0,8,FC,74,A4,46,6A,A4,41,0A,
118901296,000001B9,false,Rx,0,8,13,54,A4,43,CA,A3,48,0A,
118903019,000001BA,false,Rx,0,8,80,A4,A4,47,7A,A4,43,0A,
118903024,000001BD,false,Rx,0,8,A4,54,A4,45,BA,A3,45,0A,
118903029,000001BE,false,Rx,0,8,C2,64,A4,45,3A,A4,3F,0A,
118903034,000001C1,false,Rx,0,8,C3,54,A4,42,CA,A3,46,0A,
118903039,000001C2,false,Rx,0,8,53,64,A4,46,6A,A4,3D,0A,
118903044,000001C5,false,Rx,0,8,66,34,A4,43,DA,A3,46,0A,
118903049,000001C6,false,Rx,0,8,F6,64,A4,46,5A,A4,3F,0A,
118903054,000001C9,false,Rx,0,8,E4,54,A4,45,CA,A3,45,0A,
118903277,000001CA,false,Rx,0,8,93,64,A4,46,6A,A4,3F,0A,
118903494,000001CD,false,Rx,0,8,0E,54,A4,45,DA,A3,45,0A,
118903716,000001CE,false,Rx,0,8,7E,64,A4,45,5A,A4,40,0A,
118905158,000000BB,false,Rx,0,8,BF,ED,FF,D1,55,00,00,0E,
118905408,0000015B,false,Rx,0,8,66,00,00,01,00,00,00,00,
118905636,18FED007,true,Rx,0,6,00,04,A0,AB,0B,80,00,00,
118905864,18FED008,true,Rx,0,7,49,80,AF,83,F6,FE,00,00,
118906246,18FED009,true,Rx,0,7,00,00,00,00,00,00,00,00,
118909756,000000BA,false,Rx,0,8,66,0F,28,00,00,00,00,A8,
118915183,000000BB,false,Rx,0,8,E9,EE,FF,C9,55,00,00,10,
118915393,0000015B,false,Rx,0,8,C8,01,00,01,00,00,00,00,
118915603,18FED007,true,Rx,0,6,00,04,94,AB,F4,7F,00,00,
118915988,18FED008,true,Rx,0,7,49,80,A4,83,F6,FE,00,00,
118916197,18FED009,true,Rx,0,7,00,00,00,00,00,00,00,00,
118919708,000000BA,false,Rx,0,8,AD,00,28,00,00,00,00,B9,
118924588,000001B8,false,Rx,0,8,1B,A5,A4,4A,AA,A4,49,9A,
118924801,000001C8,false,Rx,0,8,F3,95,A4,48,8A,A4,48,9A,
118925017,000001CC,false,Rx,0,8,F1,75,A4,47,7A,A4,48,9A,
118925227,000000BB,false,Rx,0,8,53,EF,FF,D1,55,00,00,12,
118925437,0000015B,false,Rx,0,8,C6,02,00,01,00,00,00,00,
118925648,000001B0,false,Rx,0,8,FF,85,A4,49,9A,A4,49,9A,
118925864,000001B4,false,Rx,0,8,6E,85,A4,48,9A,A4,48,9A,
118926074,000001BC,false,Rx,0,8,22,45,A4,43,4A,A4,44,9A,
118926284,000001C0,false,Rx,0,8,11,65,A4,48,9A,A4,46,9A,
118926667,000001C4,false,Rx,0,8,5C,95,A4,4A,9A,A4,49,9A,
118926884,18FED007,true,Rx,0,6,00,04,A0,AB,00,80,00,00,
118927094,18FED008,true,Rx,0,7,49,80,AF,83,F6,FE,00,00,
118927307,18FED009,true,Rx,0,7,00,00,00,00,00,00,00,00,
118929827,000000BA,false,Rx,0,8,1F,01,28,00,00,00,00,AA,
118930054,000001B9,false,Rx,0,8,E6,B5,A4,49,9A,A4,49,9A,
118930275,000001C9,false,Rx,0,8,CC,75,A4,48,8A,A4,4B,9A,
118930485,000001BA,false,Rx,0,8,55,B5,A4,49,AA,A4,4A,9A,
118930697,000001B1,false,Rx,0,8,4C,95,A4,49,9A,A4,4C,9A,
118930912,000001B2,false,Rx,0,8,1B,C5,A4,4C,CA,A4,4C,9A,
118931122,000001B5,false,Rx,0,8,F9,85,A4,47,8A,A4,48,9A,
118931332,000001B6,false,Rx,0,8,0A,95,A4,49,8A,A4,49,9A,
118931542,000001BD,false,Rx,0,8,6C,45,A4,43,4A,A4,4A,9A,
118931754,000001BE,false,Rx,0,8,2D,A5,A4,4A,9A,A4,4A,9A,
118931969,000001C1,false,Rx,0,8,C2,85,A4,46,8A,A4,4B,9A,
118932179,000001C2,false,Rx,0,8,D4,A5,A4,4A,AA,A4,49,9A,
118932388,000001C5,false,Rx,0,8,B0,95,A4,49,AA,A4,4C,9A,
118932598,000001C6,false,Rx,0,8,88,C5,A4,4D,CA,A4,4D,9A,
118932986,000001CA,false,Rx,0,8,9F,B5,A4,4B,CA,A4,4A,9A,
118933196,000001CD,false,Rx,0,8,28,75,A4,46,8A,A4,49,9A,
118933406,000001CE,false,Rx,0,8,01,A5,A4,4A,AA,A4,4A,9A,
118935181,000000BB,false,Rx,0,8,A2,E0,FF,D1,55,00,00,14,
118935392,0000015B,false,Rx,0,8,F7,03,00,01,00,00,00,00,
118935602,18FED007,true,Rx,0,6,00,04,A0,AB,0B,80,00,00,
118935991,18FED008,true,Rx,0,7,49,80,AF,83,F6,FE,00,00,
118936201,18FED009,true,Rx,0,7,00,00,00,00,00,00,00,00,
118939709,000000BA,false,Rx,0,8,EC,02,28,00,00,00,00,AB,
118945161,000000BB,false,Rx,0,8,79,E1,FF,C9,55,00,00,16,
118945386,0000015B,false,Rx,0,8,51,04,00,01,00,00,00,00,
118945596,18FED007,true,Rx,0,6,00,04,94,AB,00,80,00,00,
118945986,18FED008,true,Rx,0,7,49,80,A4,83,F6,FE,00,00,
118946196,18FED009,true,Rx,0,7,00,00,00,00,00,00,00,00,
118949707,000000BA,false,Rx,0,8,8C,03,28,00,00,00,00,B0,
118955280,000000BB,false,Rx,0,8,BF,E2,FF,D1,55,00,00,00,
118955490,0000015B,false,Rx,0,8,D8,05,00,01,00,00,00,00,
118955702,18FED007,true,Rx,0,6,00,04,A0,AB,0B,80,00,00,
118955914,18FED008,true,Rx,0,7,49,80,AF,83,F6,FE,00,00,
118956296,18FED009,true,Rx,0,7,00,00,00,00,00,00,00,00,
118956858,000001B0,false,Rx,0,8,B7,36,A4,45,2A,A4,42,0A,
118957067,000001B4,false,Rx,0,8,8D,66,A4,47,6A,A4,47,0A,
118957277,000001B8,false,Rx,0,8,79,56,A4,45,5A,A4,43,0A,
118957661,000001BC,false,Rx,0,8,72,36,A4,43,3A,A4,45,0A,
118957877,000001C0,false,Rx,0,8,63,56,A4,45,6A,A4,43,0A,
118958086,000001C4,false,Rx,0,8,63,56,A4,45,5A,A4,45,0A,
118958295,000001C8,false,Rx,0,8,D8,76,A4,46,6A,A4,47,0A,
118958505,000001CC,false,Rx,0,8,2A,56,A4,46,5A,A4,46,0A,
118959759,000000BA,false,Rx,0,8,D0,04,28,00,00,00,00,AC,
118961709,000001B1,false,Rx,0,8,6E,36,A4,43,BA,A3,46,0A,
118963428,000001B5,false,Rx,0,8,E3,76,A4,47,0A,A4,47,0A,
118963433,000001B2,false,Rx,0,8,0D,66,A4,48,6A,A4,40,0A,
118963438,000001B6,false,Rx,0,8,56,76,A4,46,6A,A4,41,0A,
118963443,000001B9,false,Rx,0,8,FF,56,A4,43,CA,A3,47,0A,
118963448,000001BA,false,Rx,0,8,38,A6,A4,47,7A,A4,43,0A,
118963453,000001BD,false,Rx,0,8,2D,56,A4,45,BA,A3,45,0A,
118963458,000001BE,false,Rx,0,8,81,66,A4,45,3A,A4,3F,0A,
118963463,000001C1,false,Rx,0,8,B6,56,A4,42,CA,A3,46,0A,
118963687,000001C2,false,Rx,0,8,FB,66,A4,45,6A,A4,3D,0A,
118963897,000001C5,false,Rx,0,8,95,36,A4,43,CA,A3,46,0A,
118964131,000001C6,false,Rx,0,8,C6,66,A4,46,5A,A4,3F,0A,
118964342,000001C9,false,Rx,0,8,10,66,A4,45,CA,A3,45,0A,
118964552,000001CA,false,Rx,0,8,AE,66,A4,46,6A,A4,3F,0A,
118964764,000001CD,false,Rx,0,8,9E,56,A4,45,DA,A3,45,0A,
118964978,000001CE,false,Rx,0,8,66,66,A4,45,5A,A4,40,0A,
118965361,000000BB,false,Rx,0,8,DB,E3,FF,D1,55,00,00,18,
118965571,0000015B,false,Rx,0,8,88,06,00,01,00,00,00,00,
118965784,18FED007,true,Rx,0,6,00,04,A0,AB,0B,80,00,00,
118966004,18FED008,true,Rx,0,7,49,80,AF,83,F6,FE,00,00,
118966435,18FED009,true,Rx,0,7,00,00,00,00,00,00,00,00,
118966670,18FED00A,true,Rx,0,8,00,00,32,20,00,41,00,00,
118969840,000000BA,false,Rx,0,8,72,05,28,00,00,00,00,AD,
118975258,000000BB,false,Rx,0,8,7B,E4,FF,C9,55,00,00,1A,
118975468,0000015B,false,Rx,0,8,93,07,00,01,00,00,00,00,
118975680,18FED007,true,Rx,0,6,00,04,94,AB,00,80,00,00,
118975891,18FED008,true,Rx,0,7,49,80,A4,83,F6,FE,00,00,
118976274,18FED009,true,Rx,0,7,00,00,00,00,00,00,00,00,
118979783,000000BA,false,Rx,0,8,54,06,28,00,00,00,00,BE,
118984520,000001C0,false,Rx,0,8,D0,77,A4,48,9A,A4,46,EA,
118984734,000001B4,false,Rx,0,8,6A,77,A4,49,8A,A4,48,EA,
118984942,000001B8,false,Rx,0,8,B6,B7,A4,4A,AA,A4,49,EA,
118985163,000001BC,false,Rx,0,8,E5,37,A4,44,4A,A4,45,EA,
118985385,000000BB,false,Rx,0,8,21,E5,FF,D1,55,00,00,1C,
118985633,0000015B,false,Rx,0,8,B9,08,00,01,00,00,00,00,
118985882,000001B0,false,Rx,0,8,A0,87,A4,49,9A,A4,49,EA,
118986091,000001C4,false,Rx,0,8,1E,97,A4,4A,AA,A4,49,EA,
118986301,000001C8,false,Rx,0,8,1A,97,A4,49,8A,A4,48,EA,
118986511,000001CC,false,Rx,0,8,25,67,A4,48,7A,A4,47,EA,
118986723,18FED007,true,Rx,0,6,00,04,A0,AB,0B,80,00,00,
118987110,18FED008,true,Rx,0,7,49,80,AF,83,F6,FE,00,00,
118987319,18FED009,true,Rx,0,7,00,00,00,00,00,00,00,00,
118989788,000000BA,false,Rx,0,8,B1,07,28,00,00,00,00,AF,
118990004,000001C1,false,Rx,0,8,F0,87,A4,46,7A,A4,4A,EA,
118990214,000001B5,false,Rx,0,8,03,87,A4,48,9A,A4,48,EA,
118990424,000001B6,false,Rx,0,8,E9,87,A4,48,8A,A4,48,EA,
118990635,000001B9,false,Rx,0,8,6C,B7,A4,4A,AA,A4,4A,EA,
118990852,000001B1,false,Rx,0,8,BB,87,A4,49,8A,A4,4C,EA,
118991062,000001B2,false,Rx,0,8,A3,C7,A4,4C,CA,A4,4C,EA,
118991271,000001BA,false,Rx,0,8,70,B7,A4,49,9A,A4,4A,EA,
118991480,000001BD,false,Rx,0,8,4E,47,A4,44,4A,A4,4A,EA,
118991871,000001BE,false,Rx,0,8,DF,A7,A4,4A,AA,A4,4A,EA,
118992081,000001C2,false,Rx,0,8,A1,A7,A4,4A,AA,A4,49,EA,
118992291,000001C5,false,Rx,0,8,BB,87,A4,49,AA,A4,4D,EA,
118992501,000001C6,false,Rx,0,8,14,D7,A4,4C,CA,A4,4D,EA,
118992713,000001C9,false,Rx,0,8,D9,77,A4,47,7A,A4,4B,EA,
118992929,000001CA,false,Rx,0,8,8E,B7,A4,4B,CA,A4,4A,EA,
118993139,000001CD,false,Rx,0,8,2D,77,A4,46,8A,A4,49,EA,
118993348,000001CE,false,Rx,0,8,02,A7,A4,4A,AA,A4,4A,EA,
118995144,000000BB,false,Rx,0,8,C9,E6,FF,D1,55,00,00,1E,
118995354,0000015B,false,Rx,0,8,BA,09,00,01,00,00,00,00,
118995739,18FED007,true,Rx,0,6,00,04,A0,AB,0B,80,00,00,
118995959,18FED008,true,Rx,0,7,49,80,AF,83,F6,FE,00,00,
118996167,18FED009,true,Rx,0,7,00,00,00,00,00,00,00,00,
118999714,000000BA,false,Rx,0,8,FD,08,28,00,00,00,00,A1,
119005236,000000BB,false,Rx,0,8,68,E7,FF,C9,55,00,00,02,
119005447,0000015B,false,Rx,0,8,AF,0A,00,01,00,00,00,00,
119005659,18FED007,true,Rx,0,6,00,04,94,AB,00,80,00,00,
119005869,18FED008,true,Rx,0,7,49,80,A4,83,F6,FE,00,00,
119006252,18FED009,true,Rx,0,7,00,00,00,00,00,00,00,00,
119009792,000000BA,false,Rx,0,8,F0,09,28,00,00,00,00,B0,
119015239,000000BB,false,Rx,0,8,63,E8,FF,D1,55,00,00,00,
119015449,0000015B,false,Rx,0,8,50,0B,00,01,00,00,00,00,
119015660,18FED007,true,Rx,0,6,00,04,A0,AB,00,80,00,00,
119016049,18FED008,true,Rx,0,7,49,80,AF,83,F6,FE,00,00,
119016258,18FED009,true,Rx,0,7,00,00,00,00,00,00,00,00,
119016473,000001B0,false,Rx,0,8,28,38,A4,45,2A,A4,42,0A,
119016697,000001B4,false,Rx,0,8,1D,68,A4,47,6A,A4,47,0A,
119016932,000001B8,false,Rx,0,8,E8,58,A4,45,5A,A4,43,0A,
119017154,000001BC,false,Rx,0,8,99,38,A4,43,3A,A4,45,0A,
119017372,000001C0,false,Rx,0,8,7B,58,A4,45,6A,A4,43,0A,
119017582,000001C4,false,Rx,0,8,49,58,A4,45,5A,A4,45,0A,
119017794,000001C8,false,Rx,0,8,85,78,A4,46,7A,A4,47,0A,
119018011,000001CC,false,Rx,0,8,D4,58,A4,46,5A,A4,46,0A,
119019784,000000BA,false,Rx,0,8,B4,0A,28,00,00,00,00,A2,
119020870,000001B1,false,Rx,0,8,B7,38,A4,43,BA,A3,46,0A,
119021079,000001B5,false,Rx,0,8,5D,78,A4,47,0A,A4,47,0A,
119021289,000001B2,false,Rx,0,8,9B,68,A4,48,6A,A4,40,0A,
119021499,000001B6,false,Rx,0,8,37,78,A4,46,6A,A4,41,0A,
119021709,000001B9,false,Rx,0,8,E8,58,A4,43,CA,A3,47,0A,
119021925,000001BA,false,Rx,0,8,EA,A8,A4,47,7A,A4,43,0A,
119022135,000001BD,false,Rx,0,8,87,58,A4,45,BA,A3,45,0A,
119023805,000001BE,false,Rx,0,8,B4,68,A4,45,3A,A4,3F,0A,
119023810,000001C1,false,Rx,0,8,62,58,A4,42,CA,A3,46,0A,
119023815,000001C2,false,Rx,0,8,6A,68,A4,45,6A,A4,3D,0A,
119023820,000001C5,false,Rx,0,8,10,38,A4,43,DA,A3,46,0A,
119023825,000001C6,false,Rx,0,8,D5,58,A4,46,5A,A4,3F,0A,
119023864,000001C9,false,Rx,0,8,A3,58,A4,45,CA,A3,45,0A,
119023869,000001CA,false,Rx,0,8,EF,68,A4,46,6A,A4,3F,0A,
119023874,000001CD,false,Rx,0,8,73,58,A4,45,DA,A3,45,0A,
119024095,000001CE,false,Rx,0,8,F9,68,A4,45,5A,A4,40,0A,
119025176,000000BB,false,Rx,0,8,2B,E9,FF,D1,55,00,00,04,
119025386,0000015B,false,Rx,0,8,6F,0C,00,01,00,00,00,00,
119025771,18FED007,true,Rx,0,6,00,04,A0,AB,0B,80,00,00,
119025987,18FED008,true,Rx,0,7,49,80,AF,83,F6,FE,00,00,
119026198,18FED009,true,Rx,0,7,00,00,00,00,00,00,00,00,
119029824,000000BA,false,Rx,0,8,7B,0B,28,00,00,00,00,A3,
119035251,000000BB,false,Rx,0,8,A4,EA,FF,C9,55,00,00,06,
119035460,0000015B,false,Rx,0,8,25,0D,00,01,00,00,00,00,
119035672,18FED007,true,Rx,0,6,00,04,94,AB,00,80,00,00,
119035883,18FED008,true,Rx,0,7,49,80,A4,83,F6,FE,00,00,
119036266,18FED009,true,Rx,0,7,00,00,00,00,00,00,00,00,
119039776,000000BA,false,Rx,0,8,73,0C,28,00,00,00,00,B4,
119044514,000001BC,false,Rx,0,8,E0,39,A4,43,4A,A4,45,4A,
119044727,000001B8,false,Rx,0,8,3C,B9,A4,4A,AA,A4,49,4A,
119044943,000001C8,false,Rx,0,8,35,99,A4,48,7A,A4,48,4A,
119045152,000000BB,false,Rx,0,8,C9,DB,FF,D1,55,00,00,08,
119045535,0000015B,false,Rx,0,8,F2,0E,00,01,00,00,00,00,
119045747,000001B0,false,Rx,0,8,0B,79,A4,48,9A,A4,49,4A,
119045955,000001B4,false,Rx,0,8,DF,89,A4,48,8A,A4,48,4A,
119046173,000001C0,false,Rx,0,8,A1,79,A4,48,9A,A4,47,4A,
119046383,000001C4,false,Rx,0,8,68,99,A4,4A,AA,A4,49,4A,
119046593,000001CC,false,Rx,0,8,77,69,A4,47,7A,A4,47,4A,
119046802,18FED007,true,Rx,0,6,00,04,A0,AB,0B,80,00,00,
119047190,18FED008,true,Rx,0,7,49,80,AF,83,F6,FE,00,00,
119047400,18FED009,true,Rx,0,7,00,00,00,00,00,00,00,00,
119049695,000000BA,false,Rx,0,8,F5,0D,28,00,00,00,00,A5,
119050083,000001B1,false,Rx,0,8,8B,89,A4,49,8A,A4,4C,4A,
119050292,000001B5,false,Rx,0,8,8F,89,A4,48,8A,A4,48,4A,
119050501,000001B2,false,Rx,0,8,61,C9,A4,4D,CA,A4,4C,4A,
119050712,000001B6,false,Rx,0,8,41,89,A4,49,8A,A4,49,4A,
119050928,000001B9,false,Rx,0,8,5D,B9,A4,4A,9A,A4,49,4A,
119051138,000001BA,false,Rx,0,8,C9,B9,A4,49,AA,A4,4A,4A,
119051348,000001BD,false,Rx,0,8,20,39,A4,44,4A,A4,4A,4A,
119051558,000001BE,false,Rx,0,8,F8,A9,A4,49,9A,A4,4A,4A,
119051770,000001C1,false,Rx,0,8,74,79,A4,46,7A,A4,4B,4A,
119051986,000001C2,false,Rx,0,8,FB,A9,A4,4A,AA,A4,49,4A,
119052196,000001C5,false,Rx,0,8,8F,99,A4,49,AA,A4,4C,4A,
119052598,000001C6,false,Rx,0,8,1F,C9,A4,4D,DA,A4,4D,4A,
119052814,000001C9,false,Rx,0,8,D7,79,A4,47,7A,A4,4A,4A,
119053025,000001CA,false,Rx,0,8,68,B9,A4,4B,CA,A4,4B,4A,
119053235,000001CD,false,Rx,0,8,DD,79,A4,47,8A,A4,48,4A,
119053445,000001CE,false,Rx,0,8,48,A9,A4,4A,AA,A4,4A,4A,
119055121,000000BB,false,Rx,0,8,AE,DC,FF,D1,55,00,00,0A,
119055503,0000015B,false,Rx,0,8,99,0F,00,01,00,00,00,00,
119055715,18FED007,true,Rx,0,6,00,04,A0,AB,0B,80,00,00,
119055927,18FED008,true,Rx,0,7,49,80,AF,83,F6,FE,00,00,
119056309,18FED009,true,Rx,0,7,00,00,00,00,00,00,00,00,
119059818,000000BA,false,Rx,0,8,AE,0E,28,00,00,00,00,A6,
119064204,16A95419,true,Rx,0,8,AA,AA,8A,20,80,08,A0,80,
119065286,000000BB,false,Rx,0,8,A6,DD,FF,C9,55,00,00,0C,
119065495,0000015B,false,Rx,0,8,66,00,00,01,00,00,00,00,
119065709,18FED007,true,Rx,0,6,00,04,94,AB,00,80,00,00,
119065924,18FED008,true,Rx,0,7,49,80,A4,83,F6,FE,00,00,
119066306,18FED009,true,Rx,0,7,00,00,00,00,00,00,00,00,
119066515,18FED00A,true,Rx,0,8,00,00,32,20,00,41,00,00,
119069798,000000BA,false,Rx,0,8,C6,0F,28,00,00,00,00,B0,
119075223,000000BB,false,Rx,0,8,28,DE,FF,D1,55,00,00,00,
119075433,0000015B,false,Rx,0,8,C8,01,00,01,00,00,00,00,
119075644,18FED007,true,Rx,0,6,00,04,A0,AB,0B,80,00,00,
119076032,18FED008,true,Rx,0,7,49,80,AF,83,F6,FE,00,00,
119076242,18FED009,true,Rx,0,7,00,00,00,00,00,00,00,00,
119076451,000001BC,false,Rx,0,8,F6,3A,A4,43,3A,A4,45,0A,
119076664,000001B8,false,Rx,0,8,E9,5A,A4,45,5A,A4,43,0A,
119076880,000001C8,false,Rx,0,8,BD,7A,A4,46,7A,A4,47,0A,
119077090,000001B0,false,Rx,0,8,EB,3A,A4,45,2A,A4,42,0A,
119077300,000001B4,false,Rx,0,8,F1,6A,A4,47,6A,A4,47,0A,
119077510,000001C0,false,Rx,0,8,EE,5A,A4,45,6A,A4,43,0A,
119077901,000001C4,false,Rx,0,8,0B,5A,A4,45,5A,A4,45,0A,
119078111,000001CC,false,Rx,0,8,D7,5A,A4,46,5A,A4,46,0A,
119079708,000000BA,false,Rx,0,8,25,00,28,00,00,00,00,A7,
119080967,000001BD,false,Rx,0,8,33,5A,A4,45,BA,A3,45,0A,
119081177,000001B9,false,Rx,0,8,E2,5A,A4,43,CA,A3,47,0A,
119081387,000001BA,false,Rx,0,8,F5,AA,A4,47,7A,A4,42,0A,
119081597,000001B1,false,Rx,0,8,0C,3A,A4,43,BA,A3,46,0A,
119081809,000001B2,false,Rx,0,8,1F,6A,A4,47,6A,A4,40,0A,
119082026,000001B5,false,Rx,0,8,83,7A,A4,46,0A,A4,47,0A,
119082236,000001B6,false,Rx,0,8,C3,7A,A4,46,6A,A4,41,0A,
119083894,000001BE,false,Rx,0,8,C5,6A,A4,45,3A,A4,3F,0A,
119083899,000001C1,false,Rx,0,8,CA,5A,A4,42,CA,A3,46,0A,
119083904,000001C2,false,Rx,0,8,2D,5A,A4,45,6A,A4,3D,0A,
119083909,000001C5,false,Rx,0,8,BE,3A,A4,43,DA,A3,46,0A,
119083914,000001C6,false,Rx,0,8,57,5A,A4,46,5A,A4,3F,0A,
119083919,000001C9,false,Rx,0,8,65,5A,A4,45,CA,A3,45,0A,
119083924,000001CA,false,Rx,0,8,FF,6A,A4,46,6A,A4,3F,0A,
119084145,000001CD,false,Rx,0,8,11,5A,A4,45,DA,A3,45,0A,
119084355,000001CE,false,Rx,0,8,EE,6A,A4,45,5A,A4,40,0A,
119085261,000000BB,false,Rx,0,8,26,EF,FF,D1,55,00,00,0E,
119085471,0000015B,false,Rx,0,8,C6,02,00,01,00,00,00,00,
119085682,18FED007,true,Rx,0,6,00,04,A0,AB,00,80,00,00,
119085898,18FED008,true,Rx,0,7,49,80,AF,83,F6,FE,00,00,
119086284,18FED009,true,Rx,0,7,00,00,00,00,00,00,00,00,
119089712,000000BA,false,Rx,0,8,E2,01,28,00,00,00,00,A8,
119095140,000000BB,false,Rx,0,8,5A,E0,FF,C9,55,00,00,10,
119095522,0000015B,false,Rx,0,8,F7,03,00,01,00,00,00,00,
119095734,18FED007,true,Rx,0,6,00,04,94,AB,F4,7F,00,00,
119095950,18FED008,true,Rx,0,7,49,80,98,83,F6,FE,00,00,
119096159,18FED009,true,Rx,0,7,00,00,00,00,00,00,00,00,
119099667,000000BA,false,Rx,0,8,34,02,28,00,00,00,00,B9,
119104542,000001B0,false,Rx,0,8,B7,8B,A4,49,AA,A4,48,9A,
119104755,000001B4,false,Rx,0,8,7E,7B,A4,48,8A,A4,49,9A,
119104963,000001B8,false,Rx,0,8,20,AB,A4,4A,AA,A4,49,9A,
119105180,000001BC,false,Rx,0,8,8D,3B,A4,43,4A,A4,45,9A,
119105390,000000BB,false,Rx,0,8,23,F1,FF,D1,55,00,00,12,
119105601,0000015B,false,Rx,0,8,51,04,00,01,00,00,00,00,
119105812,000001C0,false,Rx,0,8,49,8B,A4,48,8A,A4,46,9A,
119106028,000001C4,false,Rx,0,8,39,AB,A4,4A,AA,A4,49,9A,
119106238,000001C8,false,Rx,0,8,78,9B,A4,48,8A,A4,49,9A,
119106622,000001CC,false,Rx,0,8,42,7B,A4,48,7A,A4,47,9A,
119106839,18FED007,true,Rx,0,6,00,04,A0,AB,0B,80,00,00,
119107048,18FED008,true,Rx,0,7,49,80,AF,83,F6,FE,00,00,
119107259,18FED009,true,Rx,0,7,00,00,00,00,00,00,00,00,
119109652,000001B1,false,Rx,0,8,3D,8B,A4,48,8A,A4,4C,9A,
119109907,000000BA,false,Rx,0,8,D1,03,28,00,00,00,00,AA,
119110117,000001B2,false,Rx,0,8,83,CB,A4,4D,CA,A4,4C,9A,
119110327,000001B5,false,Rx,0,8,FB,8B,A4,47,9A,A4,48,9A,
119110536,000001B6,false,Rx,0,8,F4,9B,A4,49,8A,A4,49,9A,
119110748,000001B9,false,Rx,0,8,D1,AB,A4,4A,9A,A4,49,9A,
119110964,000001BA,false,Rx,0,8,6C,BB,A4,49,AA,A4,4B,9A,
119111175,000001BD,false,Rx,0,8,B4,4B,A4,44,4A,A4,4A,9A,
119111385,000001BE,false,Rx,0,8,E3,AB,A4,4A,9A,A4,4A,9A,
119111595,000001C1,false,Rx,0,8,3A,8B,A4,46,8A,A4,4A,9A,
119111806,000001C2,false,Rx,0,8,92,AB,A4,4A,AA,A4,49,9A,
119112020,000001C5,false,Rx,0,8,72,9B,A4,49,BA,A4,4C,9A,
119112402,000001C6,false,Rx,0,8,95,CB,A4,4C,DA,A4,4C,9A,
119112612,000001C9,false,Rx,0,8,93,6B,A4,47,7A,A4,4B,9A,
119112824,000001CA,false,Rx,0,8,CB,BB,A4,4A,BA,A4,4B,9A,
119113041,000001CD,false,Rx,0,8,CD,7B,A4,46,8A,A4,49,9A,
119113251,000001CE,false,Rx,0,8,4F,AB,A4,4A,AA,A4,4A,9A,
119115198,000000BB,false,Rx,0,8,ED,F2,FF,D1,55,00,00,14,
119115408,0000015B,false,Rx,0,8,D8,05,00,01,00,00,00,00,
119115618,18FED007,true,Rx,0,6,00,04,A0,AB,0B,80,00,00,
119116008,18FED008,true,Rx,0,7,49,80,AF,83,F6,FE,00,00,
119116218,18FED009,true,Rx,0,7,00,00,00,00,00,00,00,00,
119119729,000000BA,false,Rx,0,8,11,04,28,00,00,00,00,AB,
119125151,000000BB,false,Rx,0,8,D4,F3,FF,D1,55,00,00,16,
119125539,0000015B,false,Rx,0,8,88,06,00,01,00,00,00,00,
119125761,18FED007,true,Rx,0,6,00,04,A0,AB,0B,80,00,00,
119125977,18FED008,true,Rx,0,7,49,80,AF,83,F6,FE,00,00,
119126186,18FED009,true,Rx,0,7,00,00,00,00,00,00,00,00,
119129735,000000BA,false,Rx,0,8,EE,05,28,00,00,00,00,B0,
119135175,000000BB,false,Rx,0,8,0B,E4,FF,D1,55,00,00,00,
119135385,0000015B,false,Rx,0,8,93,07,00,01,00,00,00,00,
119135768,18FED007,true,Rx,0,6,00,04,A0,AB,0B,80,00,00,
119135985,18FED008,true,Rx,0,7,49,80,AF,83,F6,FE,00,00,
119136195,000001C8,false,Rx,0,8,1E,7C,A4,47,7A,A4,47,0A,
119136404,000001CC,false,Rx,0,8,4E,5C,A4,46,5A,A4,46,0A,
119136615,000001B0,false,Rx,0,8,BB,3C,A4,45,2A,A4,42,0A,
119136827,000001B4,false,Rx,0,8,EF,6C,A4,47,6A,A4,47,0A,
119137044,000001B8,false,Rx,0,8,ED,5C,A4,45,5A,A4,43,0A,
119137253,000001BC,false,Rx,0,8,B1,3C,A4,43,3A,A4,45,0A,
119137637,000001C0,false,Rx,0,8,DF,5C,A4,46,6A,A4,43,0A,
119137853,000001C4,false,Rx,0,8,89,5C,A4,45,5A,A4,45,0A,
119138063,18FED009,true,Rx,0,7,00,00,00,00,00,00,00,00,
119139839,000000BA,false,Rx,0,8,8C,06,28,00,00,00,00,AC,
119140566,000001CD,false,Rx,0,8,72,5C,A4,45,DA,A3,45,0A,
119140777,000001C9,false,Rx,0,8,6F,5C,A4,45,CA,A3,45,0A,
119140993,000001CA,false,Rx,0,8,4D,6C,A4,46,6A,A4,3F,0A,
119141203,000001B1,false,Rx,0,8,62,3C,A4,43,BA,A3,46,0A,
119141413,000001B2,false,Rx,0,8,65,6C,A4,47,6A,A4,40,0A,
119141624,000001B5,false,Rx,0,8,46,7C,A4,46,0A,A4,47,0A,
119141840,000001B6,false,Rx,0,8,F9,7C,A4,46,6A,A4,41,0A,
119142053,000001B9,false,Rx,0,8,42,5C,A4,43,CA,A3,47,0A,
119142267,000001BA,false,Rx,0,8,6B,AC,A4,47,7A,A4,42,0A,
119142478,000001BD,false,Rx,0,8,19,5C,A4,45,BA,A3,45,0A,
119144364,000001BE,false,Rx,0,8,B9,6C,A4,45,3A,A4,3F,0A,
119144369,000001C1,false,Rx,0,8,CE,5C,A4,42,CA,A3,46,0A,
119144374,000001C2,false,Rx,0,8,83,5C,A4,45,6A,A4,3D,0A,
119144379,000001C5,false,Rx,0,8,49,3C,A4,43,DA,A3,46,0A,
119144384,000001C6,false,Rx,0,8,C2,5C,A4,46,6A,A4,3F,0A,
119144389,000001CE,false,Rx,0,8,20,7C,A4,45,5A,A4,40,0A,
119145134,000000BB,false,Rx,0,8,F4,E5,FF,D1,55,00,00,18,
119145515,0000015B,false,Rx,0,8,B9,08,00,01,00,00,00,00,
119145727,18FED007,true,Rx,0,6,00,04,A0,AB,0B,80,00,00,
119145944,18FED008,true,Rx,0,7,49,80,AF,83,F6,FE,00,00,
119146154,18FED009,true,Rx,0,7,00,00,00,00,00,00,00,00,
119146710,18FED102,true,Rx,0,5,0C,20,00,00,00,00,00,00,
119146926,18FED202,true,Rx,0,5,0C,20,00,00,00,00,00,00,
119147140,18FED302,true,Rx,0,5,0C,20,00,00,00,00,00,00,
119147360,18FED402,true,Rx,0,5,0C,20,00,00,00,00,00,00,
119147569,18FED502,true,Rx,0,5,0C,20,00,00,00,00,00,00,
119147781,16A9541A,true,Rx,0,8,A8,A0,80,AA,A0,A0,AA,AA,
119148169,16A9541B,true,Rx,0,8,A8,A0,80,AA,A0,A0,AA,AA,
119148380,16A9541C,true,Rx,0,8,A8,A0,80,AA,A0,A0,AA,AA,
119148774,16A9541D,true,Rx,0,8,A8,A0,80,AA,A0,A0,AA,AA,
119148997,16A9541E,true,Rx,0,8,A8,A0,80,AA,A0,A0,AA,AA,
119149217,16A9541F,true,Rx,0,8,A8,A0,80,AA,A0,A0,AA,AA,
119149456,16A95420,true,Rx,0,8,A8,A0,80,AA,A0,A0,AA,AA,
119149846,16A95421,true,Rx,0,8,A8,A0,80,AA,A0,A0,AA,AA,
119150056,000000BA,false,Rx,0,8,4C,07,28,00,00,00,00,AD,
119150266,18FED602,true,Rx,0,5,0C,20,00,00,00,00,00,00,
119150476,18FED702,true,Rx,0,5,0C,20,00,00,00,00,00,00,
119150687,18FED802,true,Rx,0,5,0C,20,00,00,00,00,00,00,
119151075,1A555460,true,Rx,0,8,01,30,30,30,30,00,00,00,
119151285,1A555461,true,Rx,0,8,01,30,30,30,30,00,00,00,
119151495,1A555462,true,Rx,0,8,01,30,30,30,30,00,00,00,
119151886,1A555463,true,Rx,0,8,01,30,30,30,30,00,00,00,
119152097,1A555464,true,Rx,0,8,01,30,30,30,30,00,00,00,
119152478,1A555465,true,Rx,0,8,01,30,30,30,30,00,00,00,
119152689,1A555466,true,Rx,0,8,01,30,30,30,30,00,00,00,
119152906,1A555467,true,Rx,0,8,01,30,30,30,30,00,00,00,
119155198,000000BB,false,Rx,0,8,31,E6,FF,C9,55,00,00,1A,
119155408,0000015B,false,Rx,0,8,BA,09,00,01,00,00,00,00,
119155619,18FED007,true,Rx,0,6,00,04,94,AB,00,80,00,00,
119156008,18FED008,true,Rx,0,7,49,80,A4,83,F6,FE,00,00,
119156218,18FED009,true,Rx,0,7,00,00,00,00,00,00,00,00,
119159731,000000BA,false,Rx,0,8,9C,08,28,00,00,00,00,BE,
119164446,000001B4,false,Rx,0,8,85,8D,A4,48,9A,A4,48,EA,
119164663,000001B8,false,Rx,0,8,25,AD,A4,4A,BA,A4,4A,EA,
119164892,000001BC,false,Rx,0,8,33,3D,A4,44,4A,A4,45,EA,
119165101,000001B0,false,Rx,0,8,8E,8D,A4,49,8A,A4,48,EA,
119165311,000000BB,false,Rx,0,8,CD,E7,FF,D1,55,00,00,1C,
119165696,0000015B,false,Rx,0,8,AF,0A,00,01,00,00,00,00,
119165913,000001C0,false,Rx,0,8,E6,7D,A4,48,8A,A4,46,EA,
119166123,000001C4,false,Rx,0,8,A9,9D,A4,49,AA,A4,49,EA,
119166333,000001C8,false,Rx,0,8,71,9D,A4,48,7A,A4,48,EA,
119166543,000001CC,false,Rx,0,8,C1,6D,A4,48,7A,A4,47,EA,
119166768,18FED007,true,Rx,0,6,00,04,A0,AB,0B,80,00,00,
119167025,18FED008,true,Rx,0,7,49,80,AF,83,F6,FE,00,00,
119167249,18FED009,true,Rx,0,7,00,00,00,00,00,00,00,00,
119167640,18FED00A,true,Rx,0,8,00,00,32,20,00,41,00,00,
119169761,000000BA,false,Rx,0,8,91,09,28,00,00,00,00,AF,
119169977,000001B5,false,Rx,0,8,05,8D,A4,47,8A,A4,49,EA,
119170185,000001B6,false,Rx,0,8,27,8D,A4,49,9A,A4,49,EA,
119170396,000001B9,false,Rx,0,8,2B,AD,A4,49,9A,A4,49,EA,
119170606,000001B1,false,Rx,0,8,98,8D,A4,49,9A,A4,4C,EA,
119170819,000001B2,false,Rx,0,8,5E,CD,A4,4D,CA,A4,4C,EA,
119171035,000001BA,false,Rx,0,8,CE,BD,A4,49,AA,A4,4A,EA,
119171245,000001BD,false,Rx,0,8,64,4D,A4,44,4A,A4,4A,EA,
119171455,000001BE,false,Rx,0,8,A1,BD,A4,4A,9A,A4,4A,EA,
119171843,000001C1,false,Rx,0,8,8C,7D,A4,46,8A,A4,4B,EA,
119172052,000001C2,false,Rx,0,8,23,AD,A4,4A,AA,A4,49,EA,
119172262,000001C5,false,Rx,0,8,79,9D,A4,49,AA,A4,4D,EA,
119172472,000001C6,false,Rx,0,8,81,CD,A4,4D,DA,A4,4D,EA,
119172683,000001C9,false,Rx,0,8,FC,7D,A4,47,8A,A4,4A,EA,
119172899,000001CA,false,Rx,0,8,3E,BD,A4,4B,BA,A4,4B,EA,
119173109,000001CD,false,Rx,0,8,10,6D,A4,47,8A,A4,49,EA,
119173320,000001CE,false,Rx,0,8,18,AD,A4,4A,AA,A4,4A,EA,
119175269,000000BB,false,Rx,0,8,EB,E8,FF,D1,55,00,00,1E,
119175479,0000015B,false,Rx,0,8,50,0B,00,01,00,00,00,00,
119175691,18FED007,true,Rx,0,6,00,04,A0,AB,00,80,00,00,
119175905,18FED008,true,Rx,0,7,49,80,AF,83,F6,FE,00,00,
119176287,18FED009,true,Rx,0,7,00,00,00,00,00,00,00,00,
119179798,000000BA,false,Rx,0,8,A0,0A,28,00,00,00,00,A1,
119185212,000000BB,false,Rx,0,8,03,E9,FF,D1,55,00,00,02,
119185423,0000015B,false,Rx,0,8,6F,0C,00,01,00,00,00,00,
119185635,18FED007,true,Rx,0,6,00,04,A0,AB,0B,80,00,00,
119186023,18FED008,true,Rx,0,7,49,80,AF,83,F6,FE,00,00,
119186233,18FED009,true,Rx,0,7,00,00,00,00,00,00,00,00,
119189755,000000BA,false,Rx,0,8,4A,0B,28,00,00,00,00,B0,
119195272,000000BB,false,Rx,0,8,A1,EA,FF,D1,55,00,00,00,
119195482,0000015B,false,Rx,0,8,25,0D,00,01,00,00,00,00,
119195696,18FED007,true,Rx,0,6,00,04,A0,AB,0B,80,00,00,
119195922,18FED008,true,Rx,0,7,49,80,AF,83,F6,FE,00,00,
119196303,18FED009,true,Rx,0,7,00,00,00,00,00,00,00,00,
119196513,000001B0,false,Rx,0,8,86,3E,A4,45,2A,A4,42,0A,
119196725,000001B4,false,Rx,0,8,BE,6E,A4,47,6A,A4,47,0A,
119196936,000001B8,false,Rx,0,8,2A,5E,A4,45,5A,A4,43,0A,
119197146,000001BC,false,Rx,0,8,6D,3E,A4,43,3A,A4,45,0A,
119197355,000001C0,false,Rx,0,8,5D,5E,A4,46,6A,A4,43,0A,
119197565,000001C4,false,Rx,0,8,BE,5E,A4,45,5A,A4,45,0A,
119197790,000001C8,false,Rx,0,8,90,7E,A4,47,7A,A4,47,0A,
119198019,000001CC,false,Rx,0,8,62,5E,A4,46,5A,A4,46,0A,
119199791,000000BA,false,Rx,0,8,7E,0C,28,00,00,00,00,A2,
119200873,000001B1,false,Rx,0,8,99,3E,A4,43,BA,A3,46,0A,
119201255,000001B5,false,Rx,0,8,EF,7E,A4,46,0A,A4,47,0A,
119201465,000001B2,false,Rx,0,8,F0,6E,A4,47,6A,A4,40,0A,
119201676,000001B6,false,Rx,0,8,27,7E,A4,46,6A,A4,41,0A,
119201893,000001B9,false,Rx,0,8,A9,5E,A4,43,CA,A3,47,0A,
119202103,000001BA,false,Rx,0,8,55,AE,A4,47,7A,A4,42,0A,
119202313,000001BD,false,Rx,0,8,A3,5E,A4,45,BA,A3,45,0A,
119202521,000001BE,false,Rx,0,8,DE,6E,A4,45,3A,A4,3F,0A,
119202734,000001C1,false,Rx,0,8,09,5E,A4,42,CA,A3,46,0A,
119204922,000001C2,false,Rx,0,8,D7,5E,A4,45,6A,A4,3D,0A,
119204927,000001C5,false,Rx,0,8,20,3E,A4,43,DA,A3,46,0A,
119204932,000001C6,false,Rx,0,8,30,5E,A4,46,6A,A4,3F,0A,
119204937,000001C9,false,Rx,0,8,9A,5E,A4,45,CA,A3,45,0A,
119204942,000001CA,false,Rx,0,8,14,6E,A4,46,6A,A4,3F,0A,
119204947,000001CD,false,Rx,0,8,F6,6E,A4,45,DA,A3,45,0A,
119204952,000001CE,false,Rx,0,8,83,7E,A4,45,5A,A4,40,0A,
119205174,000000BB,false,Rx,0,8,50,EB,FF,D1,55,00,00,04,
119205382,0000015B,false,Rx,0,8,F2,0E,00,01,00,00,00,00,
119205766,18FED007,true,Rx,0,6,00,04,A0,AB,00,80,00,00,
119205982,18FED008,true,Rx,0,7,49,80,A4,83,F6,FE,00,00,
119206191,18FED009,true,Rx,0,7,00,00,00,00,00,00,00,00,
119209804,000000BA,false,Rx,0,8,DD,0D,28,00,00,00,00,A3,
119215230,000000BB,false,Rx,0,8,1A,EC,FF,C9,55,00,00,06,
119215440,0000015B,false,Rx,0,8,99,0F,00,01,00,00,00,00,
119215652,18FED007,true,Rx,0,6,00,04,94,AB,F4,7F,00,00,
119216040,18FED008,true,Rx,0,7,49,80,A4,83,F6,FE,00,00,
119216250,18FED009,true,Rx,0,7,00,00,00,00,00,00,00,00,
119219758,000000BA,false,Rx,0,8,76,0E,28,00,00,00,00,B4,
119224436,000001C4,false,Rx,0,8,DF,9F,A4,4A,9A,A4,49,4A,
119224662,000001B4,false,Rx,0,8,58,7F,A4,49,8A,A4,49,4A,
119224873,000001B8,false,Rx,0,8,17,AF,A4,4A,AA,A4,4A,4A,
119225082,000001B0,false,Rx,0,8,7E,7F,A4,48,8A,A4,49,4A,
119225465,000000BB,false,Rx,0,8,97,ED,FF,D1,55,00,00,08,
119225679,0000015B,false,Rx,0,8,66,00,00,01,00,00,00,00,
119225910,000001BC,false,Rx,0,8,5F,4F,A4,44,4A,A4,45,4A,
119226120,000001C0,false,Rx,0,8,3A,7F,A4,48,8A,A4,46,4A,
119226330,000001C8,false,Rx,0,8,B3,9F,A4,48,8A,A4,48,4A,
119226540,000001CC,false,Rx,0,8,E5,7F,A4,48,7A,A4,48,4A,
119226753,18FED007,true,Rx,0,6,00,04,A0,AB,0B,80,00,00,
119227144,18FED008,true,Rx,0,7,49,80,AF,83,F6,FE,00,00,
119227367,18FED009,true,Rx,0,7,00,00,00,00,00,00,00,00,
119229552,000001C5,false,Rx,0,8,B0,9F,A4,49,AA,A4,4D,4A,
119229763,000000BA,false,Rx,0,8,DF,0F,28,00,00,00,00,A5,
119230152,000001B5,false,Rx,0,8,CD,8F,A4,47,9A,A4,49,4A,
119230360,000001B1,false,Rx,0,8,FF,9F,A4,49,8A,A4,4C,4A,
119230569,000001B2,false,Rx,0,8,7B,BF,A4,4D,CA,A4,4C,4A,
119230781,000001B6,false,Rx,0,8,6F,9F,A4,49,8A,A4,49,4A,
119230997,000001B9,false,Rx,0,8,C6,BF,A4,4A,9A,A4,49,4A,
119231207,000001BA,false,Rx,0,8,9B,BF,A4,49,AA,A4,4A,4A,
119231417,000001BD,false,Rx,0,8,80,3F,A4,44,4A,A4,4A,4A,
119231630,000001BE,false,Rx,0,8,1A,BF,A4,4A,9A,A4,4A,4A,
119231845,000001C1,false,Rx,0,8,E2,8F,A4,46,8A,A4,4A,4A,
119232055,000001C2,false,Rx,0,8,42,AF,A4,4A,AA,A4,49,4A,
119232265,000001C6,false,Rx,0,8,71,CF,A4,4D,DA,A4,4C,4A,
119232649,000001C9,false,Rx,0,8,CE,7F,A4,47,7A,A4,4A,4A,
119232864,000001CA,false,Rx,0,8,A2,CF,A4,4A,CA,A4,4B,4A,
119233073,000001CD,false,Rx,0,8,F1,7F,A4,47,8A,A4,49,4A,
119233283,000001CE,false,Rx,0,8,CA,BF,A4,4A,AA,A4,4A,4A,
119235230,000000BB,false,Rx,0,8,99,EE,FF,D1,55,00,00,0A,
119235441,0000015B,false,Rx,0,8,C8,01,00,01,00,00,00,00,
119235653,18FED007,true,Rx,0,6,00,04,A0,AB,00,80,00,00,
119236040,18FED008,true,Rx,0,7,49,80,AF,83,F6,FE,00,00,
119236249,18FED009,true,Rx,0,7,00,00,00,00,00,00,00,00,
119239759,000000BA,false,Rx,0,8,CC,00,28,00,00,00,00,A6,
119245186,000000BB,false,Rx,0,8,DB,EF,FF,D1,55,00,00,0C,
119245398,0000015B,false,Rx,0,8,C6,02,00,01,00,00,00,00,
119245782,18FED007,true,Rx,0,6,00,04,A0,AB,0B,80,00,00,
119245997,18FED008,true,Rx,0,7,49,80,AF,83,F6,FE,00,00,
119246208,18FED009,true,Rx,0,7,00,00,00,00,00,00,00,00,
119249739,000000BA,false,Rx,0,8,42,01,28,00,00,00,00,B0,
119255240,000000BB,false,Rx,0,8,2D,E0,FF,D5,55,00,00,00,
119255449,0000015B,false,Rx,0,8,F7,03,00,01,00,00,00,00,
119255661,18FED007,true,Rx,0,6,00,04,AB,AB,17,80,00,00,
119256050,18FED008,true,Rx,0,7,49,80,BB,83,F6,FE,00,00,
119256260,18FED009,true,Rx,0,7,00,00,00,00,00,00,00,00,
119256643,000001B0,false,Rx,0,8,21,30,A4,45,2A,A4,42,0A,
119256859,000001B4,false,Rx,0,8,3C,60,A4,47,6A,A4,47,0A,
119257069,000001B8,false,Rx,0,8,18,50,A4,45,5A,A4,43,0A,
119257278,000001BC,false,Rx,0,8,B7,30,A4,43,3A,A4,45,0A,
119257488,000001C0,false,Rx,0,8,BB,50,A4,46,6A,A4,42,0A,
119257700,000001C4,false,Rx,0,8,13,50,A4,45,5A,A4,45,0A,
119257917,000001C8,false,Rx,0,8,AD,70,A4,47,7A,A4,47,0A,
119258298,000001CC,false,Rx,0,8,33,50,A4,45,5A,A4,46,0A,
119259727,000000BA,false,Rx,0,8,BC,02,28,00,00,00,00,A7,
119261157,000001B1,false,Rx,0,8,3D,30,A4,43,BA,A3,46,0A,
119261366,000001B5,false,Rx,0,8,5D,70,A4,46,0A,A4,47,0A,
119261576,000001B2,false,Rx,0,8,B5,60,A4,47,6A,A4,40,0A,
119261788,000001B6,false,Rx,0,8,1D,70,A4,46,6A,A4,41,0A,
119262003,000001B9,false,Rx,0,8,5A,50,A4,43,BA,A3,48,0A,
119262214,000001BA,false,Rx,0,8,32,A0,A4,47,7A,A4,42,0A,
119262424,000001BD,false,Rx,0,8,B0,50,A4,45,BA,A3,45,0A,
119262637,000001BE,false,Rx,0,8,8C,60,A4,45,3A,A4,3F,0A,
119262852,000001C1,false,Rx,0,8,4E,50,A4,42,CA,A3,46,0A,
119263062,000001C2,false,Rx,0,8,9A,60,A4,45,6A,A4,3D,0A,
119264727,000001C5,false,Rx,0,8,F9,30,A4,43,DA,A3,46,0A,
119264733,000001C6,false,Rx,0,8,79,50,A4,46,5A,A4,3F,0A,
119264738,000001C9,false,Rx,0,8,52,50,A4,45,CA,A3,45,0A,
119264743,000001CA,false,Rx,0,8,F8,60,A4,46,6A,A4,3F,0A,
119264748,000001CD,false,Rx,0,8,4E,60,A4,45,DA,A3,45,0A,
119264753,000001CE,false,Rx,0,8,E4,70,A4,45,5A,A4,40,0A,
119264758,18FED003,true,Rx,0,6,00,00,00,00,00,00,00,00,
119264985,18FED004,true,Rx,0,3,00,00,00,00,00,00,00,00,
119265198,18FED006,true,Rx,0,3,00,00,00,00,00,00,00,00,
119265425,000000BB,false,Rx,0,8,F4,E1,FF,D1,55,00,00,0E,
119265637,0000015B,false,Rx,0,8,51,04,00,01,00,00,00,00,
119265853,18FED007,true,Rx,0,6,00,04,A0,AB,0B,80,00,00,
119266063,18FED008,true,Rx,0,7,49,80,AF,83,F6,FE,00,00,
119266445,18FED009,true,Rx,0,7,00,00,00,00,00,00,00,00,
119266657,18FED00A,true,Rx,0,8,00,00,32,20,00,41,00,00,
119267046,1A55545F,true,Rx,0,8,01,20,20,20,20,00,00,00,
119271667,000000BA,false,Rx,0,8,2C,03,28,00,00,00,00,A8,
119275183,000000BB,false,Rx,0,8,B7,E2,FF,C9,55,00,00,10,
119275393,0000015B,false,Rx,0,8,D8,05,00,01,00,00,00,00,
119275776,18FED007,true,Rx,0,6,00,04,94,AB,F4,7F,00,00,
119275991,18FED008,true,Rx,0,7,49,80,A4,83,F6,FE,00,00,
119276202,18FED009,true,Rx,0,7,00,00,00,00,00,00,00,00,
119280752,000000BA,false,Rx,0,8,C9,04,28,00,00,00,00,B9,
119285323,000000BB,false,Rx,0,8,6A,D3,FF,D1,55,00,00,12,
119285534,0000015B,false,Rx,0,8,88,06,00,01,00,00,00,00,
119285746,18FED007,true,Rx,0,6,00,04,A0,AB,0B,80,00,00,
119285962,000001B0,false,Rx,0,8,9D,81,A4,49,8A,A4,49,9A,
119286171,000001B4,false,Rx,0,8,1E,81,A4,49,8A,A4,48,9A,
119286380,000001B8,false,Rx,0,8,0A,A1,A4,4A,BA,A4,4A,9A,
119286591,000001BC,false,Rx,0,8,4C,41,A4,44,4A,A4,45,9A,
119286804,000001C0,false,Rx,0,8,52,71,A4,48,8A,A4,46,9A,
119287019,000001C4,false,Rx,0,8,95,91,A4,4A,9A,A4,49,9A,
119287229,000001C8,false,Rx,0,8,C3,91,A4,48,8A,A4,48,9A,
119287448,000001CC,false,Rx,0,8,4D,71,A4,48,8A,A4,47,9A,
119287884,18FED008,true,Rx,0,7,49,80,AF,83,F6,FE,00,00,
119288147,18FED009,true,Rx,0,7,00,00,00,00,00,00,00,00,
119290786,000000BA,false,Rx,0,8,B3,05,28,00,00,00,00,AA,
119291003,000001B1,false,Rx,0,8,AF,81,A4,49,9A,A4,4B,9A,
119291213,000001B2,false,Rx,0,8,06,C1,A4,4D,CA,A4,4B,9A,
119291423,000001B5,false,Rx,0,8,C4,81,A4,47,9A,A4,49,9A,
119291635,000001B6,false,Rx,0,8,0B,81,A4,49,8A,A4,49,9A,
119291852,000001B9,false,Rx,0,8,82,A1,A4,4A,9A,A4,49,9A,
119292062,000001BA,false,Rx,0,8,6E,C1,A4,48,9A,A4,4A,9A,
119292272,000001BD,false,Rx,0,8,39,31,A4,44,4A,A4,4A,9A,
119292481,000001BE,false,Rx,0,8,44,B1,A4,4A,9A,A4,4A,9A,
119292871,000001C1,false,Rx,0,8,00,71,A4,46,7A,A4,4A,9A,
119293081,000001C2,false,Rx,0,8,95,A1,A4,4A,AA,A4,49,9A,
119293291,000001C5,false,Rx,0,8,DE,81,A4,49,AA,A4,4D,9A,
119293501,000001C6,false,Rx,0,8,1D,C1,A4,4C,DA,A4,4C,9A,
119293712,000001C9,false,Rx,0,8,21,71,A4,47,7A,A4,4A,9A,
119293929,000001CA,false,Rx,0,8,2A,B1,A4,4B,CA,A4,4A,9A,
119294139,000001CD,false,Rx,0,8,7E,61,A4,46,8A,A4,49,9A,
119294349,000001CE,false,Rx,0,8,44,A1,A4,4A,AA,A4,4A,9A,
119294734,1A55540A,true,Rx,0,8,00,00,00,00,00,00,00,00,
119294945,1A55540B,true,Rx,0,8,00,00,00,00,FE,FE,FE,FE,
119295328,1A55540C,true,Rx,0,8,00,00,00,00,00,00,00,00,
119295538,000000BB,false,Rx,0,8,32,D4,FF,D1,55,00,00,14,
119295750,0000015B,false,Rx,0,8,93,07,00,01,00,00,00,00,
119295967,18FED007,true,Rx,0,6,00,04,A0,AB,00,80,00,00,
119296177,18FED008,true,Rx,0,7,49,80,A4,83,F6,FE,00,00,
119296559,18FED009,true,Rx,0,7,00,00,00,00,00,00,00,00,
119296772,1A55540D,true,Rx,0,8,00,00,00,00,FE,FE,FE,FE,
119297161,1A555410,true,Rx,0,8,00,00,00,00,00,00,00,00,
119297371,1A555411,true,Rx,0,8,00,00,00,00,FE,FE,FE,FE,
119297756,1A555412,true,Rx,0,8,00,00,00,00,00,00,00,00,
119297973,1A555413,true,Rx,0,8,00,00,00,00,FE,FE,FE,FE,
119298354,1A555414,true,Rx,0,8,00,00,00,00,00,00,00,00,
119298564,1A555415,true,Rx,0,8,00,00,00,00,FE,FE,FE,FE,
119298954,1A555416,true,Rx,0,8,00,00,00,00,00,00,00,00,
119299164,1A555417,true,Rx,0,8,00,00,00,00,FE,FE,FE,FE,
119299547,1A555418,true,Rx,0,8,00,00,00,00,00,00,00,00,
119299759,1A555419,true,Rx,0,8,00,00,00,00,FE,FE,FE,FE,
119300148,1A55541A,true,Rx,0,8,FE,FE,FE,FE,FE,FE,FE,FE,
119300357,1A55541B,true,Rx,0,8,FE,FE,FE,FE,FE,FE,FE,FE,
119300744,1A55541E,true,Rx,0,8,00,00,00,00,00,00,00,00,
119300959,1A55541F,true,Rx,0,8,00,00,00,00,FE,FE,FE,FE,
119301169,1BFFDA19,true,Rx,0,2,00,00,00,00,00,00,00,00,
119301377,1BFFDA1A,true,Rx,0,2,00,08,00,00,00,00,00,00,
119301760,000000BA,false,Rx,0,8,4D,06,28,00,00,00,00,AB,
119304912,18FED002,true,Rx,0,3,00,00,10,00,00,00,00,00,
119305307,000000BB,false,Rx,0,8,90,D5,FF,D1,55,00,00,16,
119305517,0000015B,false,Rx,0,8,B9,08,00,01,00,00,00,00,
119305728,18FED007,true,Rx,0,6,00,04,A0,AB,00,80,00,00,
119305960,18FED008,true,Rx,0,7,49,80,AF,83,F6,FE,00,00,
119306176,18FED009,true,Rx,0,7,00,00,00,00,00,00,00,00,
119310762,000000BA,false,Rx,0,8,D0,07,28,00,00,00,00,B0,
119315216,000000BB,false,Rx,0,8,41,E6,FF,D1,55,00,00,00,
119315425,0000015B,false,Rx,0,8,BA,09,00,01,00,00,00,00,
119315813,18FED007,true,Rx,0,6,00,04,A0,AB,00,80,00,00,
119316028,18FED008,true,Rx,0,7,49,80,AF,83,F6,FE,00,00,
119316238,18FED009,true,Rx,0,7,00,00,00,00,00,00,00,00,
119317490,000001C0,false,Rx,0,8,66,52,A4,46,6A,A4,42,0A,
119317880,000001B0,false,Rx,0,8,99,32,A4,45,2A,A4,42,0A,
119318090,000001B4,false,Rx,0,8,AB,62,A4,47,6A,A4,47,0A,
119318300,000001B8,false,Rx,0,8,33,52,A4,45,5A,A4,43,0A,
119318510,000001BC,false,Rx,0,8,D4,32,A4,43,3A,A4,45,0A,
119318721,000001C4,false,Rx,0,8,8D,52,A4,45,5A,A4,45,0A,
119318933,000001C8,false,Rx,0,8,7C,72,A4,47,7A,A4,47,0A,
119319143,000001CC,false,Rx,0,8,83,52,A4,46,5A,A4,46,0A,
119320741,000000BA,false,Rx,0,8,44,08,28,00,00,00,00,AC,
119325086,000001C1,false,Rx,0,8,F1,52,A4,42,CA,A3,46,0A,
119325091,000001B1,false,Rx,0,8,59,32,A4,43,BA,A3,46,0A,
119325096,000001B2,false,Rx,0,8,E6,62,A4,47,6A,A4,3F,0A,
119325101,000001B5,false,Rx,0,8,54,72,A4,46,0A,A4,47,0A,
119325106,000001B6,false,Rx,0,8,4B,72,A4,46,6A,A4,41,0A,
119325111,000001B9,false,Rx,0,8,69,52,A4,43,BA,A3,48,0A,
119325116,000001BA,false,Rx,0,8,52,A2,A4,47,7A,A4,42,0A,
119325121,000001BD,false,Rx,0,8,FD,52,A4,45,BA,A3,45,0A,
119325343,000000BB,false,Rx,0,8,18,E7,FF,D1,55,00,00,18,
119325553,0000015B,false,Rx,0,8,AF,0A,00,01,00,00,00,00,
119325766,000001BE,false,Rx,0,8,D1,62,A4,45,3A,A4,3F,0A,
119325983,000001C2,false,Rx,0,8,14,62,A4,45,6A,A4,3C,0A,
119326192,000001C5,false,Rx,0,8,CD,32,A4,43,DA,A3,46,0A,
119326402,000001C6,false,Rx,0,8,B6,52,A4,46,5A,A4,3F,0A,
119326612,000001C9,false,Rx,0,8,58,52,A4,46,CA,A3,45,0A,
119327003,000001CA,false,Rx,0,8,4C,62,A4,45,6A,A4,3F,0A,
119327212,000001CD,false,Rx,0,8,BD,62,A4,45,DA,A3,45,0A,
119327422,000001CE,false,Rx,0,8,B6,72,A4,45,5A,A4,40,0A,
119327634,18FED007,true,Rx,0,6,00,04,A0,AB,00,80,00,00,
119327850,18FED008,true,Rx,0,7,49,80,AF,83,F6,FE,00,00,
119328232,18FED009,true,Rx,0,7,00,00,00,00,00,00,00,00,
119331762,000000BA,false,Rx,0,8,6C,09,28,00,00,00,00,AD,
119334126,18FED005,true,Rx,0,2,00,00,00,00,00,00,00,00,
119335208,000000BB,false,Rx,0,8,3E,E8,FF,D1,55,00,00,1A,
119335418,0000015B,false,Rx,0,8,50,0B,00,01,00,00,00,00,
119335804,18FED007,true,Rx,0,6,00,04,A0,AB,00,80,00,00,
119336019,18FED008,true,Rx,0,7,49,80,AF,83,F6,FE,00,00,
119336230,18FED009,true,Rx,0,7,00,00,00,00,00,00,00,00,
119340784,000000BA,false,Rx,0,8,C1,0A,28,00,00,00,00,BE,
119344977,000001C0,false,Rx,0,8,34,73,A4,48,9A,A4,46,EA,
119345198,000000BB,false,Rx,0,8,8B,E9,FF,D1,55,00,00,1C,
119345580,0000015B,false,Rx,0,8,6F,0C,00,01,00,00,00,00,
119345793,000001B0,false,Rx,0,8,05,83,A4,49,9A,A4,49,EA,
119346004,000001B4,false,Rx,0,8,F8,83,A4,48,8A,A4,48,EA,
119346215,000001B8,false,Rx,0,8,53,B3,A4,4A,BA,A4,49,EA,
119346427,000001BC,false,Rx,0,8,02,33,A4,44,4A,A4,44,EA,
119346652,000001C4,false,Rx,0,8,EB,93,A4,4A,AA,A4,49,EA,
119346868,000001C8,false,Rx,0,8,47,93,A4,48,7A,A4,49,EA,
119347078,000001CC,false,Rx,0,8,FA,63,A4,47,7A,A4,47,EA,
119347288,18FED007,true,Rx,0,6,00,04,A0,AB,0B,80,00,00,
119347672,18FED008,true,Rx,0,7,49,80,AF,83,F6,FE,00,00,
119347889,18FED009,true,Rx,0,7,00,00,00,00,00,00,00,00,
119350086,000001C1,false,Rx,0,8,55,83,A4,46,7A,A4,4B,EA,
119350296,000001B1,false,Rx,0,8,BB,93,A4,49,8A,A4,4C,EA,
119350506,000001B2,false,Rx,0,8,62,C3,A4,4D,CA,A4,4C,EA,
119350725,000001B5,false,Rx,0,8,B5,83,A4,48,8A,A4,49,EA,
119350948,000000BA,false,Rx,0,8,2B,0B,28,00,00,00,00,AF,
119351156,000001B6,false,Rx,0,8,36,83,A4,49,8A,A4,49,EA,
119351366,000001B9,false,Rx,0,8,30,A3,A4,4A,9A,A4,49,EA,
119351576,000001BA,false,Rx,0,8,1F,B3,A4,49,AA,A4,4A,EA,
