Time Stamp,ID,Extended,Dir,Bus,LEN,D1,D2,D3,D4,D5,D6,D7,D8
20118659,000001C9,false,Rx,0,8,3A,5F,A4,46,6A,A4,49,4A,
20118664,000001CA,false,Rx,0,8,33,AF,A4,49,9A,A4,49,4A,
20118669,000001CD,false,Rx,0,8,28,7F,A4,47,9A,A4,49,4A,
20118674,000001CE,false,Rx,0,8,68,AF,A4,4A,AA,A4,4A,4A,
20119241,16A95419,true,Rx,0,8,AA,AA,8A,20,00,00,A0,80,
20120498,000000BB,false,Rx,0,8,81,FE,FF,D1,75,2B,00,0A,
20120708,0000015B,false,Rx,0,8,BC,51,00,01,00,00,00,00,
20120918,18FED007,true,Rx,0,6,00,07,A0,AB,AA,AB,00,00,
20121128,18FED008,true,Rx,0,7,7E,AB,0B,80,F6,FE,00,00,
20121340,18FED009,true,Rx,0,7,00,00,00,00,00,00,00,00,
20124857,000000BA,false,Rx,0,8,EE,40,29,00,00,00,00,A6,
20130461,000000BB,false,Rx,0,8,61,EF,FF,D1,75,2B,00,0C,
20130671,0000015B,false,Rx,0,8,B2,52,00,01,00,00,00,00,
20130885,18FED007,true,Rx,0,6,00,07,A0,AB,9F,AB,00,00,
20131104,18FED008,true,Rx,0,7,7E,AB,00,80,F6,FE,00,00,
20131511,18FED009,true,Rx,0,7,00,00,00,00,00,00,00,00,
20134866,000000BA,false,Rx,0,8,60,41,29,00,00,00,00,B0,
20141363,000000BB,false,Rx,0,8,35,F0,FF,D5,75,2B,00,00,
20141368,0000015B,false,Rx,0,8,83,53,00,01,00,00,00,00,
20141373,18FED007,true,Rx,0,6,00,07,AB,AB,AA,AB,00,00,
20141378,000001C4,false,Rx,0,8,37,50,A4,45,5A,A4,43,0A,
20141383,000001B4,false,Rx,0,8,68,60,A4,46,6A,A4,47,0A,
20141610,000001B8,false,Rx,0,8,CF,50,A4,43,5A,A4,43,0A,
20141820,000001BC,false,Rx,0,8,31,20,A4,43,3A,A4,43,0A,
20142029,000001B0,false,Rx,0,8,54,20,A4,43,2A,A4,42,0A,
20142241,000001C0,false,Rx,0,8,F4,30,A4,45,6A,A4,43,0A,
20142456,000001C8,false,Rx,0,8,C8,60,A4,46,5A,A4,46,0A,
20142667,000001CC,false,Rx,0,8,8B,50,A4,46,6A,A4,46,0A,
20143048,18FED008,true,Rx,0,7,7E,AB,0B,80,F6,FE,00,00,
20143261,18FED009,true,Rx,0,7,00,00,00,00,00,00,00,00,
20144865,000000BA,false,Rx,0,8,9E,42,29,00,00,00,00,A7,
20145782,000001C5,false,Rx,0,8,C4,20,A4,42,CA,A3,45,0A,
20145991,000001C6,false,Rx,0,8,99,50,A4,45,5A,A4,3D,0A,
20146201,000001B1,false,Rx,0,8,00,20,A4,42,AA,A3,45,0A,
20146590,000001B2,false,Rx,0,8,11,60,A4,47,6A,A4,3F,0A,
20146800,000001B5,false,Rx,0,8,5C,70,A4,46,FA,A3,47,0A,
20147010,000001B6,false,Rx,0,8,F5,60,A4,46,5A,A4,40,0A,
20147220,000001B9,false,Rx,0,8,D7,50,A4,42,AA,A3,48,0A,
20147432,000001BA,false,Rx,0,8,66,A0,A4,46,7A,A4,42,0A,
20147647,000001BD,false,Rx,0,8,03,30,A4,43,AA,A3,45,0A,
20147857,000001BE,false,Rx,0,8,8E,50,A4,43,3A,A4,3D,0A,
20148067,000001C1,false,Rx,0,8,1F,50,A4,42,BA,A3,46,0A,
20148280,000001C2,false,Rx,0,8,19,50,A4,45,5A,A4,3C,0A,
20148496,000001C9,false,Rx,0,8,94,30,A4,43,AA,A3,43,0A,
20148705,000001CA,false,Rx,0,8,79,30,A4,43,3A,A4,3C,0A,
20148914,000001CD,false,Rx,0,8,4E,60,A4,45,DA,A3,45,0A,
20149297,000001CE,false,Rx,0,8,46,60,A4,45,5A,A4,40,0A,
20150377,000000BB,false,Rx,0,8,31,E1,FF,D5,75,2B,00,0E,
20150593,0000015B,false,Rx,0,8,25,54,00,01,00,00,00,00,
20150813,18FED007,true,Rx,0,6,00,07,AB,AB,AA,AB,00,00,
20151195,18FED008,true,Rx,0,7,7E,AB,0B,80,F6,FE,00,00,
20151407,18FED009,true,Rx,0,7,00,00,00,00,00,00,00,00,
20155799,000000BA,false,Rx,0,8,0E,43,29,00,00,00,00,A8,
20160350,000000BB,false,Rx,0,8,82,F2,FF,D1,75,2B,00,10,
20160565,0000015B,false,Rx,0,8,AC,55,00,01,00,00,00,00,
20160948,18FED007,true,Rx,0,6,00,07,A0,AB,9F,AB,00,00,
20161160,18FED008,true,Rx,0,7,7E,AB,00,80,F6,FE,00,00,
20161395,18FED009,true,Rx,0,7,00,00,00,00,00,00,00,00,
20164906,000000BA,false,Rx,0,8,EB,44,29,00,00,00,00,B9,
20169274,000001C4,false,Rx,0,8,C5,81,A4,49,9A,A4,48,9A,
20169491,000001B4,false,Rx,0,8,D6,71,A4,48,8A,A4,48,9A,
20169700,000001B8,false,Rx,0,8,C1,A1,A4,4A,AA,A4,49,9A,
20169910,000001BC,false,Rx,0,8,02,31,A4,44,3A,A4,45,9A,
20170120,000001B0,false,Rx,0,8,C7,81,A4,48,8A,A4,48,9A,
20170511,000000BB,false,Rx,0,8,66,E3,FF,D5,75,2B,00,12,
20170721,0000015B,false,Rx,0,8,FC,56,00,01,00,00,00,00,
20170932,000001C0,false,Rx,0,8,9F,61,A4,47,8A,A4,45,9A,
20171146,000001C8,false,Rx,0,8,2C,71,A4,46,6A,A4,47,9A,
20171373,000001CC,false,Rx,0,8,17,71,A4,48,8A,A4,48,9A,
20171590,18FED007,true,Rx,0,6,00,07,AB,AB,AA,AB,00,00,
20171800,18FED008,true,Rx,0,7,7E,AB,0B,80,F6,FE,00,00,
20172182,18FED009,true,Rx,0,7,00,00,00,00,00,00,00,00,
20174486,000001C5,false,Rx,0,8,84,81,A4,48,AA,A4,4C,9A,
20174696,000001B5,false,Rx,0,8,1D,81,A4,47,8A,A4,49,9A,
20174905,000000BA,false,Rx,0,8,91,45,29,00,00,00,00,AA,
20175289,000001B6,false,Rx,0,8,05,81,A4,49,8A,A4,48,9A,
20175505,000001B1,false,Rx,0,8,08,81,A4,48,8A,A4,4C,9A,
20175715,000001B2,false,Rx,0,8,48,B1,A4,4D,BA,A4,4B,9A,
20175924,000001B9,false,Rx,0,8,70,A1,A4,49,9A,A4,48,9A,
20176133,000001BA,false,Rx,0,8,D3,A1,A4,48,9A,A4,4A,9A,
20176348,000001BD,false,Rx,0,8,BA,31,A4,43,4A,A4,4A,9A,
20176563,000001BE,false,Rx,0,8,1A,A1,A4,49,9A,A4,4A,9A,
20176790,000001C1,false,Rx,0,8,FC,71,A4,45,7A,A4,4A,9A,
20177000,000001C2,false,Rx,0,8,67,A1,A4,49,AA,A4,48,9A,
20177209,000001C6,false,Rx,0,8,8A,B1,A4,4C,BA,A4,4C,9A,
20177421,000001C9,false,Rx,0,8,3B,51,A4,45,6A,A4,4A,9A,
20179048,000001CA,false,Rx,0,8,39,91,A4,49,9A,A4,48,9A,
20179053,000001CD,false,Rx,0,8,88,71,A4,47,8A,A4,49,9A,
20179058,000001CE,false,Rx,0,8,44,A1,A4,4A,AA,A4,4A,9A,
20180323,000000BB,false,Rx,0,8,55,C4,FF,D5,75,2B,00,14,
20180712,0000015B,false,Rx,0,8,E7,57,00,01,00,00,00,00,
20180922,18FED007,true,Rx,0,6,00,07,AB,AB,AA,AB,00,00,
20181131,18FED008,true,Rx,0,7,7E,AB,0B,80,F6,FE,00,00,
20181343,18FED009,true,Rx,0,7,00,00,00,00,00,00,00,00,
20184879,000000BA,false,Rx,0,8,6F,46,29,00,00,00,00,AB,
20190399,000000BB,false,Rx,0,8,E3,E5,FF,D1,75,2B,00,16,
20190615,0000015B,false,Rx,0,8,CD,58,00,01,00,00,00,00,
20190825,18FED007,true,Rx,0,6,00,07,A0,AB,9F,AB,00,00,
20191208,18FED008,true,Rx,0,7,7E,AB,00,80,F6,FE,00,00,
20191420,18FED009,true,Rx,0,7,00,00,00,00,00,00,00,00,
20194935,000000BA,false,Rx,0,8,F2,47,29,00,00,00,00,B0,
20200491,000000BB,false,Rx,0,8,26,F6,FF,D5,75,2B,00,00,
20200701,0000015B,false,Rx,0,8,CE,59,00,01,00,00,00,00,
20200911,18FED007,true,Rx,0,6,00,07,AB,AB,AA,AB,00,00,
20201121,000001C4,false,Rx,0,8,A9,52,A4,45,5A,A4,43,0A,
20201336,000001B4,false,Rx,0,8,FF,62,A4,46,6A,A4,47,0A,
20201564,000001B8,false,Rx,0,8,E4,52,A4,43,5A,A4,43,0A,
20201776,000001BC,false,Rx,0,8,52,22,A4,43,3A,A4,43,0A,
20201994,000001B0,false,Rx,0,8,EC,22,A4,43,2A,A4,42,0A,
20202206,000001C0,false,Rx,0,8,29,32,A4,45,6A,A4,43,0A,
20202418,000001C8,false,Rx,0,8,19,62,A4,46,5A,A4,46,0A,
20202650,000001CC,false,Rx,0,8,C7,52,A4,46,6A,A4,46,0A,
20203032,18FED008,true,Rx,0,7,7E,AB,0B,80,F6,FE,00,00,
20203246,18FED009,true,Rx,0,7,00,00,00,00,00,00,00,00,
20204882,000000BA,false,Rx,0,8,66,48,29,00,00,00,00,AC,
20205790,000001C5,false,Rx,0,8,F0,22,A4,42,CA,A3,45,0A,
20206000,000001C6,false,Rx,0,8,56,52,A4,45,5A,A4,3D,0A,
20206209,000001B1,false,Rx,0,8,64,22,A4,42,AA,A3,45,0A,
20206420,000001B2,false,Rx,0,8,E6,62,A4,47,6A,A4,3F,0A,
20206637,000001B5,false,Rx,0,8,55,72,A4,46,FA,A3,47,0A,
20207019,000001B6,false,Rx,0,8,A3,62,A4,46,5A,A4,40,0A,
20207229,000001B9,false,Rx,0,8,E4,52,A4,42,AA,A3,48,0A,
20207446,000001BA,false,Rx,0,8,06,A2,A4,46,7A,A4,42,0A,
20207657,000001BD,false,Rx,0,8,4E,32,A4,43,AA,A3,45,0A,
20207867,000001BE,false,Rx,0,8,D3,52,A4,43,3A,A4,3D,0A,
20208077,000001C1,false,Rx,0,8,A0,52,A4,42,BA,A3,46,0A,
20208288,000001C2,false,Rx,0,8,99,52,A4,45,5A,A4,3C,0A,
20208505,000001C9,false,Rx,0,8,62,32,A4,43,AA,A3,43,0A,
20208715,000001CA,false,Rx,0,8,31,32,A4,43,3A,A4,3C,0A,
20208926,000001CD,false,Rx,0,8,BD,62,A4,45,DA,A3,45,0A,
20209135,000001CE,false,Rx,0,8,B6,72,A4,45,5A,A4,40,0A,
20210390,000000BB,false,Rx,0,8,00,F7,FF,D1,75,2B,00,18,
20210606,0000015B,false,Rx,0,8,DB,5A,00,01,00,00,00,00,
20210816,18FED007,true,Rx,0,6,00,07,A0,AB,AA,AB,00,00,
20211198,18FED008,true,Rx,0,7,7E,AB,0B,80,F6,FE,00,00,
20211410,18FED009,true,Rx,0,7,00,00,00,00,00,00,00,00,
20211799,18FED00A,true,Rx,0,8,00,00,30,1E,00,41,00,00,
20215834,000000BA,false,Rx,0,8,4E,49,29,00,00,00,00,AD,
20220466,000000BB,false,Rx,0,8,84,E8,FF,D1,75,2B,00,1A,
20220677,0000015B,false,Rx,0,8,24,5B,00,01,00,00,00,00,
20220887,18FED007,true,Rx,0,6,00,07,A0,AB,9F,AB,00,00,
20221115,18FED008,true,Rx,0,7,7E,AB,00,80,F6,FE,00,00,
20221505,18FED009,true,Rx,0,7,00,00,00,00,00,00,00,00,
20224837,000000BA,false,Rx,0,8,E3,4A,29,00,00,00,00,BE,
20229387,000001C4,false,Rx,0,8,FF,83,A4,49,9A,A4,48,EA,
20229601,000001B4,false,Rx,0,8,19,73,A4,47,8A,A4,48,EA,
20229810,000001B8,false,Rx,0,8,28,A3,A4,4A,AA,A4,49,EA,
20230019,000001BC,false,Rx,0,8,D0,33,A4,43,3A,A4,44,EA,
20230229,000001B0,false,Rx,0,8,5F,83,A4,48,9A,A4,48,EA,
20230438,000000BB,false,Rx,0,8,4E,E9,FF,D5,75,2B,00,1C,
20230654,0000015B,false,Rx,0,8,1B,5C,00,01,00,00,00,00,
20230864,000001C0,false,Rx,0,8,90,73,A4,47,8A,A4,46,EA,
20231073,000001C8,false,Rx,0,8,DD,73,A4,46,6A,A4,47,EA,
20231462,000001CC,false,Rx,0,8,04,73,A4,48,8A,A4,48,EA,
20231671,18FED007,true,Rx,0,6,00,07,AB,AB,AA,AB,00,00,
20231881,18FED008,true,Rx,0,7,7E,AB,0B,80,F6,FE,00,00,
20232090,18FED009,true,Rx,0,7,00,00,00,00,00,00,00,00,
20234564,000001C5,false,Rx,0,8,EE,73,A4,48,AA,A4,4C,EA,
20234773,000001B5,false,Rx,0,8,54,73,A4,47,8A,A4,49,EA,
20234982,000000BA,false,Rx,0,8,09,4B,29,00,00,00,00,AF,
20235192,000001B6,false,Rx,0,8,62,83,A4,48,8A,A4,49,EA,
20235404,000001B1,false,Rx,0,8,4D,83,A4,48,8A,A4,4C,EA,
20235620,000001B2,false,Rx,0,8,03,B3,A4,4C,CA,A4,4B,EA,
20235829,000001B9,false,Rx,0,8,C2,A3,A4,49,9A,A4,48,EA,
20236038,000001BA,false,Rx,0,8,0F,B3,A4,48,9A,A4,4A,EA,
20236249,000001BD,false,Rx,0,8,B9,43,A4,43,4A,A4,4A,EA,
20236632,000001BE,false,Rx,0,8,31,B3,A4,49,9A,A4,4A,EA,
20236841,000001C1,false,Rx,0,8,3B,73,A4,45,7A,A4,4A,EA,
20237050,000001C2,false,Rx,0,8,CD,A3,A4,4A,9A,A4,48,EA,
20237262,000001C6,false,Rx,0,8,24,B3,A4,4C,BA,A4,4C,EA,
20237478,000001C9,false,Rx,0,8,EF,53,A4,46,6A,A4,4A,EA,
20237688,000001CA,false,Rx,0,8,38,93,A4,49,9A,A4,49,EA,
208269,000001CD,false,Rx,0,8,B8,73,A4,47,8A,A4,49,EA,
208274,000001CE,false,Rx,0,8,7E,A3,A4,4A,AA,A4,4A,EA,
209364,000000BB,false,Rx,0,8,93,EA,FF,D1,75,2B,00,1E,
209579,0000015B,false,Rx,0,8,51,5D,00,01,00,00,00,00,
209967,18FED007,true,Rx,0,6,00,07,A0,AB,AA,AB,00,00,
210179,18FED008,true,Rx,0,7,7E,AB,0B,80,F6,FE,00,00,
210400,18FED009,true,Rx,0,7,00,00,00,00,00,00,00,00,
213821,000000BA,false,Rx,0,8,48,4C,29,00,00,00,00,A1,
219466,000000BB,false,Rx,0,8,A9,CB,FF,D1,75,2B,00,02,
219676,0000015B,false,Rx,0,8,86,5E,00,01,00,00,00,00,
219885,18FED007,true,Rx,0,6,00,07,A0,AB,93,AB,00,00,
220095,18FED008,true,Rx,0,7,7E,AB,00,80,F6,FE,00,00,
220484,18FED009,true,Rx,0,7,00,00,00,00,00,00,00,00,
223844,000000BA,false,Rx,0,8,CE,4D,29,00,00,00,00,B0,
229434,000000BB,false,Rx,0,8,78,FC,FF,D5,75,2B,00,00,
229650,0000015B,false,Rx,0,8,ED,5F,00,01,00,00,00,00,
229860,18FED007,true,Rx,0,6,00,07,AB,AB,AA,AB,00,00,
230069,000001C4,false,Rx,0,8,D3,54,A4,45,5A,A4,43,0A,
230281,000001B4,false,Rx,0,8,3A,64,A4,46,6A,A4,47,0A,
230496,000001B8,false,Rx,0,8,F3,54,A4,43,5A,A4,43,0A,
230878,000001BC,false,Rx,0,8,6D,24,A4,43,3A,A4,43,0A,
231088,000001C8,false,Rx,0,8,52,64,A4,45,5A,A4,46,0A,
231300,000001CC,false,Rx,0,8,99,54,A4,46,6A,A4,46,0A,
231516,000001B0,false,Rx,0,8,27,24,A4,43,2A,A4,42,0A,
231726,000001C0,false,Rx,0,8,5B,34,A4,45,5A,A4,43,0A,
231936,18FED008,true,Rx,0,7,7E,AB,0B,80,F6,FE,00,00,
232320,18FED009,true,Rx,0,7,00,00,00,00,00,00,00,00,
233784,000000BA,false,Rx,0,8,59,4E,29,00,00,00,00,A2,
234342,000001C5,false,Rx,0,8,5B,24,A4,42,CA,A3,45,0A,
234558,000001B5,false,Rx,0,8,73,74,A4,46,FA,A3,47,0A,
234940,000001B9,false,Rx,0,8,CF,54,A4,42,AA,A3,48,0A,
235148,000001B6,false,Rx,0,8,14,64,A4,46,5A,A4,40,0A,
235359,000001BA,false,Rx,0,8,DA,A4,A4,46,7A,A4,42,0A,
235575,000001BD,false,Rx,0,8,17,34,A4,43,AA,A3,45,0A,
235788,000001B1,false,Rx,0,8,AF,24,A4,42,AA,A3,45,0A,
236014,000001B2,false,Rx,0,8,DC,64,A4,47,6A,A4,3F,0A,
236224,000001BE,false,Rx,0,8,C0,54,A4,43,3A,A4,3D,0A,
236436,000001C1,false,Rx,0,8,4B,54,A4,42,AA,A3,46,0A,
236652,000001C2,false,Rx,0,8,2C,54,A4,45,5A,A4,3C,0A,
236862,000001C6,false,Rx,0,8,DF,54,A4,45,5A,A4,3D,0A,
237071,000001C9,false,Rx,0,8,22,34,A4,43,AA,A3,43,0A,
237288,000001CA,false,Rx,0,8,12,34,A4,43,3A,A4,3C,0A,
237499,000001CD,false,Rx,0,8,C7,64,A4,45,DA,A3,45,0A,
237709,000001CE,false,Rx,0,8,7E,64,A4,45,5A,A4,40,0A,
239388,000000BB,false,Rx,0,8,02,ED,FF,D5,75,2B,00,04,
239605,0000015B,false,Rx,0,8,12,50,00,01,00,00,00,00,
239987,18FED007,true,Rx,0,6,00,07,AB,AB,AA,AB,00,00,
240197,18FED008,true,Rx,0,7,7E,AB,0B,80,F6,FE,00,00,
240409,18FED009,true,Rx,0,7,00,00,00,00,00,00,00,00,
244793,000000BA,false,Rx,0,8,D5,4F,29,00,00,00,00,A3,
249511,000000BB,false,Rx,0,8,73,EE,FF,D1,75,2B,00,06,
249721,0000015B,false,Rx,0,8,BC,51,00,01,00,00,00,00,
249931,18FED007,true,Rx,0,6,00,07,A0,AB,9F,AB,00,00,
250141,18FED008,true,Rx,0,7,7E,AB,00,80,F6,FE,00,00,
250531,18FED009,true,Rx,0,7,00,00,00,00,00,00,00,00,
253867,000000BA,false,Rx,0,8,36,40,29,00,00,00,00,B4,
258250,000001C4,false,Rx,0,8,BA,85,A4,49,9A,A4,48,4A,
258465,000001B4,false,Rx,0,8,9D,75,A4,48,8A,A4,48,4A,
258675,000001B8,false,Rx,0,8,AD,A5,A4,4A,AA,A4,49,4A,
259058,000001BC,false,Rx,0,8,DA,35,A4,43,3A,A4,44,4A,
259269,000001B0,false,Rx,0,8,13,85,A4,48,9A,A4,48,4A,
259483,000000BB,false,Rx,0,8,69,FF,FF,D5,75,2B,00,08,
259693,0000015B,false,Rx,0,8,B2,52,00,01,00,00,00,00,
259903,000001C0,false,Rx,0,8,11,65,A4,47,8A,A4,45,4A,
260113,000001C8,false,Rx,0,8,A4,75,A4,46,6A,A4,46,4A,
260325,000001CC,false,Rx,0,8,41,75,A4,48,8A,A4,48,4A,
260542,18FED007,true,Rx,0,6,00,07,AB,AB,AA,AB,00,00,
260924,18FED008,true,Rx,0,7,7E,AB,0B,80,F6,FE,00,00,
261134,18FED009,true,Rx,0,7,00,00,00,00,00,00,00,00,
263477,000001C5,false,Rx,0,8,6C,75,A4,48,AA,A4,4C,4A,
263687,000001B5,false,Rx,0,8,41,85,A4,47,8A,A4,49,4A,
264069,000000BA,false,Rx,0,8,79,41,29,00,00,00,00,A5,
264279,000001B6,false,Rx,0,8,4A,85,A4,48,8A,A4,49,4A,
264496,000001B1,false,Rx,0,8,D5,85,A4,48,8A,A4,4C,4A,
264706,000001B2,false,Rx,0,8,A8,C5,A4,4D,BA,A4,4C,4A,
264916,000001B9,false,Rx,0,8,F2,A5,A4,49,9A,A4,49,4A,
265126,000001BA,false,Rx,0,8,51,A5,A4,48,9A,A4,4A,4A,
265336,000001BD,false,Rx,0,8,C5,35,A4,43,4A,A4,4A,4A,
265547,000001BE,false,Rx,0,8,67,A5,A4,49,9A,A4,4A,4A,
265758,000001C1,false,Rx,0,8,61,75,A4,45,7A,A4,4A,4A,
265968,000001C2,false,Rx,0,8,26,A5,A4,4A,9A,A4,49,4A,
266178,000001C6,false,Rx,0,8,7B,B5,A4,4C,CA,A4,4C,4A,
266390,000001C9,false,Rx,0,8,A1,65,A4,45,6A,A4,4A,4A,
266606,000001CA,false,Rx,0,8,34,95,A4,49,9A,A4,49,4A,
266816,000001CD,false,Rx,0,8,CA,75,A4,47,8A,A4,49,4A,
268227,000001CE,false,Rx,0,8,15,B5,A4,4A,AA,A4,4A,4A,
269339,000000BB,false,Rx,0,8,32,F0,FF,D1,75,2B,00,0A,
269726,0000015B,false,Rx,0,8,83,53,00,01,00,00,00,00,
269936,18FED007,true,Rx,0,6,00,07,A0,AB,AA,AB,00,00,
270146,18FED008,true,Rx,0,7,7E,AB,0B,80,F6,FE,00,00,
270359,18FED009,true,Rx,0,7,00,00,00,00,00,00,00,00,
273886,000000BA,false,Rx,0,8,77,42,29,00,00,00,00,A6,
279482,000000BB,false,Rx,0,8,11,F1,FF,D1,75,2B,00,0C,
279691,0000015B,false,Rx,0,8,25,54,00,01,00,00,00,00,
279901,18FED007,true,Rx,0,6,00,07,A0,AB,9F,AB,00,00,
280111,18FED008,true,Rx,0,7,7E,AB,00,80,F6,FE,00,00,
280501,18FED009,true,Rx,0,7,00,00,00,00,00,00,00,00,
280711,18FED00A,true,Rx,0,8,00,00,30,1E,00,41,00,00,
283872,000000BA,false,Rx,0,8,AE,43,29,00,00,00,00,B0,
289434,000000BB,false,Rx,0,8,11,C2,FF,D5,75,2B,00,00,
289650,0000015B,false,Rx,0,8,AC,55,00,01,00,00,00,00,
289860,18FED007,true,Rx,0,6,00,07,AB,AB,AA,AB,00,00,
290075,000001C4,false,Rx,0,8,FA,36,A4,45,5A,A4,43,0A,
290302,000001B4,false,Rx,0,8,D9,66,A4,46,6A,A4,47,0A,
290517,000001B8,false,Rx,0,8,AE,56,A4,43,5A,A4,43,0A,
290727,000001BC,false,Rx,0,8,F4,26,A4,43,3A,A4,43,0A,
291109,000001B0,false,Rx,0,8,C2,26,A4,43,2A,A4,42,0A,
291319,000001C0,false,Rx,0,8,9A,36,A4,45,5A,A4,43,0A,
291535,000001C8,false,Rx,0,8,CC,66,A4,45,5A,A4,46,0A,
291744,000001CC,false,Rx,0,8,6E,56,A4,46,6A,A4,46,0A,
291954,18FED008,true,Rx,0,7,7E,AB,0B,80,F6,FE,00,00,
292164,18FED009,true,Rx,0,7,00,00,00,00,00,00,00,00,
293768,000000BA,false,Rx,0,8,63,44,29,00,00,00,00,A7,
294846,000001C5,false,Rx,0,8,71,26,A4,42,CA,A3,45,0A,
295056,000001C6,false,Rx,0,8,EF,56,A4,45,5A,A4,3D,0A,
295268,000001B1,false,Rx,0,8,53,26,A4,42,AA,A3,45,0A,
295483,000001B2,false,Rx,0,8,D4,66,A4,47,6A,A4,3F,0A,
295693,000001B5,false,Rx,0,8,14,66,A4,46,FA,A3,47,0A,
295903,000001B6,false,Rx,0,8,BE,66,A4,46,5A,A4,40,0A,
296113,000001B9,false,Rx,0,8,79,56,A4,42,AA,A3,48,0A,
296324,000001BA,false,Rx,0,8,62,A6,A4,46,7A,A4,42,0A,
296713,000001BD,false,Rx,0,8,9E,36,A4,43,AA,A3,45,0A,
296923,000001BE,false,Rx,0,8,83,56,A4,43,3A,A4,3D,0A,
297132,000001C1,false,Rx,0,8,3E,56,A4,42,AA,A3,46,0A,
297345,000001C2,false,Rx,0,8,78,56,A4,45,5A,A4,3C,0A,
297553,000001C9,false,Rx,0,8,1F,36,A4,43,AA,A3,43,0A,
297768,000001CA,false,Rx,0,8,2F,36,A4,43,3A,A4,3C,0A,
297978,000001CD,false,Rx,0,8,57,66,A4,45,DA,A3,45,0A,
298188,000001CE,false,Rx,0,8,66,66,A4,45,5A,A4,40,0A,
299446,000000BB,false,Rx,0,8,07,C3,FF,D1,75,2B,00,0E,
299656,0000015B,false,Rx,0,8,FC,56,00,01,00,00,00,00,
299866,18FED007,true,Rx,0,6,00,07,A0,AB,AA,AB,00,00,
300250,18FED008,true,Rx,0,7,7E,AB,0B,80,F6,FE,00,00,
300466,18FED009,true,Rx,0,7,00,00,00,00,00,00,00,00,
304841,000000BA,false,Rx,0,8,6C,45,29,00,00,00,00,A8,
309405,000000BB,false,Rx,0,8,B9,E4,FF,C9,75,2B,00,10,
309622,0000015B,false,Rx,0,8,E7,57,00,01,00,00,00,00,
309831,18FED007,true,Rx,0,6,00,07,94,AB,9F,AB,00,00,
310213,18FED008,true,Rx,0,7,7E,AB,00,80,F6,FE,00,00,
310426,18FED009,true,Rx,0,7,00,00,00,00,00,00,00,00,
313795,000000BA,false,Rx,0,8,B7,46,29,00,00,00,00,B9,
318262,000001C4,false,Rx,0,8,F1,87,A4,49,9A,A4,48,9A,
318478,000001B4,false,Rx,0,8,BE,77,A4,48,7A,A4,48,9A,
318687,000001B8,false,Rx,0,8,13,A7,A4,49,AA,A4,49,9A,
319070,000001BC,false,Rx,0,8,4F,37,A4,44,3A,A4,45,9A,
319280,000001B0,false,Rx,0,8,01,87,A4,48,9A,A4,48,9A,
319497,000000BB,false,Rx,0,8,94,F5,FF,D1,75,2B,00,12,
319706,0000015B,false,Rx,0,8,CD,58,00,01,00,00,00,00,
319916,000001C0,false,Rx,0,8,F2,77,A4,48,8A,A4,46,9A,
320126,000001C8,false,Rx,0,8,9C,87,A4,47,6A,A4,46,9A,
320337,000001CC,false,Rx,0,8,5D,77,A4,48,8A,A4,48,9A,
320554,18FED007,true,Rx,0,6,00,07,A0,AB,AA,AB,00,00,
320935,18FED008,true,Rx,0,7,7E,AB,0B,80,F6,FE,00,00,
321145,18FED009,true,Rx,0,7,00,00,00,00,00,00,00,00,
321357,18FED502,true,Rx,0,5,0C,20,00,00,00,00,00,00,
321572,18FED102,true,Rx,0,5,0C,20,00,00,00,00,00,00,
321782,18FED202,true,Rx,0,5,0C,20,00,00,00,00,00,00,
322175,18FED302,true,Rx,0,5,0C,20,00,00,00,00,00,00,
322387,18FED402,true,Rx,0,5,0C,20,00,00,00,00,00,00,
322596,18FED602,true,Rx,0,5,0C,20,00,00,00,00,00,00,
322812,18FED702,true,Rx,0,5,0C,20,00,00,00,00,00,00,
323022,18FED802,true,Rx,0,5,0C,20,00,00,00,00,00,00,
323233,16A9541D,true,Rx,0,8,88,A0,80,AA,A0,A0,AA,AA,
323621,16A9541A,true,Rx,0,8,88,A0,80,AA,A0,A0,AA,AA,
323832,16A9541B,true,Rx,0,8,88,A0,80,AA,A0,A0,AA,AA,
324042,000000BA,false,Rx,0,8,AF,47,29,00,00,00,00,AA,
324258,16A9541C,true,Rx,0,8,88,A0,80,AA,A0,A0,AA,AA,
324641,000001C5,false,Rx,0,8,30,87,A4,48,AA,A4,4B,9A,
324851,000001B5,false,Rx,0,8,9A,77,A4,46,8A,A4,49,9A,
325061,000001B1,false,Rx,0,8,14,87,A4,48,8A,A4,4C,9A,
325272,000001B2,false,Rx,0,8,26,C7,A4,4D,CA,A4,4B,9A,
325488,000001B6,false,Rx,0,8,12,87,A4,48,8A,A4,48,9A,
325698,000001B9,false,Rx,0,8,33,B7,A4,49,9A,A4,48,9A,
325908,000001BA,false,Rx,0,8,7D,A7,A4,48,9A,A4,4A,9A,
326118,000001BD,false,Rx,0,8,29,37,A4,43,4A,A4,4A,9A,
326330,000001BE,false,Rx,0,8,8E,A7,A4,49,9A,A4,49,9A,
326546,000001C1,false,Rx,0,8,6B,77,A4,45,7A,A4,4A,9A,
326756,000001C2,false,Rx,0,8,6F,97,A4,49,AA,A4,49,9A,
326965,000001C6,false,Rx,0,8,43,C7,A4,4C,CA,A4,4C,9A,
328615,000001C9,false,Rx,0,8,ED,67,A4,45,6A,A4,49,9A,
328620,000001CA,false,Rx,0,8,3C,97,A4,48,9A,A4,49,9A,
328626,000001CD,false,Rx,0,8,5B,77,A4,47,9A,A4,49,9A,
328663,000001CE,false,Rx,0,8,F9,A7,A4,4A,AA,A4,4A,9A,
328668,16A9541E,true,Rx,0,8,88,A0,80,AA,A0,A0,AA,AA,
328673,16A9541F,true,Rx,0,8,88,A0,80,AA,A0,A0,AA,AA,
328678,16A95420,true,Rx,0,8,88,A0,80,AA,A0,A0,AA,AA,
329072,16A95421,true,Rx,0,8,88,A0,80,AA,A0,A0,AA,AA,
329284,1A555460,true,Rx,0,8,02,30,30,30,30,00,00,00,
329493,000000BB,false,Rx,0,8,A9,F6,FF,D1,75,2B,00,14,
329710,0000015B,false,Rx,0,8,CE,59,00,01,00,00,00,00,
330115,18FED007,true,Rx,0,6,00,07,A0,AB,AA,AB,00,00,
330329,18FED008,true,Rx,0,7,7E,AB,0B,80,F6,FE,00,00,
330549,18FED009,true,Rx,0,7,00,00,00,00,00,00,00,00,
330770,1A555461,true,Rx,0,8,02,30,30,30,30,00,00,00,
331152,1A555462,true,Rx,0,8,02,30,30,30,30,00,00,00,
331365,1A555463,true,Rx,0,8,02,30,30,30,30,00,00,00,
331753,1A555464,true,Rx,0,8,02,30,30,30,30,00,00,00,
331963,1A555465,true,Rx,0,8,02,30,30,30,30,00,00,00,
332173,1A555466,true,Rx,0,8,02,30,30,30,30,00,00,00,
332565,1A555467,true,Rx,0,8,02,30,30,30,30,00,00,00,
334912,000000BA,false,Rx,0,8,A7,48,29,00,00,00,00,AB,
339397,000000BB,false,Rx,0,8,80,F7,FF,C9,75,2B,00,16,
339614,0000015B,false,Rx,0,8,DB,5A,00,01,00,00,00,00,
340001,18FED007,true,Rx,0,6,00,07,94,AB,9F,AB,00,00,
340227,18FED008,true,Rx,0,7,7E,AB,00,80,F6,FE,00,00,
340438,18FED009,true,Rx,0,7,00,00,00,00,00,00,00,00,
343864,000000BA,false,Rx,0,8,D2,49,29,00,00,00,00,B0,
349486,000000BB,false,Rx,0,8,D9,E8,FF,D1,75,2B,00,00,
349696,0000015B,false,Rx,0,8,24,5B,00,01,00,00,00,00,
349906,18FED007,true,Rx,0,6,00,07,A0,AB,AA,AB,00,00,
350116,000001C4,false,Rx,0,8,D0,38,A4,45,5A,A4,43,0A,
350328,000001B4,false,Rx,0,8,49,68,A4,46,6A,A4,47,0A,
350544,000001B8,false,Rx,0,8,3F,58,A4,43,5A,A4,43,0A,
350754,000001B0,false,Rx,0,8,5D,28,A4,43,2A,A4,42,0A,
350964,000001BC,false,Rx,0,8,1F,28,A4,43,3A,A4,43,0A,
351349,000001C0,false,Rx,0,8,82,38,A4,45,5A,A4,43,0A,
351565,000001C8,false,Rx,0,8,48,68,A4,45,5A,A4,46,0A,
351775,000001CC,false,Rx,0,8,90,58,A4,46,6A,A4,46,0A,
351985,18FED008,true,Rx,0,7,7E,AB,0B,80,F6,FE,00,00,
352195,18FED009,true,Rx,0,7,00,00,00,00,00,00,00,00,
353824,000000BA,false,Rx,0,8,3B,4A,29,00,00,00,00,AC,
354730,000001C5,false,Rx,0,8,2D,28,A4,42,CA,A3,45,0A,
355113,000001C6,false,Rx,0,8,35,58,A4,45,5A,A4,3D,0A,
355326,000001B1,false,Rx,0,8,8A,28,A4,42,AA,A3,45,0A,
355542,000001B2,false,Rx,0,8,42,68,A4,47,6A,A4,3F,0A,
355752,000001B5,false,Rx,0,8,AA,68,A4,46,FA,A3,47,0A,
355961,000001B6,false,Rx,0,8,DF,68,A4,46,5A,A4,40,0A,
356170,000001B9,false,Rx,0,8,6E,58,A4,42,AA,A3,48,0A,
356382,000001BA,false,Rx,0,8,B0,A8,A4,46,7A,A4,42,0A,
356598,000001BD,false,Rx,0,8,34,38,A4,43,AA,A3,45,0A,
356807,000001BE,false,Rx,0,8,B6,58,A4,43,3A,A4,3D,0A,
357017,000001C1,false,Rx,0,8,EA,58,A4,42,AA,A3,46,0A,
357402,000001C2,false,Rx,0,8,E9,58,A4,45,5A,A4,3C,0A,
357618,000001C9,false,Rx,0,8,65,38,A4,43,AA,A3,43,0A,
357828,000001CA,false,Rx,0,8,6E,38,A4,43,3A,A4,3C,0A,
358037,000001CD,false,Rx,0,8,BA,68,A4,45,DA,A3,45,0A,
358248,000001CE,false,Rx,0,8,F9,68,A4,45,5A,A4,40,0A,
359505,000000BB,false,Rx,0,8,F0,C9,FF,D5,75,2B,00,18,
359715,0000015B,false,Rx,0,8,1B,5C,00,01,00,00,00,00,
359925,18FED007,true,Rx,0,6,00,07,AB,AB,AA,AB,00,00,
360136,18FED008,true,Rx,0,7,7E,AB,0B,80,F6,FE,00,00,
360527,18FED009,true,Rx,0,7,00,00,00,00,00,00,00,00,
364910,000000BA,false,Rx,0,8,F4,4B,29,00,00,00,00,AD,
369478,000000BB,false,Rx,0,8,6B,EA,FF,C9,75,2B,00,1A,
369690,0000015B,false,Rx,0,8,51,5D,00,01,00,00,00,00,
369914,18FED007,true,Rx,0,6,00,07,94,AB,9F,AB,00,00,
370124,18FED008,true,Rx,0,7,7E,AB,00,80,F6,FE,00,00,
370514,18FED009,true,Rx,0,7,00,00,00,00,00,00,00,00,
373926,000000BA,false,Rx,0,8,29,4C,29,00,00,00,00,BE,
378305,000001C4,false,Rx,0,8,3F,89,A4,49,9A,A4,49,EA,
378520,000001B4,false,Rx,0,8,0E,79,A4,48,8A,A4,48,EA,
378730,000001B8,false,Rx,0,8,D3,A9,A4,4A,AA,A4,49,EA,
378941,000001BC,false,Rx,0,8,F2,39,A4,43,3A,A4,44,EA,
379150,000001B0,false,Rx,0,8,EC,79,A4,47,8A,A4,48,EA,
379362,000000BB,false,Rx,0,8,97,FB,FF,D5,75,2B,00,1C,
379749,0000015B,false,Rx,0,8,86,5E,00,01,00,00,00,00,
379959,000001C0,false,Rx,0,8,46,79,A4,47,8A,A4,46,EA,
380169,000001C8,false,Rx,0,8,EC,79,A4,46,6A,A4,47,EA,
380380,000001CC,false,Rx,0,8,C4,79,A4,48,8A,A4,48,EA,
380597,18FED007,true,Rx,0,6,00,07,AB,AB,AA,AB,00,00,
380805,18FED008,true,Rx,0,7,7E,AB,0B,80,F6,FE,00,00,
381187,18FED009,true,Rx,0,7,00,00,00,00,00,00,00,00,
381399,18FED00A,true,Rx,0,8,00,00,30,1E,00,41,00,00,
383525,000001C5,false,Rx,0,8,60,89,A4,49,AA,A4,4C,EA,
383735,000001B5,false,Rx,0,8,BF,89,A4,47,8A,A4,48,EA,
383945,000000BA,false,Rx,0,8,AF,4D,29,00,00,00,00,AF,
384155,000001B6,false,Rx,0,8,56,89,A4,48,8A,A4,48,EA,
384366,000001B1,false,Rx,0,8,4B,89,A4,48,9A,A4,4C,EA,
384582,000001B2,false,Rx,0,8,57,C9,A4,4D,BA,A4,4B,EA,
384964,000001B9,false,Rx,0,8,40,A9,A4,49,9A,A4,48,EA,
385174,000001BA,false,Rx,0,8,70,A9,A4,49,9A,A4,49,EA,
385386,000001BD,false,Rx,0,8,FC,39,A4,43,4A,A4,49,EA,
385611,000001BE,false,Rx,0,8,7E,A9,A4,49,8A,A4,49,EA,
385846,000001C1,false,Rx,0,8,CB,79,A4,45,7A,A4,4A,EA,
386060,000001C2,false,Rx,0,8,FC,A9,A4,4A,9A,A4,48,EA,
386272,000001C6,false,Rx,0,8,D1,C9,A4,4C,CA,A4,4C,EA,
386488,000001C9,false,Rx,0,8,92,59,A4,45,6A,A4,49,EA,
386698,000001CA,false,Rx,0,8,F1,A9,A4,49,9A,A4,48,EA,
386908,000001CD,false,Rx,0,8,47,79,A4,47,9A,A4,49,EA,
387117,000001CE,false,Rx,0,8,05,A9,A4,4A,AA,A4,4A,EA,
389357,000000BB,false,Rx,0,8,52,EC,FF,D5,75,2B,00,1E,
389744,0000015B,false,Rx,0,8,ED,5F,00,01,00,00,00,00,
389954,18FED007,true,Rx,0,6,00,07,AB,AB,AA,AB,00,00,
390163,18FED008,true,Rx,0,7,7E,AB,0B,80,F6,FE,00,00,
390375,18FED009,true,Rx,0,7,00,00,00,00,00,00,00,00,
393909,000000BA,false,Rx,0,8,4D,4E,29,00,00,00,00,A1,
399515,000000BB,false,Rx,0,8,F7,FD,FF,D1,75,2B,00,02,
399725,0000015B,false,Rx,0,8,12,50,00,01,00,00,00,00,
399935,18FED007,true,Rx,0,6,00,07,A0,AB,9F,AB,00,00,
400144,18FED008,true,Rx,0,7,7E,AB,00,80,F6,FE,00,00,
400535,18FED009,true,Rx,0,7,00,00,00,00,00,00,00,00,
403870,000000BA,false,Rx,0,8,E4,4F,29,00,00,00,00,B0,
409421,000000BB,false,Rx,0,8,86,FE,FF,D5,75,2B,00,00,
409637,0000015B,false,Rx,0,8,BC,51,00,01,00,00,00,00,
409847,18FED007,true,Rx,0,6,00,07,AB,AB,AA,AB,00,00,
410229,000001BC,false,Rx,0,8,70,2A,A4,43,3A,A4,43,0A,
410446,000001B4,false,Rx,0,8,A5,6A,A4,46,6A,A4,47,0A,
410656,000001B8,false,Rx,0,8,3E,5A,A4,43,5A,A4,43,0A,
410866,000001C0,false,Rx,0,8,17,3A,A4,45,5A,A4,43,0A,
411076,000001B0,false,Rx,0,8,9E,2A,A4,43,2A,A4,42,0A,
411287,000001C4,false,Rx,0,8,92,3A,A4,45,5A,A4,43,0A,
411504,000001C8,false,Rx,0,8,70,6A,A4,45,5A,A4,46,0A,
411713,000001CC,false,Rx,0,8,93,5A,A4,46,6A,A4,46,0A,
411924,18FED008,true,Rx,0,7,7E,AB,0B,80,F6,FE,00,00,
412309,18FED009,true,Rx,0,7,00,00,00,00,00,00,00,00,
413913,000000BA,false,Rx,0,8,3B,40,29,00,00,00,00,A2,
414820,000001C5,false,Rx,0,8,83,2A,A4,42,CA,A3,45,0A,
415030,000001C6,false,Rx,0,8,B7,5A,A4,45,5A,A4,3D,0A,
415243,000001B1,false,Rx,0,8,31,2A,A4,42,AA,A3,45,0A,
415460,000001B2,false,Rx,0,8,BB,6A,A4,47,6A,A4,3F,0A,
415674,000001B5,false,Rx,0,8,82,7A,A4,46,FA,A3,47,0A,
415894,000001B6,false,Rx,0,8,2B,6A,A4,46,5A,A4,40,0A,
416104,000001B9,false,Rx,0,8,3E,5A,A4,42,AA,A3,47,0A,
416495,000001BA,false,Rx,0,8,A1,AA,A4,46,7A,A4,42,0A,
416705,000001BD,false,Rx,0,8,80,3A,A4,43,AA,A3,45,0A,
416926,000001BE,false,Rx,0,8,C7,5A,A4,43,3A,A4,3D,0A,
417138,000001C1,false,Rx,0,8,42,5A,A4,42,AA,A3,46,0A,
417363,000001C2,false,Rx,0,8,67,5A,A4,45,5A,A4,3C,0A,
417580,000001C9,false,Rx,0,8,A3,3A,A4,43,AA,A3,43,0A,
417804,000001CA,false,Rx,0,8,7E,3A,A4,43,3A,A4,3C,0A,
418014,000001CD,false,Rx,0,8,D8,6A,A4,45,DA,A3,45,0A,
418224,000001CE,false,Rx,0,8,EE,6A,A4,45,5A,A4,40,0A,
419485,000000BB,false,Rx,0,8,E4,EF,FF,D1,75,2B,00,04,
419695,0000015B,false,Rx,0,8,B2,52,00,01,00,00,00,00,
419904,18FED007,true,Rx,0,6,00,07,A0,AB,AA,AB,00,00,
420114,18FED008,true,Rx,0,7,7E,AB,0B,80,F6,FE,00,00,
420504,18FED009,true,Rx,0,7,00,00,00,00,00,00,00,00,
424903,000000BA,false,Rx,0,8,51,41,29,00,00,00,00,A3,
429493,000000BB,false,Rx,0,8,C0,E0,FF,D1,75,2B,00,06,
429703,0000015B,false,Rx,0,8,83,53,00,01,00,00,00,00,
429913,18FED007,true,Rx,0,6,00,07,A0,AB,9F,AB,00,00,
430123,18FED008,true,Rx,0,7,7E,AB,00,80,F6,FE,00,00,
430513,18FED009,true,Rx,0,7,00,00,00,00,00,00,00,00,
433847,000000BA,false,Rx,0,8,AF,42,29,00,00,00,00,B4,
438268,000001C4,false,Rx,0,8,F0,9B,A4,49,9A,A4,48,4A,
438484,000001B4,false,Rx,0,8,BD,7B,A4,48,7A,A4,48,4A,
438694,000001B8,false,Rx,0,8,C8,BB,A4,49,AA,A4,49,4A,
438903,000001BC,false,Rx,0,8,B6,3B,A4,44,4A,A4,44,4A,
439287,000001B0,false,Rx,0,8,54,7B,A4,48,8A,A4,48,4A,
439503,000000BB,false,Rx,0,8,19,E1,FF,D5,75,2B,00,08,
439713,0000015B,false,Rx,0,8,25,54,00,01,00,00,00,00,
439923,000001C0,false,Rx,0,8,1E,7B,A4,47,8A,A4,46,4A,
440133,000001C8,false,Rx,0,8,BD,8B,A4,46,6A,A4,46,4A,
440345,000001CC,false,Rx,0,8,D5,7B,A4,48,8A,A4,48,4A,
440562,18FED007,true,Rx,0,6,00,07,AB,AB,AA,AB,00,00,
440772,18FED008,true,Rx,0,7,7E,AB,0B,80,F6,FE,00,00,
441154,18FED009,true,Rx,0,7,00,00,00,00,00,00,00,00,
443465,000001C5,false,Rx,0,8,77,7B,A4,48,AA,A4,4C,4A,
443674,000001B5,false,Rx,0,8,4D,8B,A4,47,9A,A4,48,4A,
444058,000000BA,false,Rx,0,8,B7,43,29,00,00,00,00,A5,
444282,000001B6,false,Rx,0,8,E0,8B,A4,49,8A,A4,49,4A,
444499,000001B1,false,Rx,0,8,A1,8B,A4,48,8A,A4,4B,4A,
444709,000001B2,false,Rx,0,8,5A,BB,A4,4C,CA,A4,4A,4A,
444919,000001B9,false,Rx,0,8,95,AB,A4,49,9A,A4,48,4A,
445128,000001BA,false,Rx,0,8,74,AB,A4,48,9A,A4,49,4A,
445344,000001BD,false,Rx,0,8,9E,3B,A4,43,4A,A4,4A,4A,
445555,000001BE,false,Rx,0,8,55,AB,A4,4A,9A,A4,4A,4A,
445766,000001C1,false,Rx,0,8,97,7B,A4,45,7A,A4,4A,4A,
445976,000001C2,false,Rx,0,8,D6,AB,A4,49,AA,A4,48,4A,
446186,000001C6,false,Rx,0,8,9E,BB,A4,4C,BA,A4,4B,4A,
446398,000001C9,false,Rx,0,8,B4,6B,A4,46,6A,A4,49,4A,
446614,000001CA,false,Rx,0,8,65,9B,A4,49,9A,A4,48,4A,
446824,000001CD,false,Rx,0,8,7B,7B,A4,46,8A,A4,49,4A,
447206,000001CE,false,Rx,0,8,F9,AB,A4,4A,AA,A4,4A,4A,
449524,000000BB,false,Rx,0,8,02,E2,FF,D5,75,2B,00,0A,
449746,0000015B,false,Rx,0,8,AC,55,00,01,00,00,00,00,
449956,18FED007,true,Rx,0,6,00,07,AB,AB,AA,AB,00,00,
450181,18FED008,true,Rx,0,7,7E,AB,0B,80,F6,FE,00,00,
450392,18FED009,true,Rx,0,7,00,00,00,00,00,00,00,00,
453829,000000BA,false,Rx,0,8,8A,44,29,00,00,00,00,A6,
459420,000000BB,false,Rx,0,8,33,F3,FF,D1,75,2B,00,0C,
459635,0000015B,false,Rx,0,8,FC,56,00,01,00,00,00,00,
459844,18FED007,true,Rx,0,6,00,07,A0,AB,9F,AB,00,00,
460227,18FED008,true,Rx,0,7,7E,AB,00,80,F6,FE,00,00,
460438,18FED009,true,Rx,0,7,00,00,00,00,00,00,00,00,
463780,000000BA,false,Rx,0,8,CC,45,29,00,00,00,00,B0,
469528,000000BB,false,Rx,0,8,CE,E4,FF,D5,75,2B,00,00,
469737,0000015B,false,Rx,0,8,E7,57,00,01,00,00,00,00,
469947,18FED007,true,Rx,0,6,00,07,AB,AB,AA,AB,00,00,
470157,000001BC,false,Rx,0,8,37,2C,A4,43,3A,A4,43,0A,
470370,000001B4,false,Rx,0,8,BB,6C,A4,46,6A,A4,47,0A,
470586,000001B8,false,Rx,0,8,3A,5C,A4,43,5A,A4,43,0A,
470796,000001B0,false,Rx,0,8,CE,2C,A4,43,2A,A4,42,0A,
471006,000001C0,false,Rx,0,8,DA,3C,A4,45,5A,A4,43,0A,
471216,000001C4,false,Rx,0,8,10,3C,A4,45,5A,A4,43,0A,
471429,000001C8,false,Rx,0,8,87,6C,A4,45,5A,A4,46,0A,
471817,000001CC,false,Rx,0,8,0A,5C,A4,46,6A,A4,46,0A,
472030,18FED008,true,Rx,0,7,7E,AB,0B,80,F6,FE,00,00,
472257,18FED009,true,Rx,0,7,00,00,00,00,00,00,00,00,
473859,000000BA,false,Rx,0,8,3F,46,29,00,00,00,00,A7,
474765,000001C5,false,Rx,0,8,20,2C,A4,43,CA,A3,45,0A,
474974,000001C6,false,Rx,0,8,66,5C,A4,45,5A,A4,3D,0A,
475359,000001B1,false,Rx,0,8,5F,2C,A4,42,AA,A3,45,0A,
475574,000001B2,false,Rx,0,8,DD,6C,A4,47,6A,A4,3D,0A,
475783,000001B5,false,Rx,0,8,49,7C,A4,46,FA,A3,46,0A,
475993,000001B6,false,Rx,0,8,55,6C,A4,46,6A,A4,40,0A,
476203,000001B9,false,Rx,0,8,23,3C,A4,42,AA,A3,47,0A,
476414,000001BA,false,Rx,0,8,3F,AC,A4,46,7A,A4,42,0A,
476627,000001BD,false,Rx,0,8,AA,3C,A4,43,AA,A3,45,0A,
476837,000001BE,false,Rx,0,8,BB,5C,A4,43,3A,A4,3D,0A,
477047,000001C1,false,Rx,0,8,9F,5C,A4,42,BA,A3,46,0A,
477258,000001C2,false,Rx,0,8,C9,5C,A4,45,5A,A4,3C,0A,
477473,000001C9,false,Rx,0,8,14,5C,A4,43,AA,A3,43,0A,
477682,000001CA,false,Rx,0,8,CC,3C,A4,43,3A,A4,3C,0A,
478064,000001CD,false,Rx,0,8,BB,6C,A4,45,DA,A3,45,0A,
478275,000001CE,false,Rx,0,8,82,6C,A4,45,5A,A4,40,0A,
478490,18FED003,true,Rx,0,6,00,00,00,00,00,00,00,00,
478701,18FED004,true,Rx,0,3,00,00,00,00,00,00,00,00,
478910,18FED006,true,Rx,0,3,00,00,00,00,00,00,00,00,
479119,1A55545F,true,Rx,0,8,02,20,20,20,20,00,00,00,
479509,000000BB,false,Rx,0,8,9E,F5,FF,D5,75,2B,00,0E,
479720,0000015B,false,Rx,0,8,CD,58,00,01,00,00,00,00,
479929,18FED007,true,Rx,0,6,00,07,AB,AB,AA,AB,00,00,
480312,18FED008,true,Rx,0,7,7E,AB,0B,80,F6,FE,00,00,
480528,18FED009,true,Rx,0,7,00,00,00,00,00,00,00,00,
480738,18FED00A,true,Rx,0,8,00,00,30,1E,00,41,00,00,
484940,000000BA,false,Rx,0,8,52,47,29,00,00,00,00,A8,
489498,000000BB,false,Rx,0,8,F3,E6,FF,C9,75,2B,00,10,
489707,0000015B,false,Rx,0,8,CE,59,00,01,00,00,00,00,
489917,18FED007,true,Rx,0,6,00,07,94,AB,9F,AB,00,00,
490127,18FED008,true,Rx,0,7,7E,AB,00,80,F6,FE,00,00,
490518,18FED009,true,Rx,0,7,00,00,00,00,00,00,00,00,
493864,000000BA,false,Rx,0,8,7F,48,29,00,00,00,00,B9,
498252,000001C4,false,Rx,0,8,BA,8D,A4,49,9A,A4,48,9A,
498485,000001B4,false,Rx,0,8,61,7D,A4,48,8A,A4,47,9A,
498762,000001B8,false,Rx,0,8,15,AD,A4,4A,AA,A4,49,9A,
498978,000001BC,false,Rx,0,8,45,3D,A4,43,4A,A4,44,9A,
499187,000001B0,false,Rx,0,8,2F,8D,A4,48,8A,A4,49,9A,
499400,000001C0,false,Rx,0,8,60,7D,A4,47,8A,A4,46,9A,
499615,000000BB,false,Rx,0,8,07,F7,FF,D5,75,2B,00,12,
499998,0000015B,false,Rx,0,8,DB,5A,00,01,00,00,00,00,
500207,000001C8,false,Rx,0,8,44,7D,A4,47,6A,A4,46,9A,
500420,000001CC,false,Rx,0,8,B9,7D,A4,48,8A,A4,48,9A,
500636,18FED007,true,Rx,0,6,00,07,AB,AB,AA,AB,00,00,
500847,18FED008,true,Rx,0,7,7E,AB,0B,80,F6,FE,00,00,
501229,18FED009,true,Rx,0,7,00,00,00,00,00,00,00,00,
503531,000001C5,false,Rx,0,8,74,8D,A4,48,AA,A4,4D,9A,
503741,000001B5,false,Rx,0,8,B5,7D,A4,47,9A,A4,48,9A,
503951,000000BA,false,Rx,0,8,8F,49,29,00,00,00,00,AA,
504161,000001B6,false,Rx,0,8,51,8D,A4,49,8A,A4,47,9A,
504373,000001B1,false,Rx,0,8,BF,8D,A4,48,7A,A4,4B,9A,
504590,000001B2,false,Rx,0,8,90,BD,A4,4D,CA,A4,4B,9A,
504799,000001B9,false,Rx,0,8,DE,AD,A4,49,9A,A4,48,9A,
505182,000001BA,false,Rx,0,8,C1,AD,A4,49,9A,A4,49,9A,
505392,000001BD,false,Rx,0,8,C5,4D,A4,43,5A,A4,4A,9A,
505607,000001BE,false,Rx,0,8,F8,AD,A4,4A,9A,A4,4A,9A,
505816,000001C1,false,Rx,0,8,FE,7D,A4,45,7A,A4,4A,9A,
506025,000001C2,false,Rx,0,8,2A,AD,A4,49,AA,A4,48,9A,
506237,000001C6,false,Rx,0,8,82,CD,A4,4C,BA,A4,4B,9A,
506451,000001C9,false,Rx,0,8,41,6D,A4,46,6A,A4,49,9A,
506661,000001CA,false,Rx,0,8,89,9D,A4,49,9A,A4,48,9A,
506871,000001CD,false,Rx,0,8,49,7D,A4,47,8A,A4,49,9A,
507091,000001CE,false,Rx,0,8,E3,AD,A4,4A,AA,A4,4A,9A,
507538,1A55540A,true,Rx,0,8,00,00,00,00,00,00,00,00,
509758,1A55540B,true,Rx,0,8,00,00,00,00,FE,FE,FE,FE,
509763,1A55540C,true,Rx,0,8,00,00,00,00,00,00,00,00,
509769,1A55540D,true,Rx,0,8,00,00,00,00,FE,FE,FE,FE,
509775,1A555410,true,Rx,0,8,00,00,00,00,00,00,00,00,
509780,1A555411,true,Rx,0,8,00,00,00,00,FE,FE,FE,FE,
509785,1A555412,true,Rx,0,8,00,00,00,00,00,00,00,00,
509790,000000BB,false,Rx,0,8,56,E8,FF,D5,75,2B,00,14,
509795,0000015B,false,Rx,0,8,24,5B,00,01,00,00,00,00,
510034,18FED007,true,Rx,0,6,00,07,AB,AB,AA,AB,00,00,
510263,18FED008,true,Rx,0,7,7E,AB,0B,80,F6,FE,00,00,
510479,18FED009,true,Rx,0,7,00,00,00,00,00,00,00,00,
510689,1A555413,true,Rx,0,8,00,00,00,00,FE,FE,FE,FE,
511072,1A555414,true,Rx,0,8,00,00,00,00,00,00,00,00,
511461,1A555415,true,Rx,0,8,00,00,00,00,FE,FE,FE,FE,
511671,1A555416,true,Rx,0,8,00,00,00,00,00,00,00,00,
512054,1A555417,true,Rx,0,8,00,00,00,00,FE,FE,FE,FE,
512266,1A555418,true,Rx,0,8,00,00,00,00,00,00,00,00,
512655,1A555419,true,Rx,0,8,00,00,00,00,FE,FE,FE,FE,
512865,1A55541A,true,Rx,0,8,FE,FE,FE,FE,FE,FE,FE,FE,
513250,1A55541B,true,Rx,0,8,FE,FE,FE,FE,FE,FE,FE,FE,
513467,1A55541E,true,Rx,0,8,00,00,00,00,00,00,00,00,
513850,1A55541F,true,Rx,0,8,00,00,00,00,FE,FE,FE,FE,
514059,1BFFDA19,true,Rx,0,2,00,00,00,00,00,00,00,00,
514270,1BFFDA1A,true,Rx,0,2,00,08,00,00,00,00,00,00,
514831,000000BA,false,Rx,0,8,FA,4A,29,00,00,00,00,AB,
518012,18FED002,true,Rx,0,3,C0,00,10,00,00,00,00,00,
519439,000000BB,false,Rx,0,8,64,E9,FF,C9,75,2B,00,16,
519655,0000015B,false,Rx,0,8,1B,5C,00,01,00,00,00,00,
519864,18FED007,true,Rx,0,6,00,07,94,AB,9F,AB,00,00,
520248,18FED008,true,Rx,0,7,7E,AB,00,80,F6,FE,00,00,
520464,18FED009,true,Rx,0,7,00,00,00,00,00,00,00,00,
523815,000000BA,false,Rx,0,8,68,4B,29,00,00,00,00,B0,
529993,000000BB,false,Rx,0,8,C6,FA,FF,D5,75,2B,00,00,
529998,0000015B,false,Rx,0,8,51,5D,00,01,00,00,00,00,
530003,18FED007,true,Rx,0,6,00,07,AB,AB,AA,AB,00,00,
530312,000001C4,false,Rx,0,8,27,3E,A4,45,5A,A4,43,0A,
530318,000001B4,false,Rx,0,8,EA,6E,A4,46,6A,A4,47,0A,
530534,000001B8,false,Rx,0,8,FD,5E,A4,43,5A,A4,43,0A,
530930,000001BC,false,Rx,0,8,EB,2E,A4,43,3A,A4,43,0A,
531140,000001C8,false,Rx,0,8,09,6E,A4,45,5A,A4,46,0A,
531350,000001CC,false,Rx,0,8,26,5E,A4,46,6A,A4,46,0A,
531566,000001B0,false,Rx,0,8,F3,2E,A4,43,2A,A4,42,0A,
531776,000001C0,false,Rx,0,8,58,3E,A4,45,5A,A4,43,0A,
531986,18FED008,true,Rx,0,7,7E,AB,0B,80,F6,FE,00,00,
532370,18FED009,true,Rx,0,7,00,00,00,00,00,00,00,00,
533800,000000BA,false,Rx,0,8,F1,4C,29,00,00,00,00,AC,
534355,000001C5,false,Rx,0,8,49,2E,A4,43,CA,A3,45,0A,
534744,000001B5,false,Rx,0,8,42,6E,A4,46,FA,A3,46,0A,
534953,000001B6,false,Rx,0,8,8B,6E,A4,46,6A,A4,40,0A,
535163,000001B9,false,Rx,0,8,C8,3E,A4,42,AA,A3,47,0A,
535375,000001BA,false,Rx,0,8,01,AE,A4,46,7A,A4,42,0A,
535591,000001BD,false,Rx,0,8,10,3E,A4,43,AA,A3,45,0A,
535801,000001B1,false,Rx,0,8,A4,2E,A4,42,AA,A3,45,0A,
536011,000001B2,false,Rx,0,8,48,6E,A4,47,6A,A4,3D,0A,
536222,000001BE,false,Rx,0,8,DC,5E,A4,43,3A,A4,3D,0A,
536435,000001C1,false,Rx,0,8,A4,5E,A4,41,BA,A3,46,0A,
536659,000001C2,false,Rx,0,8,9D,5E,A4,45,5A,A4,3C,0A,
536876,000001C6,false,Rx,0,8,94,5E,A4,45,5A,A4,3D,0A,
537085,000001C9,false,Rx,0,8,E1,5E,A4,43,AA,A3,43,0A,
537297,000001CA,false,Rx,0,8,95,3E,A4,43,3A,A4,3C,0A,
537513,000001CD,false,Rx,0,8,F6,6E,A4,45,DA,A3,45,0A,
537896,000001CE,false,Rx,0,8,83,7E,A4,45,5A,A4,40,0A,
539520,000000BB,false,Rx,0,8,42,FB,FF,D5,75,2B,00,18,
539738,0000015B,false,Rx,0,8,86,5E,00,01,00,00,00,00,
539958,18FED007,true,Rx,0,6,00,07,AB,AB,AA,AB,00,00,
540167,18FED008,true,Rx,0,7,7E,AB,0B,80,F6,FE,00,00,
540380,18FED009,true,Rx,0,7,00,00,00,00,00,00,00,00,
544931,000000BA,false,Rx,0,8,52,4D,29,00,00,00,00,AD,
549636,18FED005,true,Rx,0,2,00,00,00,00,00,00,00,00,
549641,000000BB,false,Rx,0,8,5A,FC,FF,D1,75,2B,00,1A,
549646,0000015B,false,Rx,0,8,ED,5F,00,01,00,00,00,00,
549867,18FED007,true,Rx,0,6,00,07,A0,AB,9F,AB,00,00,
550250,18FED008,true,Rx,0,7,7E,AB,00,80,F6,FE,00,00,
550465,18FED009,true,Rx,0,7,00,00,00,00,00,00,00,00,
553908,000000BA,false,Rx,0,8,2C,4E,29,00,00,00,00,BE,
558340,000001C4,false,Rx,0,8,60,9F,A4,49,9A,A4,48,EA,
558548,000001B4,false,Rx,0,8,4F,7F,A4,48,8A,A4,48,EA,
558765,000001B8,false,Rx,0,8,48,AF,A4,4A,AA,A4,49,EA,
558975,000001BC,false,Rx,0,8,80,3F,A4,43,4A,A4,44,EA,
559185,000001B0,false,Rx,0,8,E4,7F,A4,48,9A,A4,48,EA,
559397,000000BB,false,Rx,0,8,B6,CD,FF,D1,75,2B,00,1C,
559786,0000015B,false,Rx,0,8,12,50,00,01,00,00,00,00,
559996,000001C0,false,Rx,0,8,A8,6F,A4,47,8A,A4,46,EA,
560206,000001C8,false,Rx,0,8,8D,8F,A4,46,6A,A4,47,EA,
560417,000001CC,false,Rx,0,8,A8,7F,A4,48,7A,A4,48,EA,
560633,18FED007,true,Rx,0,6,00,07,A0,AB,AA,AB,00,00,
560843,18FED008,true,Rx,0,7,7E,AB,0B,80,F6,FE,00,00,
561225,18FED009,true,Rx,0,7,00,00,00,00,00,00,00,00,
563521,000001C5,false,Rx,0,8,2F,8F,A4,48,AA,A4,4B,EA,
563737,000001B5,false,Rx,0,8,8E,8F,A4,47,9A,A4,48,EA,
563947,000000BA,false,Rx,0,8,85,4F,29,00,00,00,00,AF,
564157,000001B6,false,Rx,0,8,DA,8F,A4,48,8A,A4,48,EA,
564368,000001B1,false,Rx,0,8,6E,8F,A4,48,8A,A4,4B,EA,
564756,000001B2,false,Rx,0,8,03,CF,A4,4D,CA,A4,4B,EA,
564964,000001B9,false,Rx,0,8,DB,AF,A4,49,9A,A4,48,EA,
565174,000001BA,false,Rx,0,8,30,AF,A4,49,9A,A4,4A,EA,
565386,000001BD,false,Rx,0,8,5C,3F,A4,43,4A,A4,49,EA,
565601,000001BE,false,Rx,0,8,B9,BF,A4,49,9A,A4,49,EA,
565811,000001C1,false,Rx,0,8,48,7F,A4,46,7A,A4,4A,EA,
566021,000001C2,false,Rx,0,8,A7,AF,A4,49,AA,A4,47,EA,
566230,000001C6,false,Rx,0,8,D5,BF,A4,4C,BA,A4,4B,EA,
566447,000001C9,false,Rx,0,8,8B,5F,A4,45,6A,A4,49,EA,
566657,000001CA,false,Rx,0,8,24,AF,A4,48,9A,A4,48,EA,
566866,000001CD,false,Rx,0,8,31,7F,A4,46,9A,A4,49,EA,
567250,000001CE,false,Rx,0,8,25,AF,A4,4A,AA,A4,4A,EA,
569624,000000BB,false,Rx,0,8,C7,CE,FF,D5,75,2B,00,1E,
569629,0000015B,false,Rx,0,8,BC,51,00,01,00,00,00,00,
569850,18FED007,true,Rx,0,6,00,07,AB,AB,AA,AB,00,00,
570233,18FED008,true,Rx,0,7,7E,AB,0B,80,F6,FE,00,00,
570449,18FED009,true,Rx,0,7,00,00,00,00,00,00,00,00,
573928,000000BA,false,Rx,0,8,2F,40,29,00,00,00,00,A1,
579528,000000BB,false,Rx,0,8,8A,CF,FF,C9,75,2B,00,02,
579738,0000015B,false,Rx,0,8,B2,52,00,01,00,00,00,00,
579947,18FED007,true,Rx,0,6,00,07,94,AB,9F,AB,00,00,
580158,18FED008,true,Rx,0,7,7E,AB,00,80,F6,FE,00,00,
580548,18FED009,true,Rx,0,7,00,00,00,00,00,00,00,00,
580758,18FED00A,true,Rx,0,8,00,00,30,1E,00,41,00,00,
583921,000000BA,false,Rx,0,8,60,41,29,00,00,00,00,B0,
589677,16A95419,true,Rx,0,8,AA,AA,8A,20,00,00,A0,80,
589682,000000BB,false,Rx,0,8,97,E0,FF,D5,75,2B,00,00,
589687,0000015B,false,Rx,0,8,83,53,00,01,00,00,00,00,
589907,18FED007,true,Rx,0,6,00,07,AB,AB,AA,AB,00,00,
590117,000001B4,false,Rx,0,8,68,60,A4,46,6A,A4,47,0A,
590328,000001B8,false,Rx,0,8,CF,50,A4,43,5A,A4,43,0A,
590544,000001BC,false,Rx,0,8,31,20,A4,43,3A,A4,43,0A,
590926,000001B0,false,Rx,0,8,54,20,A4,43,2A,A4,42,0A,
591135,000001C0,false,Rx,0,8,B0,30,A4,45,5A,A4,43,0A,
591347,000001C4,false,Rx,0,8,8A,30,A4,45,5A,A4,43,0A,
591566,000001C8,false,Rx,0,8,C8,60,A4,46,5A,A4,46,0A,
591788,000001CC,false,Rx,0,8,8B,50,A4,46,6A,A4,46,0A,
591998,18FED008,true,Rx,0,7,7E,AB,0B,80,F6,FE,00,00,
592208,18FED009,true,Rx,0,7,00,00,00,00,00,00,00,00,
593812,000000BA,false,Rx,0,8,A2,42,29,00,00,00,00,A2,
594718,000001C5,false,Rx,0,8,90,20,A4,43,CA,A3,45,0A,
595110,000001C6,false,Rx,0,8,99,50,A4,45,5A,A4,3D,0A,
595336,000001B1,false,Rx,0,8,00,20,A4,42,AA,A3,45,0A,
595561,000001B2,false,Rx,0,8,0D,60,A4,47,6A,A4,3D,0A,
595781,000001B5,false,Rx,0,8,F0,60,A4,46,FA,A3,46,0A,
595990,000001B6,false,Rx,0,8,B1,60,A4,46,6A,A4,40,0A,
596200,000001B9,false,Rx,0,8,30,30,A4,42,AA,A3,47,0A,
596411,000001BA,false,Rx,0,8,66,A0,A4,46,7A,A4,42,0A,
596628,000001BD,false,Rx,0,8,03,30,A4,43,AA,A3,45,0A,
596838,000001BE,false,Rx,0,8,8E,50,A4,43,3A,A4,3D,0A,
597049,000001C1,false,Rx,0,8,F1,50,A4,41,BA,A3,45,0A,
597260,000001C2,false,Rx,0,8,19,50,A4,45,5A,A4,3C,0A,
597468,000001C9,false,Rx,0,8,94,30,A4,43,AA,A3,43,0A,
597857,000001CA,false,Rx,0,8,C4,50,A4,43,3A,A4,3C,0A,
598067,000001CD,false,Rx,0,8,4E,60,A4,45,DA,A3,45,0A,
598278,000001CE,false,Rx,0,8,E4,70,A4,45,5A,A4,40,0A,
599537,000000BB,false,Rx,0,8,36,E1,FF,D1,75,2B,00,04,
599747,0000015B,false,Rx,0,8,25,54,00,01,00,00,00,00,
599956,18FED007,true,Rx,0,6,00,07,A0,AB,AA,AB,00,00,
600166,18FED008,true,Rx,0,7,7E,AB,0B,80,F6,FE,00,00,
600558,18FED009,true,Rx,0,7,00,00,00,00,00,00,00,00,
604935,000000BA,false,Rx,0,8,9F,43,29,00,00,00,00,A3,
609766,000000BB,false,Rx,0,8,8F,F2,FF,D1,75,2B,00,06,
609771,0000015B,false,Rx,0,8,AC,55,00,01,00,00,00,00,
609992,18FED007,true,Rx,0,6,00,07,A0,AB,9F,AB,00,00,
610201,18FED008,true,Rx,0,7,7E,AB,00,80,F6,FE,00,00,
610414,18FED009,true,Rx,0,7,00,00,00,00,00,00,00,00,
613927,000000BA,false,Rx,0,8,52,44,29,00,00,00,00,B4,
618385,000001C4,false,Rx,0,8,73,81,A4,49,9A,A4,48,4A,
618601,000001B4,false,Rx,0,8,3A,71,A4,48,8A,A4,47,4A,
618811,000001B8,false,Rx,0,8,77,A1,A4,4A,AA,A4,49,4A,
619020,000001BC,false,Rx,0,8,BA,31,A4,44,3A,A4,44,4A,
619231,000001B0,false,Rx,0,8,ED,71,A4,48,8A,A4,48,4A,
619448,000001C0,false,Rx,0,8,99,71,A4,47,8A,A4,46,4A,
619658,000000BB,false,Rx,0,8,44,E3,FF,D1,75,2B,00,08,
619867,0000015B,false,Rx,0,8,FC,56,00,01,00,00,00,00,
620077,000001C8,false,Rx,0,8,94,71,A4,46,6A,A4,46,4A,
620289,000001CC,false,Rx,0,8,DA,71,A4,48,7A,A4,48,4A,
620677,18FED007,true,Rx,0,6,00,07,A0,AB,AA,AB,00,00,
620887,18FED008,true,Rx,0,7,7E,AB,0B,80,F6,FE,00,00,
621097,18FED009,true,Rx,0,7,00,00,00,00,00,00,00,00,
623585,000001C5,false,Rx,0,8,D0,71,A4,49,AA,A4,4B,4A,
623795,000001B5,false,Rx,0,8,7C,81,A4,47,9A,A4,48,4A,
624005,000000BA,false,Rx,0,8,D5,45,29,00,00,00,00,A5,
624214,000001B6,false,Rx,0,8,E7,81,A4,48,8A,A4,48,4A,
624426,000001B1,false,Rx,0,8,08,71,A4,48,8A,A4,4B,4A,
624642,000001B2,false,Rx,0,8,B0,C1,A4,4D,CA,A4,4B,4A,
625023,000001B9,false,Rx,0,8,1F,A1,A4,49,8A,A4,48,4A,
625234,000001BA,false,Rx,0,8,0C,B1,A4,48,8A,A4,49,4A,
625450,000001BD,false,Rx,0,8,13,41,A4,43,4A,A4,4A,4A,
625659,000001BE,false,Rx,0,8,AC,A1,A4,49,9A,A4,4A,4A,
625869,000001C1,false,Rx,0,8,B6,71,A4,46,7A,A4,4A,4A,
626079,000001C2,false,Rx,0,8,5C,91,A4,49,9A,A4,48,4A,
626288,000001C6,false,Rx,0,8,3C,B1,A4,4C,BA,A4,4C,4A,
626505,000001C9,false,Rx,0,8,44,61,A4,45,6A,A4,4A,4A,
626714,000001CA,false,Rx,0,8,8F,91,A4,49,9A,A4,48,4A,
626924,000001CD,false,Rx,0,8,E7,71,A4,47,9A,A4,49,4A,
627134,000001CE,false,Rx,0,8,F2,A1,A4,4A,AA,A4,4A,4A,
629894,000000BB,false,Rx,0,8,A2,C4,FF,D1,75,2B,00,0A,
629899,0000015B,false,Rx,0,8,E7,57,00,01,00,00,00,00,
629904,18FED007,true,Rx,0,6,00,07,A0,AB,AA,AB,00,00,
630124,18FED008,true,Rx,0,7,7E,AB,0B,80,F6,FE,00,00,
630514,18FED009,true,Rx,0,7,00,00,00,00,00,00,00,00,
633863,000000BA,false,Rx,0,8,D6,46,29,00,00,00,00,A6,
639469,000000BB,false,Rx,0,8,BE,E5,FF,D1,75,2B,00,0C,
639678,0000015B,false,Rx,0,8,CD,58,00,01,00,00,00,00,
639888,18FED007,true,Rx,0,6,00,07,A0,AB,9F,AB,00,00,
640272,18FED008,true,Rx,0,7,7E,AB,00,80,F6,FE,00,00,
640488,18FED009,true,Rx,0,7,00,00,00,00,00,00,00,00,
643823,000000BA,false,Rx,0,8,F2,47,29,00,00,00,00,B0,
649766,000000BB,false,Rx,0,8,26,F6,FF,D5,75,2B,00,00,
649771,0000015B,false,Rx,0,8,CE,59,00,01,00,00,00,00,
649991,18FED007,true,Rx,0,6,00,07,AB,AB,AA,AB,00,00,
650201,000001B4,false,Rx,0,8,FF,62,A4,46,6A,A4,47,0A,
650411,000001B8,false,Rx,0,8,E4,52,A4,43,5A,A4,43,0A,
650628,000001BC,false,Rx,0,8,52,22,A4,43,3A,A4,43,0A,
650837,000001B0,false,Rx,0,8,EC,22,A4,43,2A,A4,42,0A,
651047,000001C0,false,Rx,0,8,6D,32,A4,45,5A,A4,43,0A,
651259,000001C4,false,Rx,0,8,14,32,A4,45,5A,A4,43,0A,
651473,000001C8,false,Rx,0,8,19,62,A4,46,5A,A4,46,0A,
651681,000001CC,false,Rx,0,8,C7,52,A4,46,6A,A4,46,0A,
652064,18FED008,true,Rx,0,7,7E,AB,0B,80,F6,FE,00,00,
652276,18FED009,true,Rx,0,7,00,00,00,00,00,00,00,00,
653896,000000BA,false,Rx,0,8,F7,48,29,00,00,00,00,A7,
654802,000001C5,false,Rx,0,8,A4,22,A4,43,CA,A3,45,0A,
655012,000001C6,false,Rx,0,8,56,52,A4,45,5A,A4,3D,0A,
655221,000001B1,false,Rx,0,8,64,22,A4,42,AA,A3,45,0A,
655433,000001B2,false,Rx,0,8,E6,62,A4,47,6A,A4,3F,0A,
655649,000001B5,false,Rx,0,8,F9,62,A4,46,FA,A3,46,0A,
656031,000001B6,false,Rx,0,8,E7,62,A4,46,6A,A4,40,0A,
656241,000001B9,false,Rx,0,8,03,32,A4,42,AA,A3,47,0A,
656457,000001BA,false,Rx,0,8,06,A2,A4,46,7A,A4,42,0A,
656667,000001BD,false,Rx,0,8,4E,32,A4,43,AA,A3,45,0A,
656890,000001BE,false,Rx,0,8,D3,52,A4,43,3A,A4,3D,0A,
657116,000001C1,false,Rx,0,8,B2,52,A4,42,BA,A3,45,0A,
657372,000001C2,false,Rx,0,8,99,52,A4,45,5A,A4,3C,0A,
657596,000001C9,false,Rx,0,8,62,32,A4,43,AA,A3,43,0A,
657806,000001CA,false,Rx,0,8,31,32,A4,43,3A,A4,3C,0A,
658016,000001CD,false,Rx,0,8,BD,62,A4,45,DA,A3,45,0A,
658226,000001CE,false,Rx,0,8,B6,72,A4,45,5A,A4,40,0A,
659485,000000BB,false,Rx,0,8,72,F7,FF,D5,75,2B,00,0E,
659695,0000015B,false,Rx,0,8,DB,5A,00,01,00,00,00,00,
659905,18FED007,true,Rx,0,6,00,07,AB,AB,AA,AB,00,00,
660115,18FED008,true,Rx,0,7,7E,AB,0B,80,F6,FE,00,00,
660505,18FED009,true,Rx,0,7,00,00,00,00,00,00,00,00,
664884,000000BA,false,Rx,0,8,72,49,29,00,00,00,00,A8,
669911,000000BB,false,Rx,0,8,73,F8,FF,C9,75,2B,00,10,
669916,0000015B,false,Rx,0,8,24,5B,00,01,00,00,00,00,
669921,18FED007,true,Rx,0,6,00,07,94,AB,9F,AB,00,00,
670142,18FED008,true,Rx,0,7,7E,AB,00,80,F6,FE,00,00,
670532,18FED009,true,Rx,0,7,00,00,00,00,00,00,00,00,
673879,000000BA,false,Rx,0,8,22,4A,29,00,00,00,00,B9,
678275,000001C4,false,Rx,0,8,0A,83,A4,49,9A,A4,49,9A,
678491,000001B4,false,Rx,0,8,E4,73,A4,48,7A,A4,48,9A,
678701,000001B8,false,Rx,0,8,DD,A3,A4,4A,AA,A4,48,9A,
679102,000001BC,false,Rx,0,8,2B,33,A4,43,3A,A4,44,9A,
679328,000001B0,false,Rx,0,8,7D,83,A4,48,8A,A4,48,9A,
679624,000001C0,false,Rx,0,8,16,73,A4,48,8A,A4,46,9A,
679629,000000BB,false,Rx,0,8,41,F9,FF,D5,75,2B,00,12,
679902,0000015B,false,Rx,0,8,1B,5C,00,01,00,00,00,00,
680112,000001C8,false,Rx,0,8,EE,83,A4,47,6A,A4,47,9A,
680324,000001CC,false,Rx,0,8,FF,73,A4,48,8A,A4,48,9A,
680712,18FED007,true,Rx,0,6,00,07,AB,AB,AA,AB,00,00,
680922,18FED008,true,Rx,0,7,7E,AB,0B,80,F6,FE,00,00,
681132,18FED009,true,Rx,0,7,00,00,00,00,00,00,00,00,
681523,18FED00A,true,Rx,0,8,00,00,30,1E,00,41,00,00,
683464,000001C5,false,Rx,0,8,89,83,A4,48,AA,A4,4C,9A,
683853,000001B5,false,Rx,0,8,3D,83,A4,47,8A,A4,48,9A,
684063,000000BA,false,Rx,0,8,35,4B,29,00,00,00,00,AA,
684275,000001B6,false,Rx,0,8,97,83,A4,48,8A,A4,48,9A,
684491,000001B1,false,Rx,0,8,45,83,A4,48,9A,A4,4B,9A,
684701,000001B2,false,Rx,0,8,86,B3,A4,4D,CA,A4,4C,9A,
684910,000001B9,false,Rx,0,8,39,A3,A4,49,9A,A4,48,9A,
685120,000001BA,false,Rx,0,8,10,A3,A4,49,9A,A4,49,9A,
685332,000001BD,false,Rx,0,8,42,43,A4,43,4A,A4,4A,9A,
685549,000001BE,false,Rx,0,8,68,A3,A4,49,9A,A4,4A,9A,
685758,000001C1,false,Rx,0,8,3C,73,A4,46,7A,A4,4A,9A,
685968,000001C2,false,Rx,0,8,6C,A3,A4,4A,9A,A4,47,9A,
686178,000001C6,false,Rx,0,8,A4,B3,A4,4C,CA,A4,4B,9A,
686569,000001C9,false,Rx,0,8,FA,53,A4,45,6A,A4,49,9A,
686778,000001CA,false,Rx,0,8,CD,93,A4,49,9A,A4,48,9A,
686988,000001CD,false,Rx,0,8,9A,73,A4,47,9A,A4,49,9A,
687198,000001CE,false,Rx,0,8,85,A3,A4,4A,AA,A4,4A,9A,
689947,000000BB,false,Rx,0,8,36,FA,FF,D5,75,2B,00,14,
689953,0000015B,false,Rx,0,8,51,5D,00,01,00,00,00,00,
689958,18FED007,true,Rx,0,6,00,07,AB,AB,AA,AB,00,00,
690179,18FED008,true,Rx,0,7,7E,AB,0B,80,F6,FE,00,00,
690571,18FED009,true,Rx,0,7,00,00,00,00,00,00,00,00,
693940,000000BA,false,Rx,0,8,30,4C,29,00,00,00,00,AB,
699542,000000BB,false,Rx,0,8,BD,FB,FF,C9,75,2B,00,16,
699752,0000015B,false,Rx,0,8,86,5E,00,01,00,00,00,00,
699962,18FED007,true,Rx,0,6,00,07,94,AB,9F,AB,00,00,
700173,18FED008,true,Rx,0,7,7E,AB,00,80,F6,FE,00,00,
700563,18FED009,true,Rx,0,7,00,00,00,00,00,00,00,00,
703806,000000BA,false,Rx,0,8,CE,4D,29,00,00,00,00,B0,
709910,000000BB,false,Rx,0,8,A5,EC,FF,D1,75,2B,00,00,
709915,0000015B,false,Rx,0,8,ED,5F,00,01,00,00,00,00,
709920,18FED007,true,Rx,0,6,00,07,A0,AB,AA,AB,00,00,
710141,000001BC,false,Rx,0,8,6D,24,A4,43,3A,A4,43,0A,
710360,000001B4,false,Rx,0,8,3A,64,A4,46,6A,A4,47,0A,
710587,000001B8,false,Rx,0,8,F3,54,A4,43,5A,A4,43,0A,
710796,000001B0,false,Rx,0,8,27,24,A4,43,2A,A4,42,0A,
711006,000001C0,false,Rx,0,8,5B,34,A4,45,5A,A4,43,0A,
711390,000001C4,false,Rx,0,8,6E,34,A4,45,5A,A4,43,0A,
711601,000001C8,false,Rx,0,8,AE,64,A4,46,5A,A4,46,0A,
711811,000001CC,false,Rx,0,8,99,54,A4,46,6A,A4,46,0A,
712021,18FED008,true,Rx,0,7,7E,AB,0B,80,F6,FE,00,00,
712232,18FED009,true,Rx,0,7,00,00,00,00,00,00,00,00,
713834,000000BA,false,Rx,0,8,F4,4E,29,00,00,00,00,AC,
714742,000001C5,false,Rx,0,8,0F,24,A4,43,CA,A3,45,0A,
715124,000001C6,false,Rx,0,8,DF,54,A4,45,5A,A4,3D,0A,
715337,000001B1,false,Rx,0,8,AF,24,A4,42,AA,A3,45,0A,
715554,000001B2,false,Rx,0,8,DC,64,A4,47,6A,A4,3F,0A,
715779,000001B5,false,Rx,0,8,DF,64,A4,46,FA,A3,46,0A,
715997,000001B6,false,Rx,0,8,50,64,A4,46,6A,A4,40,0A,
716206,000001B9,false,Rx,0,8,28,34,A4,42,AA,A3,47,0A,
716417,000001BA,false,Rx,0,8,DA,A4,A4,46,7A,A4,42,0A,
716633,000001BD,false,Rx,0,8,33,34,A4,43,AA,A3,43,0A,
716843,000001BE,false,Rx,0,8,C0,54,A4,43,3A,A4,3D,0A,
717053,000001C1,false,Rx,0,8,80,54,A4,42,BA,A3,45,0A,
717265,000001C2,false,Rx,0,8,2C,54,A4,45,5A,A4,3C,0A,
717473,000001C9,false,Rx,0,8,22,34,A4,43,AA,A3,43,0A,
717690,000001CA,false,Rx,0,8,12,34,A4,43,3A,A4,3C,0A,
718072,000001CD,false,Rx,0,8,C7,64,A4,45,DA,A3,45,0A,
718282,000001CE,false,Rx,0,8,DC,74,A4,45,5A,A4,40,0A,
719540,000000BB,false,Rx,0,8,AA,FD,FF,D1,75,2B,00,18,
719749,0000015B,false,Rx,0,8,12,50,00,01,00,00,00,00,
719959,18FED007,true,Rx,0,6,00,07,A0,AB,AA,AB,00,00,
720169,18FED008,true,Rx,0,7,7E,AB,0B,80,F6,FE,00,00,
720559,18FED009,true,Rx,0,7,00,00,00,00,00,00,00,00,
724796,000000BA,false,Rx,0,8,78,4F,29,00,00,00,00,AD,
730058,000000BB,false,Rx,0,8,06,EE,FF,D1,75,2B,00,1A,
730063,0000015B,false,Rx,0,8,BC,51,00,01,00,00,00,00,
730068,18FED007,true,Rx,0,6,00,07,A0,AB,9F,AB,00,00,
730289,18FED008,true,Rx,0,7,7E,AB,00,80,F6,FE,00,00,
730513,18FED009,true,Rx,0,7,00,00,00,00,00,00,00,00,
733946,000000BA,false,Rx,0,8,4E,40,29,00,00,00,00,BE,
738326,000001C4,false,Rx,0,8,55,95,A4,49,9A,A4,48,EA,
738535,000001B4,false,Rx,0,8,F1,75,A4,48,7A,A4,47,EA,
738752,000001B8,false,Rx,0,8,E0,A5,A4,4A,AA,A4,49,EA,
738962,000001BC,false,Rx,0,8,C8,35,A4,43,4A,A4,45,EA,
739172,000001B0,false,Rx,0,8,1B,75,A4,48,8A,A4,48,EA,
739384,000001C0,false,Rx,0,8,33,65,A4,48,8A,A4,46,EA,
739599,000000BB,false,Rx,0,8,99,FF,FF,D5,75,2B,00,1C,
739982,0000015B,false,Rx,0,8,B2,52,00,01,00,00,00,00,
740192,000001C8,false,Rx,0,8,E7,75,A4,46,6A,A4,47,EA,
740403,000001CC,false,Rx,0,8,0C,75,A4,48,8A,A4,48,EA,
740619,18FED007,true,Rx,0,6,00,07,AB,AB,AA,AB,00,00,
740828,18FED008,true,Rx,0,7,7E,AB,0B,80,F6,FE,00,00,
741223,18FED009,true,Rx,0,7,00,00,00,00,00,00,00,00,
743549,000001C5,false,Rx,0,8,BD,85,A4,48,AA,A4,4C,EA,
743759,000001B5,false,Rx,0,8,02,85,A4,47,8A,A4,48,EA,
743969,000000BA,false,Rx,0,8,01,41,29,00,00,00,00,AF,
744180,000001B6,false,Rx,0,8,8A,85,A4,48,9A,A4,47,EA,
744391,000001B1,false,Rx,0,8,41,85,A4,48,9A,A4,4C,EA,
744608,000001B2,false,Rx,0,8,CF,C5,A4,4D,BA,A4,4B,EA,
744818,000001B9,false,Rx,0,8,B1,A5,A4,49,9A,A4,48,EA,
745199,000001BA,false,Rx,0,8,0E,A5,A4,48,9A,A4,49,EA,
745411,000001BD,false,Rx,0,8,88,35,A4,43,4A,A4,4A,EA,
745627,000001BE,false,Rx,0,8,D6,A5,A4,4A,9A,A4,4A,EA,
745836,000001C1,false,Rx,0,8,2C,75,A4,45,7A,A4,4A,EA,
746046,000001C2,false,Rx,0,8,87,A5,A4,49,AA,A4,47,EA,
746259,000001C6,false,Rx,0,8,D1,C5,A4,4B,BA,A4,4B,EA,
746474,000001C9,false,Rx,0,8,61,55,A4,45,5A,A4,4A,EA,
746684,000001CA,false,Rx,0,8,77,95,A4,49,9A,A4,48,EA,
746894,000001CD,false,Rx,0,8,5E,75,A4,47,9A,A4,49,EA,
747105,000001CE,false,Rx,0,8,FA,A5,A4,4A,AA,A4,4A,EA,
750347,000000BB,false,Rx,0,8,60,E0,FF,D1,75,2B,00,1E,
750352,0000015B,false,Rx,0,8,83,53,00,01,00,00,00,00,
750357,18FED007,true,Rx,0,6,00,07,A0,AB,AA,AB,00,00,
750362,18FED008,true,Rx,0,7,7E,AB,0B,80,F6,FE,00,00,
750588,18FED009,true,Rx,0,7,00,00,00,00,00,00,00,00,
753923,000000BA,false,Rx,0,8,B6,42,29,00,00,00,00,A1,
759537,000000BB,false,Rx,0,8,BC,F1,FF,D1,75,2B,00,02,
759747,0000015B,false,Rx,0,8,25,54,00,01,00,00,00,00,
759957,18FED007,true,Rx,0,6,00,07,A0,AB,9F,AB,00,00,
760166,18FED008,true,Rx,0,7,7E,AB,00,80,F6,FE,00,00,
760577,18FED009,true,Rx,0,7,00,00,00,00,00,00,00,00,
763947,000000BA,false,Rx,0,8,AE,43,29,00,00,00,00,B0,
770410,000000BB,false,Rx,0,8,A7,F2,FF,D1,75,2B,00,00,
770415,0000015B,false,Rx,0,8,AC,55,00,01,00,00,00,00,
770420,18FED007,true,Rx,0,6,00,07,A0,AB,AA,AB,00,00,
770425,000001B4,false,Rx,0,8,D9,66,A4,46,6A,A4,47,0A,
770430,000001B8,false,Rx,0,8,AE,56,A4,43,5A,A4,43,0A,
770657,000001BC,false,Rx,0,8,F4,26,A4,43,3A,A4,43,0A,
770867,000001B0,false,Rx,0,8,C2,26,A4,43,2A,A4,42,0A,
771077,000001C0,false,Rx,0,8,9A,36,A4,45,5A,A4,43,0A,
771289,000001C4,false,Rx,0,8,FA,36,A4,45,5A,A4,43,0A,
771501,000001C8,false,Rx,0,8,30,66,A4,46,5A,A4,46,0A,
771717,000001CC,false,Rx,0,8,6E,56,A4,46,6A,A4,46,0A,
772108,18FED008,true,Rx,0,7,7E,AB,0B,80,F6,FE,00,00,
772319,18FED009,true,Rx,0,7,00,00,00,00,00,00,00,00,
773922,000000BA,false,Rx,0,8,5F,44,29,00,00,00,00,A2,
774830,000001C5,false,Rx,0,8,25,26,A4,43,CA,A3,45,0A,
775039,000001C6,false,Rx,0,8,EF,56,A4,45,5A,A4,3D,0A,
775250,000001B1,false,Rx,0,8,53,26,A4,42,AA,A3,45,0A,
775466,000001B2,false,Rx,0,8,D4,66,A4,47,6A,A4,3F,0A,
775676,000001B5,false,Rx,0,8,1A,66,A4,46,FA,A3,46,0A,
775886,000001B6,false,Rx,0,8,FA,66,A4,46,6A,A4,40,0A,
776096,000001B9,false,Rx,0,8,9E,36,A4,42,AA,A3,47,0A,
776486,000001BA,false,Rx,0,8,62,A6,A4,46,7A,A4,42,0A,
776696,000001BD,false,Rx,0,8,BA,36,A4,43,AA,A3,43,0A,
776906,000001BE,false,Rx,0,8,5A,56,A4,43,2A,A4,3D,0A,
777116,000001C1,false,Rx,0,8,F5,56,A4,42,BA,A3,45,0A,
777328,000001C2,false,Rx,0,8,78,56,A4,45,5A,A4,3C,0A,
777543,000001C9,false,Rx,0,8,1F,36,A4,43,AA,A3,43,0A,
777753,000001CA,false,Rx,0,8,2F,36,A4,43,3A,A4,3C,0A,
777963,000001CD,false,Rx,0,8,57,66,A4,45,DA,A3,45,0A,
778173,000001CE,false,Rx,0,8,C4,76,A4,45,5A,A4,40,0A,
779428,000000BB,false,Rx,0,8,B6,F3,FF,D1,75,2B,00,04,
779644,0000015B,false,Rx,0,8,FC,56,00,01,00,00,00,00,
780026,18FED007,true,Rx,0,6,00,07,A0,AB,AA,AB,00,00,
780237,18FED008,true,Rx,0,7,7E,AB,0B,80,F6,FE,00,00,
780454,18FED009,true,Rx,0,7,00,00,00,00,00,00,00,00,
780835,18FED00A,true,Rx,0,8,00,00,30,1E,00,41,00,00,
784830,000000BA,false,Rx,0,8,FD,45,29,00,00,00,00,A3,
790519,000000BB,false,Rx,0,8,3B,F4,FF,D1,75,2B,00,06,
790524,0000015B,false,Rx,0,8,E7,57,00,01,00,00,00,00,
790530,18FED007,true,Rx,0,6,00,07,A0,AB,9F,AB,00,00,
790534,18FED008,true,Rx,0,7,7E,AB,00,80,F6,FE,00,00,
790539,18FED009,true,Rx,0,7,00,00,00,00,00,00,00,00,
793882,000000BA,false,Rx,0,8,0E,46,29,00,00,00,00,B4,
798275,000001C4,false,Rx,0,8,47,87,A4,49,9A,A4,48,4A,
798490,000001B4,false,Rx,0,8,08,77,A4,48,7A,A4,48,4A,
798700,000001B8,false,Rx,0,8,59,A7,A4,4A,AA,A4,49,4A,
799082,000001BC,false,Rx,0,8,25,37,A4,43,4A,A4,44,4A,
799291,000001B0,false,Rx,0,8,F2,77,A4,48,8A,A4,48,4A,
799508,000001C0,false,Rx,0,8,9B,67,A4,47,8A,A4,46,4A,
799717,000000BB,false,Rx,0,8,00,C5,FF,D1,75,2B,00,08,
799927,0000015B,false,Rx,0,8,CD,58,00,01,00,00,00,00,
800137,000001C8,false,Rx,0,8,E2,77,A4,46,6A,A4,46,4A,
800349,000001CC,false,Rx,0,8,EB,77,A4,48,8A,A4,48,4A,
800565,18FED007,true,Rx,0,6,00,07,A0,AB,AA,AB,00,00,
800945,18FED008,true,Rx,0,7,7E,AB,0B,80,F6,FE,00,00,
801155,18FED009,true,Rx,0,7,00,00,00,00,00,00,00,00,
803620,000001C5,false,Rx,0,8,AC,87,A4,48,AA,A4,4C,4A,
803836,000001B5,false,Rx,0,8,76,77,A4,47,8A,A4,48,4A,
804046,000000BA,false,Rx,0,8,EB,47,29,00,00,00,00,A5,
804258,000001B6,false,Rx,0,8,A4,87,A4,48,8A,A4,48,4A,
804474,000001B1,false,Rx,0,8,51,87,A4,48,9A,A4,4B,4A,
804683,000001B2,false,Rx,0,8,DB,B7,A4,4C,CA,A4,4B,4A,
804892,000001B9,false,Rx,0,8,85,B7,A4,49,9A,A4,48,4A,
805104,000001BA,false,Rx,0,8,D9,A7,A4,48,9A,A4,49,4A,
805326,000001BD,false,Rx,0,8,1C,37,A4,44,4A,A4,4A,4A,
805562,000001BE,false,Rx,0,8,D6,A7,A4,4A,9A,A4,4A,4A,
805803,000001C1,false,Rx,0,8,21,77,A4,46,7A,A4,4A,4A,
806013,000001C2,false,Rx,0,8,5A,A7,A4,49,9A,A4,48,4A,
806223,000001C6,false,Rx,0,8,A4,C7,A4,4C,BA,A4,4C,4A,
806435,000001C9,false,Rx,0,8,6E,57,A4,46,6A,A4,49,4A,
806652,000001CA,false,Rx,0,8,D0,97,A4,49,9A,A4,48,4A,
806862,000001CD,false,Rx,0,8,ED,77,A4,47,9A,A4,49,4A,
807072,000001CE,false,Rx,0,8,4F,A7,A4,4A,AA,A4,4A,4A,
810591,000000BB,false,Rx,0,8,83,E6,FF,D1,75,2B,00,0A,
810597,0000015B,false,Rx,0,8,CE,59,00,01,00,00,00,00,
810602,18FED007,true,Rx,0,6,00,07,A0,AB,9F,AB,00,00,
810606,18FED008,true,Rx,0,7,7E,AB,0B,80,F6,FE,00,00,
810611,18FED009,true,Rx,0,7,00,00,00,00,00,00,00,00,
813786,000000BA,false,Rx,0,8,1E,48,29,00,00,00,00,A6,
819482,000000BB,false,Rx,0,8,52,E7,FF,D1,75,2B,00,0C,
819692,0000015B,false,Rx,0,8,DB,5A,00,01,00,00,00,00,
819902,18FED007,true,Rx,0,6,00,07,A0,AB,93,AB,00,00,
820286,18FED008,true,Rx,0,7,7E,AB,00,80,F6,FE,00,00,
820502,18FED009,true,Rx,0,7,00,00,00,00,00,00,00,00,
820712,1A555401,true,Rx,0,8,67,40,00,00,FE,FE,FE,FE,
821094,1A555402,true,Rx,0,8,64,40,00,00,FE,FE,FE,FE,
821305,1A555403,true,Rx,0,8,64,40,00,00,FE,FE,FE,FE,
821522,16A9541A,true,Rx,0,8,88,A0,80,AA,A0,A0,AA,AA,
821904,16A9541B,true,Rx,0,8,88,A0,80,AA,A0,A0,AA,AA,
822125,16A9541C,true,Rx,0,8,88,A0,80,AA,A0,A0,AA,AA,
822515,16A9541D,true,Rx,0,8,88,A0,80,AA,A0,A0,AA,AA,
822726,16A9541E,true,Rx,0,8,88,A0,80,AA,A0,A0,AA,AA,
822936,16A9541F,true,Rx,0,8,88,A0,80,AA,A0,A0,AA,AA,
823320,16A95420,true,Rx,0,8,88,A0,80,AA,A0,A0,AA,AA,
823537,16A95421,true,Rx,0,8,88,A0,80,AA,A0,A0,AA,AA,
823747,1A555404,true,Rx,0,8,64,40,00,00,FE,FE,FE,FE,
823957,000000BA,false,Rx,0,8,D2,49,29,00,00,00,00,B0,
824342,1A555405,true,Rx,0,8,65,40,00,00,FE,FE,FE,FE,
824559,1A555406,true,Rx,0,8,63,40,00,00,FE,FE,FE,FE,
824939,1A555407,true,Rx,0,8,65,40,00,00,FE,FE,FE,FE,
825150,1A555408,true,Rx,0,8,64,40,00,00,FE,FE,FE,FE,
830817,000000BB,false,Rx,0,8,A6,E8,FF,D5,75,2B,00,00,
830822,0000015B,false,Rx,0,8,24,5B,00,01,00,00,00,00,
830827,18FED007,true,Rx,0,6,00,07,AB,AB,AA,AB,00,00,
830832,000001BC,false,Rx,0,8,1F,28,A4,43,3A,A4,43,0A,
830837,000001B4,false,Rx,0,8,49,68,A4,46,6A,A4,47,0A,
830842,000001B8,false,Rx,0,8,3F,58,A4,43,5A,A4,43,0A,
830847,000001C8,false,Rx,0,8,B4,68,A4,46,5A,A4,46,0A,
831068,000001CC,false,Rx,0,8,90,58,A4,46,6A,A4,46,0A,
831280,18FED008,true,Rx,0,7,7E,AB,0B,80,F6,FE,00,00,
831668,000001B0,false,Rx,0,8,5D,28,A4,43,2A,A4,42,0A,
831879,000001C0,false,Rx,0,8,82,38,A4,45,5A,A4,43,0A,
832088,000001C4,false,Rx,0,8,D0,38,A4,45,5A,A4,43,0A,
832300,18FED009,true,Rx,0,7,00,00,00,00,00,00,00,00,
833906,000000BA,false,Rx,0,8,AA,4A,29,00,00,00,00,A7,
834674,000001BD,false,Rx,0,8,10,38,A4,43,AA,A3,43,0A,
834884,000001B5,false,Rx,0,8,A4,68,A4,46,FA,A3,46,0A,
835094,000001B6,false,Rx,0,8,9B,68,A4,46,6A,A4,40,0A,
835307,000001B9,false,Rx,0,8,89,38,A4,42,AA,A3,47,0A,
835523,000001BA,false,Rx,0,8,B0,A8,A4,46,7A,A4,42,0A,
835733,000001B1,false,Rx,0,8,8A,28,A4,42,AA,A3,45,0A,
835943,000001B2,false,Rx,0,8,42,68,A4,47,6A,A4,3F,0A,
836153,000001BE,false,Rx,0,8,6F,58,A4,43,2A,A4,3D,0A,
836368,000001C1,false,Rx,0,8,21,58,A4,42,BA,A3,45,0A,
836605,000001C2,false,Rx,0,8,E9,58,A4,45,5A,A4,3C,0A,
836815,000001C5,false,Rx,0,8,2D,28,A4,42,CA,A3,45,0A,
837025,000001C6,false,Rx,0,8,35,58,A4,45,5A,A4,3D,0A,
837235,000001C9,false,Rx,0,8,65,38,A4,43,AA,A3,43,0A,
837632,000001CA,false,Rx,0,8,6E,38,A4,43,3A,A4,3C,0A,
837866,000001CD,false,Rx,0,8,BA,68,A4,45,DA,A3,45,0A,
838135,000001CE,false,Rx,0,8,5B,78,A4,45,5A,A4,40,0A,
839567,000000BB,false,Rx,0,8,4B,F9,FF,D1,75,2B,00,0E,
839777,0000015B,false,Rx,0,8,1B,5C,00,01,00,00,00,00,
839987,18FED007,true,Rx,0,6,00,07,A0,AB,AA,AB,00,00,
840197,18FED008,true,Rx,0,7,7E,AB,0B,80,F6,FE,00,00,
840587,18FED009,true,Rx,0,7,00,00,00,00,00,00,00,00,
844810,000000BA,false,Rx,0,8,C8,4B,29,00,00,00,00,A8,
850957,000000BB,false,Rx,0,8,B1,FA,FF,C9,75,2B,00,10,
850962,0000015B,false,Rx,0,8,51,5D,00,01,00,00,00,00,
850967,18FED007,true,Rx,0,6,00,07,94,AB,9F,AB,00,00,
850972,18FED008,true,Rx,0,7,7E,AB,00,80,F6,FE,00,00,
850977,18FED009,true,Rx,0,7,00,00,00,00,00,00,00,00,
853819,000000BA,false,Rx,0,8,E8,4C,29,00,00,00,00,B9,
858270,000001C4,false,Rx,0,8,68,99,A4,49,9A,A4,48,9A,
858482,000001B4,false,Rx,0,8,F5,79,A4,48,8A,A4,48,9A,
858692,000001B8,false,Rx,0,8,28,A9,A4,4A,AA,A4,49,9A,
859073,000001BC,false,Rx,0,8,DB,39,A4,44,4A,A4,44,9A,
859285,000001B0,false,Rx,0,8,6A,79,A4,48,8A,A4,48,9A,
859501,000001C0,false,Rx,0,8,C0,79,A4,48,8A,A4,46,9A,
859711,000000BB,false,Rx,0,8,98,EB,FF,D5,75,2B,00,12,
859921,0000015B,false,Rx,0,8,86,5E,00,01,00,00,00,00,
860130,000001C8,false,Rx,0,8,4D,79,A4,47,6A,A4,46,9A,
860342,000001CC,false,Rx,0,8,65,79,A4,48,8A,A4,47,9A,
860568,18FED007,true,Rx,0,6,00,07,AB,AB,AA,AB,00,00,
860797,18FED008,true,Rx,0,7,7E,AB,0B,80,F6,FE,00,00,
861219,18FED009,true,Rx,0,7,00,00,00,00,00,00,00,00,
863520,000001C5,false,Rx,0,8,CF,89,A4,48,AA,A4,4C,9A,
863730,000001B5,false,Rx,0,8,D6,79,A4,47,8A,A4,49,9A,
863940,000000BA,false,Rx,0,8,93,4D,29,00,00,00,00,AA,
864150,000001B6,false,Rx,0,8,AD,89,A4,48,8A,A4,48,9A,
864361,000001B1,false,Rx,0,8,69,89,A4,48,8A,A4,4C,9A,
864577,000001B2,false,Rx,0,8,B3,B9,A4,4D,BA,A4,4B,9A,
865047,000001B9,false,Rx,0,8,B5,A9,A4,49,9A,A4,49,9A,
865053,000001BA,false,Rx,0,8,DF,A9,A4,48,9A,A4,49,9A,
865275,000001BD,false,Rx,0,8,15,39,A4,43,4A,A4,4A,9A,
865486,000001BE,false,Rx,0,8,5C,A9,A4,49,9A,A4,49,9A,
865868,000001C1,false,Rx,0,8,30,79,A4,45,7A,A4,4A,9A,
866077,000001C2,false,Rx,0,8,FB,A9,A4,49,9A,A4,48,9A,
866289,000001C6,false,Rx,0,8,4E,B9,A4,4C,BA,A4,4B,9A,
866504,000001C9,false,Rx,0,8,3F,59,A4,45,5A,A4,4A,9A,
866714,000001CA,false,Rx,0,8,04,A9,A4,49,9A,A4,49,9A,
866924,000001CD,false,Rx,0,8,65,79,A4,47,8A,A4,49,9A,
867134,000001CE,false,Rx,0,8,FE,A9,A4,4A,AA,A4,4A,9A,
870891,000000BB,false,Rx,0,8,55,EC,FF,D1,75,2B,00,14,
870896,0000015B,false,Rx,0,8,ED,5F,00,01,00,00,00,00,
870901,18FED007,true,Rx,0,6,00,07,A0,AB,AA,AB,00,00,
870906,18FED008,true,Rx,0,7,7E,AB,0B,80,F6,FE,00,00,
870911,18FED009,true,Rx,0,7,00,00,00,00,00,00,00,00,
873910,000000BA,false,Rx,0,8,35,4E,29,00,00,00,00,AB,
879495,000000BB,false,Rx,0,8,2A,FD,FF,C9,75,2B,00,16,
879705,0000015B,false,Rx,0,8,12,50,00,01,00,00,00,00,
879915,18FED007,true,Rx,0,6,00,07,94,AB,9F,AB,00,00,
880352,18FED008,true,Rx,0,7,7E,AB,00,80,F6,FE,00,00,
880575,18FED009,true,Rx,0,7,00,00,00,00,00,00,00,00,
880785,18FED00A,true,Rx,0,8,00,00,30,1E,00,41,00,00,
883948,000000BA,false,Rx,0,8,E4,4F,29,00,00,00,00,B0,
889414,000000BB,false,Rx,0,8,86,FE,FF,D5,75,2B,00,00,
891330,0000015B,false,Rx,0,8,BC,51,00,01,00,00,00,00,
891335,18FED007,true,Rx,0,6,00,07,AB,AB,AA,AB,00,00,
891340,000001B4,false,Rx,0,8,A5,6A,A4,46,6A,A4,47,0A,
891345,000001B8,false,Rx,0,8,3E,5A,A4,43,5A,A4,43,0A,
891350,000001BC,false,Rx,0,8,70,2A,A4,43,3A,A4,43,0A,
891356,000001B0,false,Rx,0,8,9E,2A,A4,43,2A,A4,42,0A,
891361,000001C0,false,Rx,0,8,53,3A,A4,45,6A,A4,43,0A,
891366,000001C4,false,Rx,0,8,92,3A,A4,45,5A,A4,43,0A,
891602,000001C8,false,Rx,0,8,8C,6A,A4,46,5A,A4,46,0A,
891812,000001CC,false,Rx,0,8,93,5A,A4,46,6A,A4,46,0A,
892021,18FED008,true,Rx,0,7,7E,AB,0B,80,F6,FE,00,00,
892232,18FED009,true,Rx,0,7,00,00,00,00,00,00,00,00,
893834,000000BA,false,Rx,0,8,96,40,29,00,00,00,00,AC,
894741,000001C5,false,Rx,0,8,21,3A,A4,42,CA,A3,45,0A,
895123,000001C6,false,Rx,0,8,B7,5A,A4,45,5A,A4,3D,0A,
895342,000001B1,false,Rx,0,8,31,2A,A4,42,AA,A3,45,0A,
895655,000001B2,false,Rx,0,8,BB,6A,A4,47,6A,A4,3F,0A,
895660,000001B5,false,Rx,0,8,2E,6A,A4,46,FA,A3,46,0A,
896042,000001B6,false,Rx,0,8,2B,6A,A4,46,5A,A4,40,0A,
896254,000001B9,false,Rx,0,8,83,3A,A4,42,AA,A3,47,0A,
896469,000001BA,false,Rx,0,8,A1,AA,A4,46,7A,A4,42,0A,
896679,000001BD,false,Rx,0,8,A4,3A,A4,43,AA,A3,43,0A,
896889,000001BE,false,Rx,0,8,1E,5A,A4,43,2A,A4,3D,0A,
897099,000001C1,false,Rx,0,8,89,5A,A4,42,BA,A3,45,0A,
897309,000001C2,false,Rx,0,8,67,5A,A4,45,5A,A4,3C,0A,
897525,000001C9,false,Rx,0,8,A3,3A,A4,43,AA,A3,43,0A,
897735,000001CA,false,Rx,0,8,7E,3A,A4,43,3A,A4,3C,0A,
897945,000001CD,false,Rx,0,8,D8,6A,A4,45,DA,A3,45,0A,
898154,000001CE,false,Rx,0,8,4C,7A,A4,45,5A,A4,40,0A,
899459,000000BB,false,Rx,0,8,91,EF,FF,D1,75,2B,00,18,
899669,0000015B,false,Rx,0,8,B2,52,00,01,00,00,00,00,
899883,18FED007,true,Rx,0,6,00,07,A0,AB,AA,AB,00,00,
900282,18FED008,true,Rx,0,7,7E,AB,0B,80,F6,FE,00,00,
900508,18FED009,true,Rx,0,7,00,00,00,00,00,00,00,00,
904806,000000BA,false,Rx,0,8,FC,41,29,00,00,00,00,AD,
909405,000000BB,false,Rx,0,8,68,F0,FF,D5,75,2B,00,1A,
911197,0000015B,false,Rx,0,8,83,53,00,01,00,00,00,00,
911202,18FED007,true,Rx,0,6,00,07,AB,AB,AA,AB,00,00,
911206,18FED008,true,Rx,0,7,7E,AB,0B,80,F6,FE,00,00,
911211,18FED009,true,Rx,0,7,00,00,00,00,00,00,00,00,
913910,000000BA,false,Rx,0,8,D7,42,29,00,00,00,00,BE,
918369,000001C4,false,Rx,0,8,1F,8B,A4,49,9A,A4,48,EA,
918584,000001B4,false,Rx,0,8,F0,7B,A4,48,7A,A4,48,EA,
918794,000001B8,false,Rx,0,8,27,AB,A4,49,AA,A4,49,EA,
919003,000001BC,false,Rx,0,8,29,3B,A4,43,3A,A4,44,EA,
919213,000001B0,false,Rx,0,8,85,8B,A4,48,8A,A4,48,EA,
919425,000001C0,false,Rx,0,8,53,7B,A4,47,8A,A4,46,EA,
919641,000000BB,false,Rx,0,8,E9,E1,FF,D5,75,2B,00,1C,
919851,0000015B,false,Rx,0,8,25,54,00,01,00,00,00,00,
920234,000001C8,false,Rx,0,8,38,7B,A4,47,6A,A4,46,EA,
920450,000001CC,false,Rx,0,8,E3,7B,A4,48,7A,A4,48,EA,
920660,18FED007,true,Rx,0,6,00,07,AB,AB,AA,AB,00,00,
920868,18FED008,true,Rx,0,7,7E,AB,0B,80,F6,FE,00,00,
921090,18FED009,true,Rx,0,7,00,00,00,00,00,00,00,00,
923643,000001C5,false,Rx,0,8,8C,8B,A4,48,AA,A4,4B,EA,
923852,000001B5,false,Rx,0,8,45,7B,A4,47,8A,A4,48,EA,
924061,000000BA,false,Rx,0,8,CF,43,29,00,00,00,00,AF,
924274,000001B6,false,Rx,0,8,F7,8B,A4,48,8A,A4,48,EA,
924490,000001B1,false,Rx,0,8,35,8B,A4,48,9A,A4,4B,EA,
924700,000001B2,false,Rx,0,8,57,CB,A4,4C,BA,A4,4B,EA,
924910,000001B9,false,Rx,0,8,D8,AB,A4,49,9A,A4,48,EA,
925120,000001BA,false,Rx,0,8,39,AB,A4,48,9A,A4,49,EA,
925331,000001BD,false,Rx,0,8,D3,3B,A4,43,4A,A4,4A,EA,
925547,000001BE,false,Rx,0,8,54,BB,A4,49,9A,A4,49,EA,
925770,000001C1,false,Rx,0,8,26,7B,A4,46,7A,A4,4A,EA,
926033,000001C2,false,Rx,0,8,52,9B,A4,49,AA,A4,48,EA,
926244,000001C6,false,Rx,0,8,82,BB,A4,4C,CA,A4,4B,EA,
926461,000001C9,false,Rx,0,8,F9,6B,A4,46,6A,A4,49,EA,
926671,000001CA,false,Rx,0,8,EF,AB,A4,49,9A,A4,49,EA,
926880,000001CD,false,Rx,0,8,BB,7B,A4,47,9A,A4,49,EA,
927265,000001CE,false,Rx,0,8,B4,AB,A4,4A,AA,A4,4A,EA,
929565,000000BB,false,Rx,0,8,50,F2,FF,D5,75,2B,00,1E,
929774,0000015B,false,Rx,0,8,AC,55,00,01,00,00,00,00,
975377,18FED007,true,Rx,0,6,00,07,AB,AB,AA,AB,00,00,
975382,18FED008,true,Rx,0,7,7E,AB,0B,80,F6,FE,00,00,
975388,18FED009,true,Rx,0,7,00,00,00,00,00,00,00,00,
975393,000000BA,false,Rx,0,8,4B,44,29,00,00,00,00,A1,
975398,000000BB,false,Rx,0,8,B3,F3,FF,C9,75,2B,00,02,
975403,0000015B,false,Rx,0,8,FC,56,00,01,00,00,00,00,
975408,18FED007,true,Rx,0,6,00,07,94,AB,9F,AB,00,00,
975412,18FED008,true,Rx,0,7,7E,AB,00,80,F6,FE,00,00,
975417,18FED009,true,Rx,0,7,00,00,00,00,00,00,00,00,
975422,000000BA,false,Rx,0,8,CC,45,29,00,00,00,00,B0,
975427,000000BB,false,Rx,0,8,CE,E4,FF,D5,75,2B,00,00,
975432,0000015B,false,Rx,0,8,E7,57,00,01,00,00,00,00,
975437,18FED007,true,Rx,0,6,00,07,AB,AB,AA,AB,00,00,
975448,000001B4,false,Rx,0,8,BB,6C,A4,46,6A,A4,47,0A,
975453,000001B8,false,Rx,0,8,3A,5C,A4,43,5A,A4,43,0A,
975458,000001BC,false,Rx,0,8,37,2C,A4,43,3A,A4,43,0A,
975463,000001B0,false,Rx,0,8,CE,2C,A4,43,2A,A4,42,0A,
975468,000001C0,false,Rx,0,8,9E,3C,A4,45,6A,A4,43,0A,
975473,000001C4,false,Rx,0,8,10,3C,A4,45,5A,A4,43,0A,
975478,000001C8,false,Rx,0,8,7B,6C,A4,46,5A,A4,46,0A,
975483,000001CC,false,Rx,0,8,0A,5C,A4,46,6A,A4,46,0A,
975488,18FED008,true,Rx,0,7,7E,AB,0B,80,F6,FE,00,00,
975493,18FED009,true,Rx,0,7,00,00,00,00,00,00,00,00,
975498,000000BA,false,Rx,0,8,03,46,29,00,00,00,00,A2,
975503,000001C5,false,Rx,0,8,D6,3C,A4,42,CA,A3,45,0A,
975508,000001C6,false,Rx,0,8,66,5C,A4,45,5A,A4,3D,0A,
975513,000001B1,false,Rx,0,8,5F,2C,A4,42,AA,A3,45,0A,
975518,000001B2,false,Rx,0,8,C1,6C,A4,47,6A,A4,3F,0A,
975523,000001B5,false,Rx,0,8,EB,6C,A4,46,FA,A3,46,0A,
975528,000001B6,false,Rx,0,8,B5,6C,A4,46,5A,A4,3F,0A,
975533,000001B9,false,Rx,0,8,23,3C,A4,42,AA,A3,47,0A,
975538,000001BA,false,Rx,0,8,3F,AC,A4,46,7A,A4,42,0A,
975543,000001BD,false,Rx,0,8,8E,3C,A4,43,AA,A3,43,0A,
975548,000001BE,false,Rx,0,8,62,5C,A4,43,2A,A4,3D,0A,
975553,000001C1,false,Rx,0,8,30,3C,A4,42,BA,A3,45,0A,
975558,000001C2,false,Rx,0,8,C9,5C,A4,45,5A,A4,3C,0A,
975563,000001C9,false,Rx,0,8,A9,3C,A4,43,AA,A3,43,0A,
975568,000001CA,false,Rx,0,8,CC,3C,A4,43,3A,A4,3C,0A,
975573,000001CD,false,Rx,0,8,BB,6C,A4,45,DA,A3,45,0A,
975578,000001CE,false,Rx,0,8,20,7C,A4,45,5A,A4,40,0A,
975583,000000BB,false,Rx,0,8,99,F5,FF,D1,75,2B,00,04,
975588,0000015B,false,Rx,0,8,CD,58,00,01,00,00,00,00,
975593,18FED007,true,Rx,0,6,00,07,A0,AB,9F,AB,00,00,
975598,18FED008,true,Rx,0,7,7E,AB,0B,80,F6,FE,00,00,
975603,18FED009,true,Rx,0,7,00,00,00,00,00,00,00,00,
975608,000000BA,false,Rx,0,8,C3,47,29,00,00,00,00,A3,
975613,000000BB,false,Rx,0,8,D3,E6,FF,D1,75,2B,00,06,
975618,0000015B,false,Rx,0,8,CE,59,00,01,00,00,00,00,
975623,18FED007,true,Rx,0,6,00,07,A0,AB,93,AB,00,00,
975628,18FED008,true,Rx,0,7,7E,AB,00,80,F6,FE,00,00,
975633,18FED009,true,Rx,0,7,00,00,00,00,00,00,00,00,
975638,000000BA,false,Rx,0,8,C6,48,29,00,00,00,00,B4,
987560,000001C4,false,Rx,0,8,02,8D,A4,49,9A,A4,49,4A,
987565,000001B4,false,Rx,0,8,AC,7D,A4,48,7A,A4,47,4A,
987570,000001B8,false,Rx,0,8,A3,AD,A4,4A,AA,A4,49,4A,
987575,000001BC,false,Rx,0,8,21,3D,A4,44,3A,A4,44,4A,
987580,000001B0,false,Rx,0,8,97,8D,A4,48,8A,A4,48,4A,
987585,000001C0,false,Rx,0,8,D6,7D,A4,47,8A,A4,46,4A,
987590,000000BB,false,Rx,0,8,EC,C7,FF,D1,75,2B,00,08,
987595,0000015B,false,Rx,0,8,DB,5A,00,01,00,00,00,00,
987600,000001C8,false,Rx,0,8,FC,7D,A4,47,6A,A4,47,4A,
987605,000001CC,false,Rx,0,8,74,7D,A4,48,7A,A4,48,4A,
987610,18FED007,true,Rx,0,6,00,07,A0,AB,AA,AB,00,00,
987614,18FED008,true,Rx,0,7,7E,AB,0B,80,F6,FE,00,00,
987619,18FED009,true,Rx,0,7,00,00,00,00,00,00,00,00,
987624,18FED00A,true,Rx,0,8,00,00,30,1E,00,41,00,00,
987629,000001C5,false,Rx,0,8,CC,8D,A4,48,AA,A4,4C,4A,
987634,000001B5,false,Rx,0,8,DA,7D,A4,47,8A,A4,48,4A,
987639,000000BA,false,Rx,0,8,CB,49,29,00,00,00,00,A5,
987644,000001B6,false,Rx,0,8,30,8D,A4,48,9A,A4,48,4A,
987649,000001B1,false,Rx,0,8,09,9D,A4,48,9A,A4,4B,4A,
987654,000001B2,false,Rx,0,8,3C,CD,A4,4C,BA,A4,4B,4A,
987659,000001B9,false,Rx,0,8,68,AD,A4,49,9A,A4,48,4A,
987664,000001BA,false,Rx,0,8,23,AD,A4,48,9A,A4,49,4A,
987669,000001BD,false,Rx,0,8,B5,3D,A4,43,4A,A4,4A,4A,
987674,000001BE,false,Rx,0,8,A0,AD,A4,49,9A,A4,49,4A,
987679,000001C1,false,Rx,0,8,48,7D,A4,45,7A,A4,4A,4A,
987684,000001C2,false,Rx,0,8,11,9D,A4,49,9A,A4,48,4A,
987689,000001C6,false,Rx,0,8,2B,BD,A4,4C,BA,A4,4B,4A,
987694,000001C9,false,Rx,0,8,3E,5D,A4,46,6A,A4,49,4A,
987699,000001CA,false,Rx,0,8,3F,9D,A4,49,9A,A4,48,4A,
987704,000001CD,false,Rx,0,8,26,7D,A4,47,9A,A4,49,4A,
987709,000001CE,false,Rx,0,8,55,AD,A4,4A,AA,A4,4A,4A,
989571,000000BB,false,Rx,0,8,DE,E8,FF,D5,75,2B,00,0A,
989781,0000015B,false,Rx,0,8,24,5B,00,01,00,00,00,00,
989990,18FED007,true,Rx,0,6,00,07,AB,AB,AA,AB,00,00,
990199,18FED008,true,Rx,0,7,7E,AB,0B,80,F6,FE,00,00,
990590,18FED009,true,Rx,0,7,00,00,00,00,00,00,00,00,
993926,000000BA,false,Rx,0,8,43,4A,29,00,00,00,00,A6,
999566,000000BB,false,Rx,0,8,7F,C9,FF,D1,75,2B,00,0C,
999776,0000015B,false,Rx,0,8,1B,5C,00,01,00,00,00,00,
999986,18FED007,true,Rx,0,6,00,07,A0,AB,9F,AB,00,00,
1000196,18FED008,true,Rx,0,7,7E,AB,00,80,F6,FE,00,00,
1000587,18FED009,true,Rx,0,7,00,00,00,00,00,00,00,00,
1003924,000000BA,false,Rx,0,8,68,4B,29,00,00,00,00,B0,
1009525,000000BB,false,Rx,0,8,1B,EA,FF,D1,75,2B,00,00,
1009733,0000015B,false,Rx,0,8,51,5D,00,01,00,00,00,00,
1009943,18FED007,true,Rx,0,6,00,07,A0,AB,AA,AB,00,00,
1010153,000001B4,false,Rx,0,8,EA,6E,A4,46,6A,A4,47,0A,
1010365,000001B8,false,Rx,0,8,FD,5E,A4,43,5A,A4,43,0A,
1010579,000001BC,false,Rx,0,8,EB,2E,A4,43,3A,A4,43,0A,
1010961,000001B0,false,Rx,0,8,F3,2E,A4,43,2A,A4,42,0A,
1011171,000001C0,false,Rx,0,8,1C,3E,A4,45,6A,A4,43,0A,
1011385,000001C4,false,Rx,0,8,27,3E,A4,45,5A,A4,43,0A,
1011601,000001C8,false,Rx,0,8,F5,6E,A4,46,5A,A4,46,0A,
1011811,000001CC,false,Rx,0,8,26,5E,A4,46,6A,A4,46,0A,
1012022,18FED008,true,Rx,0,7,7E,AB,0B,80,F6,FE,00,00,
1012409,18FED009,true,Rx,0,7,00,00,00,00,00,00,00,00,
1013841,000000BA,false,Rx,0,8,60,4C,29,00,00,00,00,A7,
1014921,000001C5,false,Rx,0,8,BF,3E,A4,42,CA,A3,45,0A,
1015131,000001C9,false,Rx,0,8,5C,3E,A4,43,AA,A3,43,0A,
1015344,000001B1,false,Rx,0,8,A4,2E,A4,42,AA,A3,45,0A,
1015554,000001B2,false,Rx,0,8,54,6E,A4,47,6A,A4,3F,0A,
1015771,000001B5,false,Rx,0,8,42,6E,A4,46,FA,A3,46,0A,
1017506,000001B6,false,Rx,0,8,6B,6E,A4,46,5A,A4,3F,0A,
1017511,000001B9,false,Rx,0,8,C8,3E,A4,42,AA,A3,47,0A,
1017516,000001BA,false,Rx,0,8,01,AE,A4,46,7A,A4,42,0A,
1017521,000001BD,false,Rx,0,8,34,3E,A4,43,AA,A3,43,0A,
1017526,000001BE,false,Rx,0,8,05,5E,A4,43,2A,A4,3D,0A,
1017531,000001C1,false,Rx,0,8,F7,3E,A4,42,BA,A3,45,0A,
1017536,000001C2,false,Rx,0,8,9D,5E,A4,45,5A,A4,3C,0A,
1017541,000001C6,false,Rx,0,8,94,5E,A4,45,5A,A4,3D,0A,
1017814,000001CA,false,Rx,0,8,95,3E,A4,43,3A,A4,3C,0A,
1018023,000001CD,false,Rx,0,8,F6,6E,A4,45,DA,A3,45,0A,
1018235,000001CE,false,Rx,0,8,83,7E,A4,45,5A,A4,40,0A,
1019493,000000BB,false,Rx,0,8,92,EB,FF,D1,75,2B,00,0E,
1019704,0000015B,false,Rx,0,8,86,5E,00,01,00,00,00,00,
1019913,18FED007,true,Rx,0,6,00,07,A0,AB,AA,AB,00,00,
1020297,18FED008,true,Rx,0,7,7E,AB,0B,80,F6,FE,00,00,
1020513,18FED009,true,Rx,0,7,00,00,00,00,00,00,00,00,
1024907,000000BA,false,Rx,0,8,6E,4D,29,00,00,00,00,A8,
1029485,000000BB,false,Rx,0,8,AD,EC,FF,C9,75,2B,00,10,
1029695,0000015B,false,Rx,0,8,ED,5F,00,01,00,00,00,00,
1029905,18FED007,true,Rx,0,6,00,07,94,AB,9F,AB,00,00,
1030288,18FED008,true,Rx,0,7,7E,AB,00,80,F6,FE,00,00,
1030504,18FED009,true,Rx,0,7,00,00,00,00,00,00,00,00,
1033842,000000BA,false,Rx,0,8,ED,4E,29,00,00,00,00,B9,
1038331,000001C4,false,Rx,0,8,39,8F,A4,49,9A,A4,48,9A,
1038543,000001B4,false,Rx,0,8,B4,7F,A4,48,8A,A4,48,9A,
1038753,000001B8,false,Rx,0,8,B3,AF,A4,4A,AA,A4,49,9A,
1038963,000001BC,false,Rx,0,8,F8,3F,A4,44,4A,A4,44,9A,
1039173,000001B0,false,Rx,0,8,8D,8F,A4,48,9A,A4,49,9A,
1039563,000001C0,false,Rx,0,8,F1,7F,A4,47,8A,A4,46,9A,
1039773,000000BB,false,Rx,0,8,0F,ED,FF,D5,75,2B,00,12,
1039983,0000015B,false,Rx,0,8,12,50,00,01,00,00,00,00,
1040192,000001C8,false,Rx,0,8,BE,7F,A4,47,6A,A4,47,9A,
1040404,000001CC,false,Rx,0,8,B4,8F,A4,48,8A,A4,48,9A,
1040620,18FED007,true,Rx,0,6,00,07,AB,AB,AA,AB,00,00,
1041002,18FED008,true,Rx,0,7,7E,AB,0B,80,F6,FE,00,00,
1041212,18FED009,true,Rx,0,7,00,00,00,00,00,00,00,00,
1043515,000001C5,false,Rx,0,8,FE,8F,A4,48,AA,A4,4C,9A,
1043724,000001B5,false,Rx,0,8,AC,8F,A4,47,8A,A4,48,9A,
1043932,000000BA,false,Rx,0,8,B9,4F,29,00,00,00,00,AA,
1044333,000001B6,false,Rx,0,8,75,8F,A4,49,8A,A4,48,9A,
1044613,000001B1,false,Rx,0,8,BF,8F,A4,48,8A,A4,4C,9A,
1044618,000001B2,false,Rx,0,8,E7,BF,A4,4D,CA,A4,4B,9A,
1044839,000001B9,false,Rx,0,8,2E,AF,A4,49,9A,A4,49,9A,
1045070,000001BA,false,Rx,0,8,8D,AF,A4,48,9A,A4,49,9A,
1045461,000001BD,false,Rx,0,8,AA,4F,A4,43,4A,A4,4A,9A,
1045671,000001BE,false,Rx,0,8,E0,AF,A4,49,9A,A4,49,9A,
1045881,000001C1,false,Rx,0,8,4F,7F,A4,45,7A,A4,4A,9A,
1046091,000001C2,false,Rx,0,8,33,9F,A4,4A,AA,A4,48,9A,
1046304,000001C6,false,Rx,0,8,31,CF,A4,4C,BA,A4,4B,9A,
1046520,000001C9,false,Rx,0,8,8C,5F,A4,46,6A,A4,49,9A,
1046730,000001CA,false,Rx,0,8,4C,9F,A4,49,9A,A4,49,9A,
1046940,000001CD,false,Rx,0,8,9E,7F,A4,47,9A,A4,49,9A,
1047150,000001CE,false,Rx,0,8,DE,AF,A4,4A,AA,A4,4A,9A,
1049452,000000BB,false,Rx,0,8,76,FE,FF,D5,75,2B,00,14,
1049662,0000015B,false,Rx,0,8,BC,51,00,01,00,00,00,00,
1050044,18FED007,true,Rx,0,6,00,07,AB,AB,AA,AB,00,00,
1050255,18FED008,true,Rx,0,7,7E,AB,0B,80,F6,FE,00,00,
1050471,18FED009,true,Rx,0,7,00,00,00,00,00,00,00,00,
1053808,000000BA,false,Rx,0,8,57,40,29,00,00,00,00,AB,
1059577,000000BB,false,Rx,0,8,9E,FF,FF,D1,75,2B,00,16,
1059787,0000015B,false,Rx,0,8,B2,52,00,01,00,00,00,00,
1059997,18FED007,true,Rx,0,6,00,07,A0,AB,9F,AB,00,00,
1060207,18FED008,true,Rx,0,7,7E,AB,00,80,F6,FE,00,00,
1060596,18FED009,true,Rx,0,7,00,00,00,00,00,00,00,00,
1063928,000000BA,false,Rx,0,8,60,41,29,00,00,00,00,B0,
1069524,000000BB,false,Rx,0,8,97,E0,FF,D5,75,2B,00,00,
1069733,0000015B,false,Rx,0,8,83,53,00,01,00,00,00,00,
1069943,000001C4,false,Rx,0,8,5D,30,A4,43,5A,A4,43,0A,
1070153,000001B4,false,Rx,0,8,68,60,A4,46,6A,A4,47,0A,
1070365,000001B8,false,Rx,0,8,CF,50,A4,43,5A,A4,43,0A,
1070580,000001BC,false,Rx,0,8,31,20,A4,43,3A,A4,43,0A,
1070962,000001B0,false,Rx,0,8,54,20,A4,43,2A,A4,42,0A,
1071170,000001C0,false,Rx,0,8,F4,30,A4,45,6A,A4,43,0A,
1071382,000001C8,false,Rx,0,8,6A,70,A4,46,5A,A4,46,0A,
1071597,000001CC,false,Rx,0,8,8B,50,A4,46,6A,A4,46,0A,
1071807,18FED007,true,Rx,0,6,00,07,AB,AB,AA,AB,00,00,
1072017,18FED008,true,Rx,0,7,7E,AB,0B,80,F6,FE,00,00,
1072401,18FED009,true,Rx,0,7,00,00,00,00,00,00,00,00,
1073829,000000BA,false,Rx,0,8,0F,42,29,00,00,00,00,AC,
1074737,000001C5,false,Rx,0,8,66,30,A4,42,CA,A3,45,0A,
1075119,000001C6,false,Rx,0,8,99,50,A4,45,5A,A4,3D,0A,
1075330,000001B1,false,Rx,0,8,00,20,A4,42,AA,A3,45,0A,
1075546,000001B2,false,Rx,0,8,11,60,A4,47,6A,A4,3F,0A,
1075756,000001B5,false,Rx,0,8,F0,60,A4,46,FA,A3,46,0A,
1075966,000001B6,false,Rx,0,8,51,60,A4,46,5A,A4,3F,0A,
1076176,000001B9,false,Rx,0,8,30,30,A4,42,AA,A3,47,0A,
1077700,000001BA,false,Rx,0,8,66,A0,A4,46,7A,A4,42,0A,
1077705,000001BD,false,Rx,0,8,27,30,A4,43,AA,A3,43,0A,
1077710,000001BE,false,Rx,0,8,8E,50,A4,43,3A,A4,3D,0A,
1077715,000001C1,false,Rx,0,8,B0,30,A4,42,BA,A3,45,0A,
1077720,000001C2,false,Rx,0,8,19,50,A4,45,5A,A4,3C,0A,
1077725,000001C9,false,Rx,0,8,94,30,A4,43,AA,A3,43,0A,
1077730,000001CA,false,Rx,0,8,79,30,A4,43,3A,A4,3C,0A,
1077950,000001CD,false,Rx,0,8,4E,60,A4,45,DA,A3,45,0A,
1078160,000001CE,false,Rx,0,8,46,60,A4,45,5A,A4,40,0A,
1079591,000000BB,false,Rx,0,8,9E,F1,FF,D5,75,2B,00,18,
1079801,0000015B,false,Rx,0,8,25,54,00,01,00,00,00,00,
1080010,18FED007,true,Rx,0,6,00,07,AB,AB,AA,AB,00,00,
1080220,18FED008,true,Rx,0,7,7E,AB,0B,80,F6,FE,00,00,
1080611,18FED009,true,Rx,0,7,00,00,00,00,00,00,00,00,
1080821,18FED00A,true,Rx,0,8,00,00,30,1E,00,41,00,00,
1084867,000000BA,false,Rx,0,8,32,43,29,00,00,00,00,AD,
1088374,16A95419,true,Rx,0,8,AA,AA,8A,20,00,00,A0,80,
1089530,000000BB,false,Rx,0,8,FA,F2,FF,D1,75,2B,00,1A,
1089750,0000015B,false,Rx,0,8,AC,55,00,01,00,00,00,00,
1089982,18FED007,true,Rx,0,6,00,07,A0,AB,9F,AB,00,00,
1090191,18FED008,true,Rx,0,7,7E,AB,00,80,F6,FE,00,00,
1090581,18FED009,true,Rx,0,7,00,00,00,00,00,00,00,00,
1093917,000000BA,false,Rx,0,8,2A,44,29,00,00,00,00,BE,
1098262,000001C4,false,Rx,0,8,30,81,A4,49,9A,A4,49,EA,
1098487,000001B4,false,Rx,0,8,56,71,A4,48,7A,A4,48,EA,
1098697,000001B8,false,Rx,0,8,C6,A1,A4,49,AA,A4,49,EA,
1099079,000001BC,false,Rx,0,8,A6,31,A4,44,4A,A4,44,EA,
1099291,000001B0,false,Rx,0,8,A0,71,A4,48,8A,A4,48,EA,
1099507,000001C0,false,Rx,0,8,64,61,A4,47,8A,A4,45,EA,
1099717,000000BB,false,Rx,0,8,CB,E3,FF,D5,75,2B,00,1C,
1099926,0000015B,false,Rx,0,8,FC,56,00,01,00,00,00,00,
1100136,000001C8,false,Rx,0,8,11,81,A4,47,6A,A4,46,EA,
1100348,000001CC,false,Rx,0,8,EC,71,A4,48,8A,A4,48,EA,
1100565,18FED007,true,Rx,0,6,00,07,AB,AB,AA,AB,00,00,
1100964,18FED008,true,Rx,0,7,7E,AB,0B,80,F6,FE,00,00,
1101174,18FED009,true,Rx,0,7,00,00,00,00,00,00,00,00,
1103478,000001C5,false,Rx,0,8,E3,71,A4,48,AA,A4,4C,EA,
1103688,000001B5,false,Rx,0,8,E8,81,A4,47,8A,A4,48,EA,
1104071,000000BA,false,Rx,0,8,AD,45,29,00,00,00,00,AF,
1104282,000001B6,false,Rx,0,8,AA,81,A4,48,8A,A4,48,EA,
1104499,000001B1,false,Rx,0,8,A4,81,A4,47,8A,A4,4B,EA,
1104708,000001B2,false,Rx,0,8,A9,C1,A4,4C,CA,A4,4B,EA,
1104917,000001B9,false,Rx,0,8,D5,B1,A4,4A,9A,A4,48,EA,
1105127,000001BA,false,Rx,0,8,E3,A1,A4,48,8A,A4,49,EA,
1105339,000001BD,false,Rx,0,8,C2,31,A4,44,4A,A4,4A,EA,
1105554,000001BE,false,Rx,0,8,E1,A1,A4,49,9A,A4,4A,EA,
1105765,000001C1,false,Rx,0,8,07,71,A4,45,7A,A4,4A,EA,
1105975,000001C2,false,Rx,0,8,11,91,A4,49,9A,A4,48,EA,
1106185,000001C6,false,Rx,0,8,0A,B1,A4,4C,CA,A4,4B,EA,
1106398,000001C9,false,Rx,0,8,2E,51,A4,46,6A,A4,49,EA,
1106787,000001CA,false,Rx,0,8,0B,A1,A4,49,9A,A4,48,EA,
1106995,000001CD,false,Rx,0,8,AA,71,A4,47,9A,A4,49,EA,
1107205,000001CE,false,Rx,0,8,BF,A1,A4,4A,AA,A4,4A,EA,
1109530,000000BB,false,Rx,0,8,39,E4,FF,D1,75,2B,00,1E,
1109769,0000015B,false,Rx,0,8,E7,57,00,01,00,00,00,00,
1110002,18FED007,true,Rx,0,6,00,07,A0,AB,AA,AB,00,00,
1110237,18FED008,true,Rx,0,7,7E,AB,0B,80,F6,FE,00,00,
1110453,18FED009,true,Rx,0,7,00,00,00,00,00,00,00,00,
1113833,000000BA,false,Rx,0,8,17,46,29,00,00,00,00,A1,
1119559,000000BB,false,Rx,0,8,13,E5,FF,D1,75,2B,00,02,
1119770,0000015B,false,Rx,0,8,CD,58,00,01,00,00,00,00,
1119984,18FED007,true,Rx,0,6,00,07,A0,AB,9F,AB,00,00,
1120204,18FED008,true,Rx,0,7,7E,AB,00,80,F6,FE,00,00,
1120605,18FED009,true,Rx,0,7,00,00,00,00,00,00,00,00,
1123953,000000BA,false,Rx,0,8,F2,47,29,00,00,00,00,B0,
1129558,000000BB,false,Rx,0,8,84,E6,FF,D5,75,2B,00,00,
1129768,0000015B,false,Rx,0,8,CE,59,00,01,00,00,00,00,
1129978,18FED007,true,Rx,0,6,00,07,AB,AB,AA,AB,00,00,
1130189,000001BC,false,Rx,0,8,52,22,A4,43,3A,A4,43,0A,
1130413,000001B4,false,Rx,0,8,FF,62,A4,46,6A,A4,47,0A,
1130628,000001B8,false,Rx,0,8,E4,52,A4,43,5A,A4,43,0A,
1130839,000001C4,false,Rx,0,8,4B,32,A4,43,3A,A4,43,0A,
1131049,000001C8,false,Rx,0,8,19,62,A4,46,5A,A4,46,0A,
1131451,000001C0,false,Rx,0,8,29,32,A4,45,6A,A4,43,0A,
1131663,000001B0,false,Rx,0,8,EC,22,A4,43,2A,A4,42,0A,
1131873,000001CC,false,Rx,0,8,C7,52,A4,46,6A,A4,46,0A,
1132090,18FED008,true,Rx,0,7,7E,AB,0B,80,F6,FE,00,00,
1132312,18FED009,true,Rx,0,7,00,00,00,00,00,00,00,00,
1133915,000000BA,false,Rx,0,8,CB,48,29,00,00,00,00,A2,
1134479,000001C5,false,Rx,0,8,52,32,A4,42,CA,A3,45,0A,
1134688,000001B5,false,Rx,0,8,F9,62,A4,46,FA,A3,46,0A,
1134899,000001B6,false,Rx,0,8,07,62,A4,46,5A,A4,3F,0A,
1135109,000001B9,false,Rx,0,8,03,32,A4,42,AA,A3,47,0A,
1135321,000001BA,false,Rx,0,8,06,A2,A4,46,7A,A4,42,0A,
1135538,000001BD,false,Rx,0,8,6A,32,A4,43,AA,A3,43,0A,
1135748,000001B1,false,Rx,0,8,64,22,A4,42,AA,A3,45,0A,
1135957,000001B2,false,Rx,0,8,E6,62,A4,47,6A,A4,3F,0A,
1136167,000001BE,false,Rx,0,8,D3,52,A4,43,3A,A4,3D,0A,
1136559,000001C1,false,Rx,0,8,0F,32,A4,42,BA,A3,45,0A,
1138107,000001C2,false,Rx,0,8,99,52,A4,45,5A,A4,3C,0A,
1138112,000001C6,false,Rx,0,8,56,52,A4,45,5A,A4,3D,0A,
1138117,000001C9,false,Rx,0,8,62,32,A4,43,AA,A3,43,0A,
1138122,000001CA,false,Rx,0,8,31,32,A4,43,3A,A4,3C,0A,
1138127,000001CD,false,Rx,0,8,BD,62,A4,45,DA,A3,45,0A,
1138132,000001CE,false,Rx,0,8,14,62,A4,45,5A,A4,40,0A,
1139576,000000BB,false,Rx,0,8,0A,F7,FF,D5,75,2B,00,04,
1139786,0000015B,false,Rx,0,8,DB,5A,00,01,00,00,00,00,
1139996,18FED007,true,Rx,0,6,00,07,AB,AB,AA,AB,00,00,
1140206,18FED008,true,Rx,0,7,7E,AB,0B,80,F6,FE,00,00,
1140606,18FED009,true,Rx,0,7,00,00,00,00,00,00,00,00,
1144945,000000BA,false,Rx,0,8,E3,49,29,00,00,00,00,A3,
1149499,000000BB,false,Rx,0,8,F1,E8,FF,D1,75,2B,00,06,
1149709,0000015B,false,Rx,0,8,24,5B,00,01,00,00,00,00,
1149919,18FED007,true,Rx,0,6,00,07,A0,AB,9F,AB,00,00,
1150303,18FED008,true,Rx,0,7,7E,AB,00,80,F6,FE,00,00,
1150518,18FED009,true,Rx,0,7,00,00,00,00,00,00,00,00,
1153870,000000BA,false,Rx,0,8,9B,4A,29,00,00,00,00,B4,
1158308,000001C4,false,Rx,0,8,10,93,A4,49,9A,A4,48,4A,
1158532,000001B4,false,Rx,0,8,29,73,A4,48,8A,A4,48,4A,
1158742,000001B8,false,Rx,0,8,65,A3,A4,4A,AA,A4,49,4A,
1158952,000001BC,false,Rx,0,8,CC,33,A4,43,4A,A4,44,4A,
1159161,000001B0,false,Rx,0,8,8E,73,A4,48,9A,A4,48,4A,
1159551,000001C0,false,Rx,0,8,7F,63,A4,47,8A,A4,46,4A,
1159761,000000BB,false,Rx,0,8,C1,E9,FF,D1,75,2B,00,08,
1159970,0000015B,false,Rx,0,8,1B,5C,00,01,00,00,00,00,
1160179,000001C8,false,Rx,0,8,9E,73,A4,46,6A,A4,46,4A,
1160392,000001CC,false,Rx,0,8,49,73,A4,48,8A,A4,48,4A,
1160608,18FED007,true,Rx,0,6,00,07,A0,AB,AA,AB,00,00,
1160818,18FED008,true,Rx,0,7,7E,AB,0B,80,F6,FE,00,00,
1161200,18FED009,true,Rx,0,7,00,00,00,00,00,00,00,00,
1163516,000001C5,false,Rx,0,8,3F,83,A4,48,AA,A4,4C,4A,
1163726,000001B5,false,Rx,0,8,4D,73,A4,47,8A,A4,47,4A,
1163935,000000BA,false,Rx,0,8,71,4B,29,00,00,00,00,A5,
1164319,000001B6,false,Rx,0,8,21,83,A4,48,8A,A4,48,4A,
1164535,000001B1,false,Rx,0,8,2A,83,A4,48,8A,A4,4B,4A,
1164745,000001B2,false,Rx,0,8,51,C3,A4,4C,CA,A4,4B,4A,
1164954,000001B9,false,Rx,0,8,8F,A3,A4,49,9A,A4,48,4A,
1165164,000001BA,false,Rx,0,8,F2,A3,A4,48,9A,A4,49,4A,
1165376,000001BD,false,Rx,0,8,EB,33,A4,43,4A,A4,4A,4A,
1165593,000001BE,false,Rx,0,8,DE,A3,A4,49,9A,A4,4A,4A,
1165803,000001C1,false,Rx,0,8,76,73,A4,45,7A,A4,4A,4A,
1166013,000001C2,false,Rx,0,8,38,A3,A4,49,AA,A4,48,4A,
1166223,000001C6,false,Rx,0,8,69,B3,A4,4C,BA,A4,4C,4A,
1166435,000001C9,false,Rx,0,8,79,63,A4,46,6A,A4,49,4A,
1166651,000001CA,false,Rx,0,8,7B,93,A4,49,9A,A4,48,4A,
1166859,000001CD,false,Rx,0,8,2C,73,A4,47,9A,A4,49,4A,
1167244,000001CE,false,Rx,0,8,33,A3,A4,4A,AA,A4,4A,4A,
1169543,000000BB,false,Rx,0,8,63,EA,FF,D1,75,2B,00,0A,
1169752,0000015B,false,Rx,0,8,51,5D,00,01,00,00,00,00,
1169962,18FED007,true,Rx,0,6,00,07,A0,AB,AA,AB,00,00,
1170171,18FED008,true,Rx,0,7,7E,AB,0B,80,F6,FE,00,00,
1170561,18FED009,true,Rx,0,7,00,00,00,00,00,00,00,00,
1173913,000000BA,false,Rx,0,8,89,4C,29,00,00,00,00,A6,
1179549,000000BB,false,Rx,0,8,6F,EB,FF,D1,75,2B,00,0C,
1179773,0000015B,false,Rx,0,8,86,5E,00,01,00,00,00,00,
1179982,18FED007,true,Rx,0,6,00,07,A0,AB,9F,AB,00,00,
1180193,18FED008,true,Rx,0,7,7E,AB,00,80,F6,FE,00,00,
1180582,18FED009,true,Rx,0,7,00,00,00,00,00,00,00,00,
1180792,18FED00A,true,Rx,0,8,00,00,30,1E,00,41,00,00,
1183956,000000BA,false,Rx,0,8,CE,4D,29,00,00,00,00,B0,
1189552,000000BB,false,Rx,0,8,07,FC,FF,D1,75,2B,00,00,
1189762,0000015B,false,Rx,0,8,ED,5F,00,01,00,00,00,00,
1189972,000001C4,false,Rx,0,8,31,34,A4,43,3A,A4,43,0A,
1190182,000001B4,false,Rx,0,8,3A,64,A4,46,6A,A4,47,0A,
1190394,000001B8,false,Rx,0,8,F3,54,A4,43,5A,A4,43,0A,
1190610,000001BC,false,Rx,0,8,6D,24,A4,43,3A,A4,43,0A,
1190820,000001B0,false,Rx,0,8,27,24,A4,43,2A,A4,42,0A,
1191201,000001C0,false,Rx,0,8,1F,34,A4,45,6A,A4,43,0A,
1191411,000001C8,false,Rx,0,8,AE,64,A4,46,5A,A4,46,0A,
1191627,000001CC,false,Rx,0,8,99,54,A4,46,6A,A4,46,0A,
1191837,18FED007,true,Rx,0,6,00,07,A0,AB,AA,AB,00,00,
1192048,18FED008,true,Rx,0,7,7E,AB,0B,80,F6,FE,00,00,
1192431,18FED009,true,Rx,0,7,00,00,00,00,00,00,00,00,
1193876,000000BA,false,Rx,0,8,65,4E,29,00,00,00,00,A7,
1194839,000001C5,false,Rx,0,8,F9,34,A4,42,CA,A3,45,0A,
1195049,000001C6,false,Rx,0,8,DF,54,A4,45,5A,A4,3D,0A,
1195262,000001B1,false,Rx,0,8,AF,24,A4,42,AA,A3,45,0A,
1195478,000001B2,false,Rx,0,8,DC,64,A4,47,6A,A4,3F,0A,
1195688,000001B5,false,Rx,0,8,DF,64,A4,46,FA,A3,46,0A,
1195898,000001B6,false,Rx,0,8,B0,64,A4,46,5A,A4,3F,0A,
1196282,000001B9,false,Rx,0,8,28,34,A4,42,AA,A3,47,0A,
1196497,000001BA,false,Rx,0,8,DA,A4,A4,46,7A,A4,42,0A,
1196706,000001BD,false,Rx,0,8,33,34,A4,43,AA,A3,43,0A,
1198391,000001BE,false,Rx,0,8,C0,54,A4,43,3A,A4,3D,0A,
1198396,000001C1,false,Rx,0,8,3D,34,A4,42,BA,A3,45,0A,
1198401,000001C2,false,Rx,0,8,2C,54,A4,45,5A,A4,3C,0A,
1198406,000001C9,false,Rx,0,8,22,34,A4,43,AA,A3,43,0A,
1198411,000001CA,false,Rx,0,8,12,34,A4,43,3A,A4,3C,0A,
1198416,000001CD,false,Rx,0,8,C7,64,A4,45,DA,A3,45,0A,
1198421,000001CE,false,Rx,0,8,7E,64,A4,45,5A,A4,40,0A,
1199518,000000BB,false,Rx,0,8,7A,ED,FF,D5,75,2B,00,0E,
1199728,0000015B,false,Rx,0,8,12,50,00,01,00,00,00,00,
1199938,18FED007,true,Rx,0,6,00,07,AB,AB,AA,AB,00,00,
1200323,18FED008,true,Rx,0,7,7E,AB,0B,80,F6,FE,00,00,
1200534,18FED009,true,Rx,0,7,00,00,00,00,00,00,00,00,
1204928,000000BA,false,Rx,0,8,44,4F,29,00,00,00,00,A8,
1209603,000000BB,false,Rx,0,8,DC,FE,FF,D1,75,2B,00,10,
1209813,0000015B,false,Rx,0,8,BC,51,00,01,00,00,00,00,
1210022,18FED007,true,Rx,0,6,00,07,A0,AB,9F,AB,00,00,
1210233,18FED008,true,Rx,0,7,7E,AB,00,80,F6,FE,00,00,
1210615,18FED009,true,Rx,0,7,00,00,00,00,00,00,00,00,
1213960,000000BA,false,Rx,0,8,8F,40,29,00,00,00,00,B9,
1218299,000001C4,false,Rx,0,8,0C,85,A4,49,9A,A4,48,9A,
1218521,000001B4,false,Rx,0,8,71,75,A4,48,8A,A4,47,9A,
1218730,000001B8,false,Rx,0,8,E9,A5,A4,49,AA,A4,48,9A,
1218939,000001BC,false,Rx,0,8,3D,35,A4,43,4A,A4,44,9A,
1219326,000001B0,false,Rx,0,8,7C,85,A4,48,8A,A4,48,9A,
1219556,000001C0,false,Rx,0,8,17,75,A4,47,8A,A4,46,9A,
1219766,000000BB,false,Rx,0,8,34,FF,FF,D5,75,2B,00,12,
1219976,0000015B,false,Rx,0,8,B2,52,00,01,00,00,00,00,
1220186,000001C8,false,Rx,0,8,48,75,A4,47,6A,A4,47,9A,
1220398,000001CC,false,Rx,0,8,F7,75,A4,48,8A,A4,48,9A,
1220614,18FED007,true,Rx,0,6,00,07,AB,AB,AA,AB,00,00,
1220824,18FED008,true,Rx,0,7,7E,AB,0B,80,F6,FE,00,00,
1221207,18FED009,true,Rx,0,7,00,00,00,00,00,00,00,00,
1223518,000001C5,false,Rx,0,8,11,85,A4,47,AA,A4,4B,9A,
1223900,000001B5,false,Rx,0,8,BC,75,A4,47,9A,A4,48,9A,
1224109,000000BA,false,Rx,0,8,3D,41,29,00,00,00,00,AA,
1224321,000001B6,false,Rx,0,8,A6,85,A4,49,8A,A4,48,9A,
1224536,000001B1,false,Rx,0,8,90,85,A4,48,9A,A4,4B,9A,
1224746,000001B2,false,Rx,0,8,65,C5,A4,4D,CA,A4,4B,9A,
1224956,000001B9,false,Rx,0,8,4A,A5,A4,49,9A,A4,48,9A,
1225166,000001BA,false,Rx,0,8,F5,A5,A4,48,9A,A4,49,9A,
1225378,000001BD,false,Rx,0,8,73,35,A4,43,4A,A4,4A,9A,
1225594,000001BE,false,Rx,0,8,C3,A5,A4,49,9A,A4,49,9A,
1225804,000001C1,false,Rx,0,8,D7,75,A4,45,7A,A4,4A,9A,
1226014,000001C2,false,Rx,0,8,62,A5,A4,49,9A,A4,48,9A,
1226224,000001C6,false,Rx,0,8,B6,B5,A4,4C,BA,A4,4B,9A,
1226436,000001C9,false,Rx,0,8,30,55,A4,46,6A,A4,49,9A,
1226660,000001CA,false,Rx,0,8,D8,95,A4,48,9A,A4,48,9A,
1226880,000001CD,false,Rx,0,8,A5,75,A4,47,9A,A4,49,9A,
1227120,000001CE,false,Rx,0,8,01,A5,A4,4A,AA,A4,4A,9A,
1229820,000000BB,false,Rx,0,8,67,E0,FF,D5,75,2B,00,14,
1229825,0000015B,false,Rx,0,8,83,53,00,01,00,00,00,00,
1230041,18FED007,true,Rx,0,6,00,07,AB,AB,AA,AB,00,00,
1230252,18FED008,true,Rx,0,7,7E,AB,0B,80,F6,FE,00,00,
1230461,18FED009,true,Rx,0,7,00,00,00,00,00,00,00,00,
1233805,000000BA,false,Rx,0,8,CE,42,29,00,00,00,00,AB,
1239557,000000BB,false,Rx,0,8,C3,E1,FF,C9,75,2B,00,16,
1239767,0000015B,false,Rx,0,8,25,54,00,01,00,00,00,00,
1239977,18FED007,true,Rx,0,6,00,07,94,AB,9F,AB,00,00,
1240187,18FED008,true,Rx,0,7,7E,AB,00,80,F6,FE,00,00,
1240571,18FED009,true,Rx,0,7,00,00,00,00,00,00,00,00,
1243931,000000BA,false,Rx,0,8,AE,43,29,00,00,00,00,B0,
1249475,000000BB,false,Rx,0,8,A7,F2,FF,D1,75,2B,00,00,
1249685,0000015B,false,Rx,0,8,AC,55,00,01,00,00,00,00,
1250068,000001C4,false,Rx,0,8,A5,36,A4,43,3A,A4,43,0A,
1250279,000001B4,false,Rx,0,8,D9,66,A4,46,6A,A4,47,0A,
1250495,000001B8,false,Rx,0,8,AE,56,A4,43,5A,A4,43,0A,
1250705,000001BC,false,Rx,0,8,F4,26,A4,43,3A,A4,43,0A,
1250914,000001B0,false,Rx,0,8,C2,26,A4,43,2A,A4,42,0A,
1251124,000001C0,false,Rx,0,8,DE,36,A4,45,6A,A4,43,0A,
1251347,000001C8,false,Rx,0,8,30,66,A4,46,5A,A4,46,0A,
1251583,000001CC,false,Rx,0,8,6E,56,A4,46,6A,A4,46,0A,
1251831,18FED007,true,Rx,0,6,00,07,A0,AB,AA,AB,00,00,
1252042,18FED008,true,Rx,0,7,7E,AB,0B,80,F6,FE,00,00,
1252428,18FED009,true,Rx,0,7,00,00,00,00,00,00,00,00,
1253859,000000BA,false,Rx,0,8,F2,44,29,00,00,00,00,AC,
1254765,000001C5,false,Rx,0,8,D3,36,A4,42,CA,A3,45,0A,
1255147,000001C6,false,Rx,0,8,EF,56,A4,45,5A,A4,3D,0A,
1255359,000001B1,false,Rx,0,8,41,26,A4,42,AA,A3,46,0A,
1255575,000001B2,false,Rx,0,8,D4,66,A4,47,6A,A4,3F,0A,
1255784,000001B5,false,Rx,0,8,1A,66,A4,46,FA,A3,46,0A,
1255994,000001B6,false,Rx,0,8,1A,66,A4,46,5A,A4,3F,0A,
1256204,000001B9,false,Rx,0,8,9E,36,A4,42,AA,A3,47,0A,
1256415,000001BA,false,Rx,0,8,62,A6,A4,46,7A,A4,42,0A,
1256630,000001BD,false,Rx,0,8,BA,36,A4,43,AA,A3,43,0A,
1256840,000001BE,false,Rx,0,8,83,56,A4,43,3A,A4,3D,0A,
1258499,000001C1,false,Rx,0,8,48,36,A4,42,BA,A3,45,0A,
1258504,000001C2,false,Rx,0,8,78,56,A4,45,5A,A4,3C,0A,
1258509,000001C9,false,Rx,0,8,1F,36,A4,43,AA,A3,43,0A,
1258514,000001CA,false,Rx,0,8,2F,36,A4,43,3A,A4,3C,0A,
1258519,000001CD,false,Rx,0,8,57,66,A4,45,DA,A3,45,0A,
1258524,000001CE,false,Rx,0,8,66,66,A4,45,5A,A4,40,0A,
1259464,000000BB,false,Rx,0,8,C3,F3,FF,D1,75,2B,00,18,
1259682,0000015B,false,Rx,0,8,FC,56,00,01,00,00,00,00,
1260064,18FED007,true,Rx,0,6,00,07,A0,AB,AA,AB,00,00,
1260277,18FED008,true,Rx,0,7,7E,AB,0B,80,F6,FE,00,00,
1260486,18FED009,true,Rx,0,7,00,00,00,00,00,00,00,00,
1264910,000000BA,false,Rx,0,8,50,45,29,00,00,00,00,AD,
1269474,000000BB,false,Rx,0,8,63,F4,FF,C9,75,2B,00,1A,
1269684,0000015B,false,Rx,0,8,E7,57,00,01,00,00,00,00,
1270081,18FED007,true,Rx,0,6,00,07,94,AB,9F,AB,00,00,
1270292,18FED008,true,Rx,0,7,7E,AB,00,80,F6,FE,00,00,
1270508,18FED009,true,Rx,0,7,00,00,00,00,00,00,00,00,
1273845,000000BA,false,Rx,0,8,76,46,29,00,00,00,00,BE,
1278561,000001C4,false,Rx,0,8,A8,97,A4,49,9A,A4,48,EA,
1278567,000001B4,false,Rx,0,8,45,77,A4,48,7A,A4,48,EA,
1278788,000001B8,false,Rx,0,8,E8,A7,A4,49,AA,A4,49,EA,
1279002,000001BC,false,Rx,0,8,EB,37,A4,44,4A,A4,44,EA,
1279226,000001B0,false,Rx,0,8,F4,87,A4,48,9A,A4,49,EA,
1279438,000001C0,false,Rx,0,8,09,77,A4,48,8A,A4,46,EA,
1279655,000000BB,false,Rx,0,8,39,F5,FF,D1,75,2B,00,1C,
1279865,0000015B,false,Rx,0,8,CD,58,00,01,00,00,00,00,
1280250,000001C8,false,Rx,0,8,69,87,A4,47,6A,A4,47,EA,
1280466,000001CC,false,Rx,0,8,A6,77,A4,48,8A,A4,48,EA,
1280676,18FED007,true,Rx,0,6,00,07,A0,AB,AA,AB,00,00,
1280886,18FED008,true,Rx,0,7,7E,AB,0B,80,F6,FE,00,00,
1281096,18FED009,true,Rx,0,7,00,00,00,00,00,00,00,00,
1281486,18FED00A,true,Rx,0,8,00,00,30,1E,00,41,00,00,
1283608,000001C5,false,Rx,0,8,E1,87,A4,48,AA,A4,4C,EA,
1283818,000001B5,false,Rx,0,8,3B,77,A4,47,8A,A4,48,EA,
1284028,000000BA,false,Rx,0,8,93,47,29,00,00,00,00,AF,
1284240,000001B6,false,Rx,0,8,E9,87,A4,48,8A,A4,48,EA,
1284472,000001B1,false,Rx,0,8,1C,87,A4,48,9A,A4,4B,EA,
1284699,000001B2,false,Rx,0,8,93,B7,A4,4D,BA,A4,4B,EA,
1284915,000001B9,false,Rx,0,8,6A,A7,A4,49,9A,A4,48,EA,
1285158,000001BA,false,Rx,0,8,94,A7,A4,48,9A,A4,49,EA,
1285370,000001BD,false,Rx,0,8,D2,37,A4,43,4A,A4,4A,EA,
1285586,000001BE,false,Rx,0,8,75,A7,A4,49,9A,A4,49,EA,
1285795,000001C1,false,Rx,0,8,90,77,A4,45,7A,A4,4A,EA,
1286005,000001C2,false,Rx,0,8,17,A7,A4,49,9A,A4,48,EA,
1286215,000001C6,false,Rx,0,8,8D,B7,A4,4C,CA,A4,4B,EA,
1286426,000001C9,false,Rx,0,8,23,57,A4,46,6A,A4,49,EA,
1286642,000001CA,false,Rx,0,8,44,97,A4,49,8A,A4,48,EA,
1286852,000001CD,false,Rx,0,8,A0,77,A4,47,9A,A4,49,EA,
1287235,000001CE,false,Rx,0,8,02,A7,A4,4A,AA,A4,4A,EA,
1289533,000000BB,false,Rx,0,8,73,E6,FF,D1,75,2B,00,1E,
1289743,0000015B,false,Rx,0,8,CE,59,00,01,00,00,00,00,
1289953,18FED007,true,Rx,0,6,00,07,A0,AB,AA,AB,00,00,
1290337,18FED008,true,Rx,0,7,7E,AB,0B,80,F6,FE,00,00,
1290546,18FED009,true,Rx,0,7,00,00,00,00,00,00,00,00,
1293889,000000BA,false,Rx,0,8,DF,48,29,00,00,00,00,A1,
1299466,000000BB,false,Rx,0,8,FF,E7,FF,D1,75,2B,00,02,
1299848,0000015B,false,Rx,0,8,DB,5A,00,01,00,00,00,00,
1300059,18FED007,true,Rx,0,6,00,0B,A0,AB,9F,AB,00,00,
1300270,18FED008,true,Rx,0,7,7E,AB,00,80,F6,FE,00,00,
1300502,18FED009,true,Rx,0,7,00,00,00,00,00,00,00,00,
1303834,000000BA,false,Rx,0,8,D2,49,29,00,00,00,00,B0,
1309530,000000BB,false,Rx,0,8,7B,F8,FF,D1,75,2B,00,00,
1309740,0000015B,false,Rx,0,8,24,5B,00,01,00,00,00,00,
1309949,000001C4,false,Rx,0,8,8F,38,A4,43,3A,A4,43,0A,
1310159,000001B4,false,Rx,0,8,49,68,A4,46,6A,A4,47,0A,
1310371,000001B8,false,Rx,0,8,3F,58,A4,43,5A,A4,43,0A,
1310759,000001BC,false,Rx,0,8,1F,28,A4,43,3A,A4,43,0A,
1310985,000001B0,false,Rx,0,8,5D,28,A4,43,2A,A4,42,0A,
1311316,000001C0,false,Rx,0,8,C8,38,A4,45,6A,A4,42,0A,
1311322,000001C8,false,Rx,0,8,B4,68,A4,46,5A,A4,46,0A,
1311542,000001CC,false,Rx,0,8,90,58,A4,46,6A,A4,46,0A,
1311752,18FED007,true,Rx,0,6,00,0B,A0,AB,AA,AB,00,00,
1312134,18FED008,true,Rx,0,7,7E,AB,0B,80,F6,FE,00,00,
1312346,18FED009,true,Rx,0,7,00,00,00,00,00,00,00,00,
1313949,000000BA,false,Rx,0,8,96,4A,29,00,00,00,00,A2,
1314856,000001C5,false,Rx,0,8,8F,38,A4,42,CA,A3,45,0A,
1315066,000001C6,false,Rx,0,8,35,58,A4,45,5A,A4,3D,0A,
1315277,000001B1,false,Rx,0,8,98,28,A4,42,AA,A3,46,0A,
1315493,000001B2,false,Rx,0,8,8B,58,A4,47,6A,A4,3F,0A,
1315704,000001B5,false,Rx,0,8,A4,68,A4,46,FA,A3,46,0A,
1315913,000001B6,false,Rx,0,8,3F,68,A4,46,6A,A4,3F,0A,
1316123,000001B9,false,Rx,0,8,89,38,A4,42,AA,A3,47,0A,
1316336,000001BA,false,Rx,0,8,B0,A8,A4,46,7A,A4,42,0A,
1316724,000001BD,false,Rx,0,8,10,38,A4,43,AA,A3,43,0A,
1316934,000001BE,false,Rx,0,8,B6,58,A4,43,3A,A4,3D,0A,
1317144,000001C1,false,Rx,0,8,9C,38,A4,42,BA,A3,45,0A,
1318773,000001C2,false,Rx,0,8,E9,58,A4,45,5A,A4,3C,0A,
1318779,000001C9,false,Rx,0,8,BC,38,A4,43,BA,A3,43,0A,
1318784,000001CA,false,Rx,0,8,6E,38,A4,43,3A,A4,3C,0A,
1318789,000001CD,false,Rx,0,8,BA,68,A4,45,DA,A3,45,0A,
1318794,000001CE,false,Rx,0,8,F9,68,A4,45,5A,A4,40,0A,
1319539,000000BB,false,Rx,0,8,91,E9,FF,D1,75,2B,00,04,
1319749,0000015B,false,Rx,0,8,1B,5C,00,01,00,00,00,00,
1319958,18FED007,true,Rx,0,6,00,0B,A0,AB,AA,AB,00,00,
1320341,18FED008,true,Rx,0,7,7E,AB,0B,80,F6,FE,00,00,
1320549,18FED009,true,Rx,0,7,00,00,00,00,00,00,00,00,
1321808,18FED602,true,Rx,0,5,0C,20,00,00,00,00,00,00,
1322202,18FED202,true,Rx,0,5,0C,20,00,00,00,00,00,00,
1322428,18FED102,true,Rx,0,5,0C,20,00,00,00,00,00,00,
1322641,18FED302,true,Rx,0,5,0C,20,00,00,00,00,00,00,
1322851,18FED402,true,Rx,0,5,0C,20,00,00,00,00,00,00,
1323062,16A9541F,true,Rx,0,8,88,A0,80,AA,A0,A0,AA,AA,
1323452,16A9541A,true,Rx,0,8,88,A0,80,AA,A0,A0,AA,AA,
1323661,16A9541B,true,Rx,0,8,88,A0,80,AA,A0,A0,AA,AA,
1323872,16A9541C,true,Rx,0,8,88,A0,80,AA,A0,A0,AA,AA,
1324256,16A9541D,true,Rx,0,8,88,A0,80,AA,A0,A0,AA,AA,
1324472,16A9541E,true,Rx,0,8,88,A0,80,AA,A0,A0,AA,AA,
1324682,16A95420,true,Rx,0,8,88,A0,80,AA,A0,A0,AA,AA,
1324892,000000BA,false,Rx,0,8,59,4B,29,00,00,00,00,A3,
1325277,16A95421,true,Rx,0,8,88,A0,80,AA,A0,A0,AA,AA,
1325493,18FED502,true,Rx,0,5,0C,20,00,00,00,00,00,00,
1325703,18FED702,true,Rx,0,5,0C,20,00,00,00,00,00,00,
1325913,18FED802,true,Rx,0,5,0C,20,00,00,00,00,00,00,
1326297,1A555460,true,Rx,0,8,03,30,30,30,30,00,00,00,
1326513,1A555461,true,Rx,0,8,03,30,30,30,30,00,00,00,
1326722,1A555462,true,Rx,0,8,03,30,30,30,30,00,00,00,
1327104,1A555463,true,Rx,0,8,03,30,30,30,30,00,00,00,
1327316,1A555464,true,Rx,0,8,03,30,30,30,30,00,00,00,
1327706,1A555465,true,Rx,0,8,03,30,30,30,30,00,00,00,
1327916,1A555466,true,Rx,0,8,03,30,30,30,30,00,00,00,
1328126,1A555467,true,Rx,0,8,03,30,30,30,30,00,00,00,
1329558,000000BB,false,Rx,0,8,BC,FA,FF,C9,75,2B,00,06,
1329768,0000015B,false,Rx,0,8,51,5D,00,01,00,00,00,00,
1329978,18FED007,true,Rx,0,6,00,0B,94,AB,9F,AB,00,00,
1330364,18FED008,true,Rx,0,7,7E,AB,00,80,F6,FE,00,00,
1330589,18FED009,true,Rx,0,7,00,00,00,00,00,00,00,00,
1333841,000000BA,false,Rx,0,8,51,4C,29,00,00,00,00,B4,
1338835,000001C4,false,Rx,0,8,7C,89,A4,49,9A,A4,48,4A,
